Time Stamp,ID,Extended,Dir,Bus,LEN,D1,D2,D3,D4,D5,D6,D7,D8
52687977,0CF00417,true,Rx,0,8,FF,FF,FF,B1,12,FF,FF,FF,
52690861,0CFE6CEE,true,Rx,0,8,38,1F,7F,C0,00,00,00,00,
52707921,0CF00417,true,Rx,0,8,FF,FF,FF,B5,12,FF,FF,FF,
52727871,0CF00417,true,Rx,0,8,FF,FF,FF,B5,12,FF,FF,FF,
52739848,0CFE6CEE,true,Rx,0,8,38,1F,7F,C0,00,00,00,00,
52747822,0CF00417,true,Rx,0,8,FF,FF,FF,BC,12,FF,FF,FF,
52751669,18FEC1EE,true,Rx,0,8,84,B7,EC,00,40,70,10,00,
52767918,0CF00417,true,Rx,0,8,FF,FF,FF,B7,12,FF,FF,FF,
52788013,0CF00417,true,Rx,0,8,FF,FF,FF,B0,12,FF,FF,FF,
52814036,0CFE6CEE,true,Rx,0,8,38,1F,7F,C0,00,00,00,00,
52814041,0CF00417,true,Rx,0,8,FF,FF,FF,AB,12,FF,FF,FF,
52814047,18FEE6EE,true,Rx,0,8,C4,1F,14,07,58,27,7D,7A,
19941,0CF00417,true,Rx,0,8,FF,FF,FF,AB,12,FF,FF,FF,
31836,0CFE6CEE,true,Rx,0,8,38,1F,7F,C0,00,00,00,00,
39822,0CF00417,true,Rx,0,8,FF,FF,FF,A7,12,FF,FF,FF,
59843,0CF00417,true,Rx,0,8,FF,FF,FF,A6,12,FF,FF,FF,
79941,0CF00417,true,Rx,0,8,FF,FF,FF,A6,12,FF,FF,FF,
81785,0CFE6CEE,true,Rx,0,8,38,1F,7F,C0,00,00,00,00,
99911,0CF00417,true,Rx,0,8,FF,FF,FF,AA,12,FF,FF,FF,
119848,0CF00417,true,Rx,0,8,FF,FF,FF,AA,12,FF,FF,FF,
131783,0CFE6CEE,true,Rx,0,8,38,1F,7F,C0,00,00,00,00,
140009,0CF00417,true,Rx,0,8,FF,FF,FF,B1,12,FF,FF,FF,
159848,0CF00417,true,Rx,0,8,FF,FF,FF,B7,12,FF,FF,FF,
179759,0CF00417,true,Rx,0,8,FF,FF,FF,BA,12,FF,FF,FF,
181868,0CFE6CEE,true,Rx,0,8,38,1F,7F,C0,00,00,00,00,
199818,0CF00417,true,Rx,0,8,FF,FF,FF,BC,12,FF,FF,FF,
219766,0CF00417,true,Rx,0,8,FF,FF,FF,BC,12,FF,FF,FF,
231745,0CFE6CEE,true,Rx,0,8,38,1F,7F,C0,00,00,00,00,
240005,0CF00417,true,Rx,0,8,FF,FF,FF,B8,12,FF,FF,FF,
259770,0CF00417,true,Rx,0,8,FF,FF,FF,B1,12,FF,FF,FF,
280175,0CF00417,true,Rx,0,8,FF,FF,FF,B4,12,FF,FF,FF,
281768,0CFE6CEE,true,Rx,0,8,38,1F,7F,C0,00,00,00,00,
299817,0CF00417,true,Rx,0,8,FF,FF,FF,B8,12,FF,FF,FF,
319778,0CF00417,true,Rx,0,8,FF,FF,FF,B8,12,FF,FF,FF,
331887,0CFE6CEE,true,Rx,0,8,38,1F,7F,C0,00,00,00,00,
339795,0CF00417,true,Rx,0,8,FF,FF,FF,C0,12,FF,FF,FF,
359786,0CF00417,true,Rx,0,8,FF,FF,FF,C0,12,FF,FF,FF,
379807,0CF00417,true,Rx,0,8,FF,FF,FF,BD,12,FF,FF,FF,
381921,0CFE6CEE,true,Rx,0,8,38,1F,7F,C0,00,00,00,00,
399759,0CF00417,true,Rx,0,8,FF,FF,FF,BC,12,FF,FF,FF,
419956,0CF00417,true,Rx,0,8,FF,FF,FF,BC,12,FF,FF,FF,
432258,0CFE6CEE,true,Rx,0,8,38,1F,7F,C0,00,00,00,00,
439972,0CF00417,true,Rx,0,8,FF,FF,FF,B7,12,FF,FF,FF,
459999,0CF00417,true,Rx,0,8,FF,FF,FF,B3,12,FF,FF,FF,
479766,0CF00417,true,Rx,0,8,FF,FF,FF,AF,12,FF,FF,FF,
481867,0CFE6CEE,true,Rx,0,8,38,1F,7F,C0,00,00,00,00,
499766,0CF00417,true,Rx,0,8,FF,FF,FF,B0,12,FF,FF,FF,
519773,0CF00417,true,Rx,0,8,FF,FF,FF,B0,12,FF,FF,FF,
533110,0CFE6CEE,true,Rx,0,8,38,1F,7F,C0,00,00,00,00,
539917,0CF00417,true,Rx,0,8,FF,FF,FF,BE,12,FF,FF,FF,
559910,0CF00417,true,Rx,0,8,FF,FF,FF,C5,12,FF,FF,FF,
579922,0CF00417,true,Rx,0,8,FF,FF,FF,D0,12,FF,FF,FF,
582016,0CFE6CEE,true,Rx,0,8,38,1F,7F,C0,00,00,00,00,
599985,0CF00417,true,Rx,0,8,FF,FF,FF,D0,12,FF,FF,FF,
619958,0CF00417,true,Rx,0,8,FF,FF,FF,D0,12,FF,FF,FF,
633239,0CFE6CEE,true,Rx,0,8,38,1F,7F,C0,00,00,00,00,
639811,0CF00417,true,Rx,0,8,FF,FF,FF,CE,12,FF,FF,FF,
659958,0CF00417,true,Rx,0,8,FF,FF,FF,C6,12,FF,FF,FF,
679974,1CDEEE17,true,Rx,0,8,FC,FF,FF,FF,FF,FF,FF,FF,
680381,0CF00417,true,Rx,0,8,FF,FF,FF,B9,12,FF,FF,FF,
681972,0CFE6CEE,true,Rx,0,8,38,1F,7F,C0,00,00,00,00,
699788,0CF00417,true,Rx,0,8,FF,FF,FF,B9,12,FF,FF,FF,
719749,0CF00417,true,Rx,0,8,FF,FF,FF,B9,12,FF,FF,FF,
734185,0CFE6CEE,true,Rx,0,8,38,1F,7F,C0,00,00,00,00,
739772,0CF00417,true,Rx,0,8,FF,FF,FF,B8,12,FF,FF,FF,
759992,0CF00417,true,Rx,0,8,FF,FF,FF,B3,12,FF,FF,FF,
779778,0CF00417,true,Rx,0,8,FF,FF,FF,AA,12,FF,FF,FF,
782357,0CFE6CEE,true,Rx,0,8,38,1F,7F,C0,00,00,00,00,
799911,0CF00417,true,Rx,0,8,FF,FF,FF,A8,12,FF,FF,FF,
819992,0CF00417,true,Rx,0,8,FF,FF,FF,A8,12,FF,FF,FF,
831828,0CFE6CEE,true,Rx,0,8,38,1F,7F,C0,00,00,00,00,
839763,0CF00417,true,Rx,0,8,FF,FF,FF,A5,12,FF,FF,FF,
859985,0CF00417,true,Rx,0,8,FF,FF,FF,A2,12,FF,FF,FF,
879944,0CF00417,true,Rx,0,8,FF,FF,FF,A1,12,FF,FF,FF,
881829,0CFE6CEE,true,Rx,0,8,38,1F,7F,C0,00,00,00,00,
899922,0CF00417,true,Rx,0,8,FF,FF,FF,A2,12,FF,FF,FF,
919784,0CF00417,true,Rx,0,8,FF,FF,FF,A2,12,FF,FF,FF,
931962,0CFE6CEE,true,Rx,0,8,38,1F,7F,C0,00,00,00,00,
939906,0CF00417,true,Rx,0,8,FF,FF,FF,A5,12,FF,FF,FF,
942005,18FEC1EE,true,Rx,0,8,84,B7,EC,00,40,70,10,00,
959809,0CF00417,true,Rx,0,8,FF,FF,FF,AA,12,FF,FF,FF,
979891,0CF00417,true,Rx,0,8,FF,FF,FF,B1,12,FF,FF,FF,
981945,0CFE6CEE,true,Rx,0,8,38,1F,7F,C0,00,00,00,00,
999891,0CF00417,true,Rx,0,8,FF,FF,FF,B1,12,FF,FF,FF,
1001980,18FEE6EE,true,Rx,0,8,C8,1F,14,07,58,27,7D,7A,
1019934,0CF00417,true,Rx,0,8,FF,FF,FF,B1,12,FF,FF,FF,
1032242,0CFE6CEE,true,Rx,0,8,38,1F,7F,C0,00,00,00,00,
1039909,0CF00417,true,Rx,0,8,FF,FF,FF,B1,12,FF,FF,FF,
1059967,0CF00417,true,Rx,0,8,FF,FF,FF,B3,12,FF,FF,FF,
1079822,0CF00417,true,Rx,0,8,FF,FF,FF,B5,12,FF,FF,FF,
1081911,0CFE6CEE,true,Rx,0,8,38,1F,7F,C0,00,00,00,00,
1099934,0CF00417,true,Rx,0,8,FF,FF,FF,BD,12,FF,FF,FF,
1119931,0CF00417,true,Rx,0,8,FF,FF,FF,BD,12,FF,FF,FF,
1132005,0CFE6CEE,true,Rx,0,8,38,1F,7F,C0,00,00,00,00,
1139796,0CF00417,true,Rx,0,8,FF,FF,FF,CC,12,FF,FF,FF,
1159807,0CF00417,true,Rx,0,8,FF,FF,FF,CC,12,FF,FF,FF,
1179922,0CF00417,true,Rx,0,8,FF,FF,FF,C7,12,FF,FF,FF,
1182010,0CFE6CEE,true,Rx,0,8,38,1F,7F,C0,00,00,00,00,
1199771,0CF00417,true,Rx,0,8,FF,FF,FF,C2,12,FF,FF,FF,
1219946,0CF00417,true,Rx,0,8,FF,FF,FF,C2,12,FF,FF,FF,
1232013,0CFE6CEE,true,Rx,0,8,38,1F,7F,C0,00,00,00,00,
1239883,0CF00417,true,Rx,0,8,FF,FF,FF,C0,12,FF,FF,FF,
1259891,0CF00417,true,Rx,0,8,FF,FF,FF,BC,12,FF,FF,FF,
1279971,0CF00417,true,Rx,0,8,FF,FF,FF,B4,12,FF,FF,FF,
1282036,0CFE6CEE,true,Rx,0,8,38,1F,7F,C0,00,00,00,00,
1299816,0CF00417,true,Rx,0,8,FF,FF,FF,B0,12,FF,FF,FF,
1319730,0CF00417,true,Rx,0,8,FF,FF,FF,B0,12,FF,FF,FF,
1332081,0CFE6CEE,true,Rx,0,8,38,1F,7F,C0,00,00,00,00,
1339862,0CF00417,true,Rx,0,8,FF,FF,FF,AF,12,FF,FF,FF,
1359802,0CF00417,true,Rx,0,8,FF,FF,FF,B5,12,FF,FF,FF,
1379755,0CF00417,true,Rx,0,8,FF,FF,FF,B9,12,FF,FF,FF,
1382120,0CFE6CEE,true,Rx,0,8,38,1F,7F,C0,00,00,00,00,
1400028,0CF00417,true,Rx,0,8,FF,FF,FF,BA,12,FF,FF,FF,
1419895,0CF00417,true,Rx,0,8,FF,FF,FF,BA,12,FF,FF,FF,
1431944,0CFE6CEE,true,Rx,0,8,38,1F,7F,C0,00,00,00,00,
1439830,0CF00417,true,Rx,0,8,FF,FF,FF,BA,12,FF,FF,FF,
1460017,0CF00417,true,Rx,0,8,FF,FF,FF,B8,12,FF,FF,FF,
1480029,0CF00417,true,Rx,0,8,FF,FF,FF,B5,12,FF,FF,FF,
1482192,0CFE6CEE,true,Rx,0,8,38,1F,7F,C0,00,00,00,00,
1499815,0CF00417,true,Rx,0,8,FF,FF,FF,B7,12,FF,FF,FF,
1519855,0CF00417,true,Rx,0,8,FF,FF,FF,B7,12,FF,FF,FF,
1531931,0CFE6CEE,true,Rx,0,8,38,1F,7F,C0,00,00,00,00,
1539761,0CF00417,true,Rx,0,8,FF,FF,FF,BA,12,FF,FF,FF,
1560023,0CF00417,true,Rx,0,8,FF,FF,FF,BD,12,FF,FF,FF,
1579759,0CF00417,true,Rx,0,8,FF,FF,FF,C2,12,FF,FF,FF,
1582169,0CFE6CEE,true,Rx,0,8,38,1F,7F,C0,00,00,00,00,
1601725,0CF00417,true,Rx,0,8,FF,FF,FF,C0,12,FF,FF,FF,
1620082,0CF00417,true,Rx,0,8,FF,FF,FF,C0,12,FF,FF,FF,
1632178,0CFE6CEE,true,Rx,0,8,38,1F,7F,C0,00,00,00,00,
1639760,0CF00417,true,Rx,0,8,FF,FF,FF,BA,12,FF,FF,FF,
1660757,0CF00417,true,Rx,0,8,FF,FF,FF,B5,12,FF,FF,FF,
1680383,1CDEEE17,true,Rx,0,8,FC,FF,FF,FF,FF,FF,FF,FF,
1680388,0CF00417,true,Rx,0,8,FF,FF,FF,B1,12,FF,FF,FF,
1682022,0CFE6CEE,true,Rx,0,8,38,1F,7F,C0,00,00,00,00,
1703136,0CF00417,true,Rx,0,8,FF,FF,FF,B4,12,FF,FF,FF,
1721200,0CF00417,true,Rx,0,8,FF,FF,FF,B4,12,FF,FF,FF,
1732027,0CFE6CEE,true,Rx,0,8,38,1F,7F,C0,00,00,00,00,
1740445,0CF00417,true,Rx,0,8,FF,FF,FF,BC,12,FF,FF,FF,
1761343,0CF00417,true,Rx,0,8,FF,FF,FF,BE,12,FF,FF,FF,
1780947,0CF00417,true,Rx,0,8,FF,FF,FF,BE,12,FF,FF,FF,
1782061,0CFE6CEE,true,Rx,0,8,38,1F,7F,C0,00,00,00,00,
1803322,0CF00417,true,Rx,0,8,FF,FF,FF,BC,12,FF,FF,FF,
1821661,0CF00417,true,Rx,0,8,FF,FF,FF,BC,12,FF,FF,FF,
1832112,0CFE6CEE,true,Rx,0,8,38,1F,7F,C0,00,00,00,00,
1841290,0CF00417,true,Rx,0,8,FF,FF,FF,BC,12,FF,FF,FF,
1862073,0CF00417,true,Rx,0,8,FF,FF,FF,BA,12,FF,FF,FF,
1881705,0CF00417,true,Rx,0,8,FF,FF,FF,B7,12,FF,FF,FF,
1882110,0CFE6CEE,true,Rx,0,8,38,1F,7F,C0,00,00,00,00,
1902226,0CF00417,true,Rx,0,8,FF,FF,FF,B9,12,FF,FF,FF,
1922436,0CF00417,true,Rx,0,8,FF,FF,FF,B9,12,FF,FF,FF,
1932005,0CFE6CEE,true,Rx,0,8,38,1F,7F,C0,00,00,00,00,
1941634,0CF00417,true,Rx,0,8,FF,FF,FF,C2,12,FF,FF,FF,
1941975,18FEC1EE,true,Rx,0,8,84,B7,EC,00,40,70,10,00,
1962592,0CF00417,true,Rx,0,8,FF,FF,FF,C5,12,FF,FF,FF,
1979773,0CF00417,true,Rx,0,8,FF,FF,FF,C3,12,FF,FF,FF,
1982417,0CFE6CEE,true,Rx,0,8,38,1F,7F,C0,00,00,00,00,
1999917,0CF00417,true,Rx,0,8,FF,FF,FF,C2,12,FF,FF,FF,
2002111,18FEE6EE,true,Rx,0,8,CC,1F,14,07,58,27,7D,7A,
2019934,0CF00417,true,Rx,0,8,FF,FF,FF,C2,12,FF,FF,FF,
2032189,0CFE6CEE,true,Rx,0,8,38,1F,7F,C0,00,00,00,00,
2039913,0CF00417,true,Rx,0,8,FF,FF,FF,C1,12,FF,FF,FF,
2059870,0CF00417,true,Rx,0,8,FF,FF,FF,BD,12,FF,FF,FF,
2079842,0CF00417,true,Rx,0,8,FF,FF,FF,B7,12,FF,FF,FF,
2083245,0CFE6CEE,true,Rx,0,8,38,1F,7F,C0,00,00,00,00,
2099685,0CF00417,true,Rx,0,8,FF,FF,FF,B8,12,FF,FF,FF,
2119874,0CF00417,true,Rx,0,8,FF,FF,FF,B8,12,FF,FF,FF,
2132024,0CFE6CEE,true,Rx,0,8,38,1F,7F,C0,00,00,00,00,
2139747,0CF00417,true,Rx,0,8,FF,FF,FF,BA,12,FF,FF,FF,
2159819,0CF00417,true,Rx,0,8,FF,FF,FF,BA,12,FF,FF,FF,
2179818,0CF00417,true,Rx,0,8,FF,FF,FF,BD,12,FF,FF,FF,
2184195,0CFE6CEE,true,Rx,0,8,38,1F,7F,C0,00,00,00,00,
2199892,0CF00417,true,Rx,0,8,FF,FF,FF,BC,12,FF,FF,FF,
2219907,0CF00417,true,Rx,0,8,FF,FF,FF,BC,12,FF,FF,FF,
2232314,0CFE6CEE,true,Rx,0,8,38,1F,7F,C0,00,00,00,00,
2239850,0CF00417,true,Rx,0,8,FF,FF,FF,B8,12,FF,FF,FF,
2259706,0CF00417,true,Rx,0,8,FF,FF,FF,B4,12,FF,FF,FF,
2279891,0CF00417,true,Rx,0,8,FF,FF,FF,AE,12,FF,FF,FF,
2284795,0CFE6CEE,true,Rx,0,8,38,1F,7F,C0,00,00,00,00,
2299693,0CF00417,true,Rx,0,8,FF,FF,FF,AC,12,FF,FF,FF,
2319747,0CF00417,true,Rx,0,8,FF,FF,FF,AC,12,FF,FF,FF,
2332145,0CFE6CEE,true,Rx,0,8,38,1F,7F,C0,00,00,00,00,
2339868,0CF00417,true,Rx,0,8,FF,FF,FF,AC,12,FF,FF,FF,
2359691,0CF00417,true,Rx,0,8,FF,FF,FF,AE,12,FF,FF,FF,
2379788,0CF00417,true,Rx,0,8,FF,FF,FF,AF,12,FF,FF,FF,
2382159,0CFE6CEE,true,Rx,0,8,38,1F,7F,C0,00,00,00,00,
2399832,0CF00417,true,Rx,0,8,FF,FF,FF,AF,12,FF,FF,FF,
2419874,0CF00417,true,Rx,0,8,FF,FF,FF,AF,12,FF,FF,FF,
2432126,0CFE6CEE,true,Rx,0,8,38,1F,7F,C0,00,00,00,00,
2439850,0CF00417,true,Rx,0,8,FF,FF,FF,B1,12,FF,FF,FF,
2459931,0CF00417,true,Rx,0,8,FF,FF,FF,B4,12,FF,FF,FF,
2479818,0CF00417,true,Rx,0,8,FF,FF,FF,B8,12,FF,FF,FF,
2482169,0CFE6CEE,true,Rx,0,8,38,1F,7F,C0,00,00,00,00,
2499744,0CF00417,true,Rx,0,8,FF,FF,FF,C3,12,FF,FF,FF,
2519739,0CF00417,true,Rx,0,8,FF,FF,FF,C3,12,FF,FF,FF,
2532257,0CFE6CEE,true,Rx,0,8,38,1F,7F,C0,00,00,00,00,
2539724,0CF00417,true,Rx,0,8,FF,FF,FF,DA,12,FF,FF,FF,
2559915,0CF00417,true,Rx,0,8,FF,FF,FF,DC,12,FF,FF,FF,
2579718,0CF00417,true,Rx,0,8,FF,FF,FF,D9,12,FF,FF,FF,
2582338,0CFE6CEE,true,Rx,0,8,38,1F,7F,C0,00,00,00,00,
2599771,0CF00417,true,Rx,0,8,FF,FF,FF,D5,12,FF,FF,FF,
2619973,0CF00417,true,Rx,0,8,FF,FF,FF,D5,12,FF,FF,FF,
2632158,0CFE6CEE,true,Rx,0,8,38,1F,7F,C0,00,00,00,00,
2639883,0CF00417,true,Rx,0,8,FF,FF,FF,CF,12,FF,FF,FF,
2659838,0CF00417,true,Rx,0,8,FF,FF,FF,C7,12,FF,FF,FF,
2679954,1CDEEE17,true,Rx,0,8,FC,FF,FF,FF,FF,FF,FF,FF,
2680264,0CF00417,true,Rx,0,8,FF,FF,FF,BA,12,FF,FF,FF,
2682097,0CFE6CEE,true,Rx,0,8,38,1F,7F,C0,00,00,00,00,
2699834,0CF00417,true,Rx,0,8,FF,FF,FF,B7,12,FF,FF,FF,
2719711,0CF00417,true,Rx,0,8,FF,FF,FF,B7,12,FF,FF,FF,
2732372,0CFE6CEE,true,Rx,0,8,38,1F,7F,C0,00,00,00,00,
2739699,0CF00417,true,Rx,0,8,FF,FF,FF,B3,12,FF,FF,FF,
2759763,0CF00417,true,Rx,0,8,FF,FF,FF,B4,12,FF,FF,FF,
2780425,0CF00417,true,Rx,0,8,FF,FF,FF,B5,12,FF,FF,FF,
2782294,0CFE6CEE,true,Rx,0,8,38,1F,7F,C0,00,00,00,00,
2799856,0CF00417,true,Rx,0,8,FF,FF,FF,B4,12,FF,FF,FF,
2819796,0CF00417,true,Rx,0,8,FF,FF,FF,B4,12,FF,FF,FF,
2832321,0CFE6CEE,true,Rx,0,8,38,1F,7F,C0,00,00,00,00,
2839773,0CF00417,true,Rx,0,8,FF,FF,FF,B1,12,FF,FF,FF,
2859738,0CF00417,true,Rx,0,8,FF,FF,FF,B3,12,FF,FF,FF,
2879885,0CF00417,true,Rx,0,8,FF,FF,FF,B9,12,FF,FF,FF,
2882384,0CFE6CEE,true,Rx,0,8,38,1F,7F,C0,00,00,00,00,
2899844,0CF00417,true,Rx,0,8,FF,FF,FF,BD,12,FF,FF,FF,
2919802,0CF00417,true,Rx,0,8,FF,FF,FF,BD,12,FF,FF,FF,
2932431,0CFE6CEE,true,Rx,0,8,38,1F,7F,C0,00,00,00,00,
2939768,0CF00417,true,Rx,0,8,FF,FF,FF,C1,12,FF,FF,FF,
2942127,18FEC1EE,true,Rx,0,8,84,B7,EC,00,40,70,10,00,
2959835,0CF00417,true,Rx,0,8,FF,FF,FF,C2,12,FF,FF,FF,
2979749,0CF00417,true,Rx,0,8,FF,FF,FF,C5,12,FF,FF,FF,
2982383,0CFE6CEE,true,Rx,0,8,38,1F,7F,C0,00,00,00,00,
2999707,0CF00417,true,Rx,0,8,FF,FF,FF,C5,12,FF,FF,FF,
3002359,18FEE6EE,true,Rx,0,8,D0,1F,14,07,58,27,7D,7A,
3019938,0CF00417,true,Rx,0,8,FF,FF,FF,C5,12,FF,FF,FF,
3032823,0CFE6CEE,true,Rx,0,8,38,1F,7F,C0,00,00,00,00,
3039716,0CF00417,true,Rx,0,8,FF,FF,FF,C3,12,FF,FF,FF,
3059699,0CF00417,true,Rx,0,8,FF,FF,FF,C1,12,FF,FF,FF,
3079936,0CF00417,true,Rx,0,8,FF,FF,FF,B9,12,FF,FF,FF,
3082458,0CFE6CEE,true,Rx,0,8,38,1F,7F,C0,00,00,00,00,
3099872,0CF00417,true,Rx,0,8,FF,FF,FF,B7,12,FF,FF,FF,
3119793,0CF00417,true,Rx,0,8,FF,FF,FF,B7,12,FF,FF,FF,
3132406,0CFE6CEE,true,Rx,0,8,38,1F,7F,C0,00,00,00,00,
3139654,0CF00417,true,Rx,0,8,FF,FF,FF,B7,12,FF,FF,FF,
3159685,0CF00417,true,Rx,0,8,FF,FF,FF,BC,12,FF,FF,FF,
3179748,0CF00417,true,Rx,0,8,FF,FF,FF,C1,12,FF,FF,FF,
3182377,0CFE6CEE,true,Rx,0,8,38,1F,7F,C0,00,00,00,00,
3199906,0CF00417,true,Rx,0,8,FF,FF,FF,C0,12,FF,FF,FF,
3219731,0CF00417,true,Rx,0,8,FF,FF,FF,C0,12,FF,FF,FF,
3232405,0CFE6CEE,true,Rx,0,8,38,1F,7F,C0,00,00,00,00,
3239715,0CF00417,true,Rx,0,8,FF,FF,FF,C2,12,FF,FF,FF,
3259865,0CF00417,true,Rx,0,8,FF,FF,FF,C2,12,FF,FF,FF,
3279777,0CF00417,true,Rx,0,8,FF,FF,FF,BD,12,FF,FF,FF,
3282624,0CFE6CEE,true,Rx,0,8,38,1F,7F,C0,00,00,00,00,
3299654,0CF00417,true,Rx,0,8,FF,FF,FF,BA,12,FF,FF,FF,
3319730,0CF00417,true,Rx,0,8,FF,FF,FF,BA,12,FF,FF,FF,
3332139,0CFE6CEE,true,Rx,0,8,38,1F,7F,C0,00,00,00,00,
3339819,0CF00417,true,Rx,0,8,FF,FF,FF,B9,12,FF,FF,FF,
3359846,0CF00417,true,Rx,0,8,FF,FF,FF,BE,12,FF,FF,FF,
3379870,0CF00417,true,Rx,0,8,FF,FF,FF,C3,12,FF,FF,FF,
3382227,0CFE6CEE,true,Rx,0,8,38,1F,7F,C0,00,00,00,00,
3399793,0CF00417,true,Rx,0,8,FF,FF,FF,C2,12,FF,FF,FF,
3419669,0CF00417,true,Rx,0,8,FF,FF,FF,C2,12,FF,FF,FF,
3432307,0CFE6CEE,true,Rx,0,8,38,1F,7F,C0,00,00,00,00,
3439932,0CF00417,true,Rx,0,8,FF,FF,FF,C0,12,FF,FF,FF,
3459906,0CF00417,true,Rx,0,8,FF,FF,FF,BE,12,FF,FF,FF,
3479728,0CF00417,true,Rx,0,8,FF,FF,FF,BD,12,FF,FF,FF,
3482092,0CFE6CEE,true,Rx,0,8,38,1F,7F,C0,00,00,00,00,
3499906,0CF00417,true,Rx,0,8,FF,FF,FF,BC,12,FF,FF,FF,
3519740,0CF00417,true,Rx,0,8,FF,FF,FF,BC,12,FF,FF,FF,
3534116,0CFE6CEE,true,Rx,0,8,38,1F,7F,C0,00,00,00,00,
3539667,0CF00417,true,Rx,0,8,FF,FF,FF,B8,12,FF,FF,FF,
3559741,0CF00417,true,Rx,0,8,FF,FF,FF,B8,12,FF,FF,FF,
3579734,0CF00417,true,Rx,0,8,FF,FF,FF,B9,12,FF,FF,FF,
3582100,0CFE6CEE,true,Rx,0,8,38,1F,7F,C0,00,00,00,00,
3599738,0CF00417,true,Rx,0,8,FF,FF,FF,B8,12,FF,FF,FF,
3619891,0CF00417,true,Rx,0,8,FF,FF,FF,B8,12,FF,FF,FF,
3633811,0CFE6CEE,true,Rx,0,8,38,1F,7F,C0,00,00,00,00,
3639798,0CF00417,true,Rx,0,8,FF,FF,FF,B8,12,FF,FF,FF,
3659813,0CF00417,true,Rx,0,8,FF,FF,FF,BA,12,FF,FF,FF,
3679690,1CDEEE17,true,Rx,0,8,FC,FF,FF,FF,FF,FF,FF,FF,
3680263,0CF00417,true,Rx,0,8,FF,FF,FF,BD,12,FF,FF,FF,
3680809,18FFA917,true,Rx,0,8,25,FF,FF,FF,FF,FF,FF,FF,
3682141,0CFE6CEE,true,Rx,0,8,38,1F,7F,C0,00,00,00,00,
3699720,0CF00417,true,Rx,0,8,FF,FF,FF,BE,12,FF,FF,FF,
3719906,0CF00417,true,Rx,0,8,FF,FF,FF,BE,12,FF,FF,FF,
3734651,0CFE6CEE,true,Rx,0,8,38,1F,7F,C0,00,00,00,00,
3739850,0CF00417,true,Rx,0,8,FF,FF,FF,C3,12,FF,FF,FF,
3759873,0CF00417,true,Rx,0,8,FF,FF,FF,C6,12,FF,FF,FF,
3779898,0CF00417,true,Rx,0,8,FF,FF,FF,C6,12,FF,FF,FF,
3782064,0CFE6CEE,true,Rx,0,8,38,1F,7F,C0,00,00,00,00,
3799802,0CF00417,true,Rx,0,8,FF,FF,FF,C5,12,FF,FF,FF,
3819977,0CF00417,true,Rx,0,8,FF,FF,FF,C5,12,FF,FF,FF,
3832056,0CFE6CEE,true,Rx,0,8,38,1F,7F,C0,00,00,00,00,
3839770,0CF00417,true,Rx,0,8,FF,FF,FF,C5,12,FF,FF,FF,
3859770,0CF00417,true,Rx,0,8,FF,FF,FF,C3,12,FF,FF,FF,
3879891,0CF00417,true,Rx,0,8,FF,FF,FF,BE,12,FF,FF,FF,
3881975,0CFE6CEE,true,Rx,0,8,38,1F,7F,C0,00,00,00,00,
3899831,0CF00417,true,Rx,0,8,FF,FF,FF,B9,12,FF,FF,FF,
3919727,0CF00417,true,Rx,0,8,FF,FF,FF,B9,12,FF,FF,FF,
3932073,0CFE6CEE,true,Rx,0,8,38,1F,7F,C0,00,00,00,00,
3939741,0CF00417,true,Rx,0,8,FF,FF,FF,B5,12,FF,FF,FF,
3942107,18FEC1EE,true,Rx,0,8,84,B7,EC,00,40,70,10,00,
3959738,0CF00417,true,Rx,0,8,FF,FF,FF,B7,12,FF,FF,FF,
3979808,0CF00417,true,Rx,0,8,FF,FF,FF,B5,12,FF,FF,FF,
3981940,0CFE6CEE,true,Rx,0,8,38,1F,7F,C0,00,00,00,00,
3999711,0CF00417,true,Rx,0,8,FF,FF,FF,B7,12,FF,FF,FF,
4001964,18FEE6EE,true,Rx,0,8,D4,1F,14,07,58,27,7D,7A,
4019809,0CF00417,true,Rx,0,8,FF,FF,FF,B7,12,FF,FF,FF,
4031947,0CFE6CEE,true,Rx,0,8,38,1F,7F,C0,00,00,00,00,
4039937,0CF00417,true,Rx,0,8,FF,FF,FF,B9,12,FF,FF,FF,
4059694,0CF00417,true,Rx,0,8,FF,FF,FF,BA,12,FF,FF,FF,
4079795,0CF00417,true,Rx,0,8,FF,FF,FF,BD,12,FF,FF,FF,
4081889,0CFE6CEE,true,Rx,0,8,38,1F,7F,C0,00,00,00,00,
4099868,0CF00417,true,Rx,0,8,FF,FF,FF,BC,12,FF,FF,FF,
4119791,0CF00417,true,Rx,0,8,FF,FF,FF,BC,12,FF,FF,FF,
4131892,0CFE6CEE,true,Rx,0,8,38,1F,7F,C0,00,00,00,00,
4139846,0CF00417,true,Rx,0,8,FF,FF,FF,B8,12,FF,FF,FF,
4160585,0CF00417,true,Rx,0,8,FF,FF,FF,B8,12,FF,FF,FF,
4179707,0CF00417,true,Rx,0,8,FF,FF,FF,BC,12,FF,FF,FF,
4182056,0CFE6CEE,true,Rx,0,8,38,1F,7F,C0,00,00,00,00,
4199836,0CF00417,true,Rx,0,8,FF,FF,FF,BD,12,FF,FF,FF,
4219899,0CF00417,true,Rx,0,8,FF,FF,FF,BD,12,FF,FF,FF,
4232030,0CFE6CEE,true,Rx,0,8,38,1F,7F,C0,00,00,00,00,
4239651,0CF00417,true,Rx,0,8,FF,FF,FF,BD,12,FF,FF,FF,
4261439,0CF00417,true,Rx,0,8,FF,FF,FF,BC,12,FF,FF,FF,
4279791,0CF00417,true,Rx,0,8,FF,FF,FF,BA,12,FF,FF,FF,
4281892,0CFE6CEE,true,Rx,0,8,38,1F,7F,C0,00,00,00,00,
4299648,0CF00417,true,Rx,0,8,FF,FF,FF,BA,12,FF,FF,FF,
4320005,0CF00417,true,Rx,0,8,FF,FF,FF,BA,12,FF,FF,FF,
4331886,0CFE6CEE,true,Rx,0,8,38,1F,7F,C0,00,00,00,00,
4339788,0CF00417,true,Rx,0,8,FF,FF,FF,BE,12,FF,FF,FF,
4359718,0CF00417,true,Rx,0,8,FF,FF,FF,C3,12,FF,FF,FF,
4379647,0CF00417,true,Rx,0,8,FF,FF,FF,C6,12,FF,FF,FF,
4381860,0CFE6CEE,true,Rx,0,8,38,1F,7F,C0,00,00,00,00,
4399733,0CF00417,true,Rx,0,8,FF,FF,FF,C5,12,FF,FF,FF,
4419798,0CF00417,true,Rx,0,8,FF,FF,FF,C5,12,FF,FF,FF,
4431987,0CFE6CEE,true,Rx,0,8,38,1F,7F,C0,00,00,00,00,
4439868,0CF00417,true,Rx,0,8,FF,FF,FF,C5,12,FF,FF,FF,
4459799,0CF00417,true,Rx,0,8,FF,FF,FF,C2,12,FF,FF,FF,
4480034,0CF00417,true,Rx,0,8,FF,FF,FF,BA,12,FF,FF,FF,
4482013,0CFE6CEE,true,Rx,0,8,38,1F,7F,C0,00,00,00,00,
4499741,0CF00417,true,Rx,0,8,FF,FF,FF,B9,12,FF,FF,FF,
4520596,0CF00417,true,Rx,0,8,FF,FF,FF,B9,12,FF,FF,FF,
4532000,0CFE6CEE,true,Rx,0,8,38,1F,7F,C0,00,00,00,00,
4540593,0CF00417,true,Rx,0,8,FF,FF,FF,BC,12,FF,FF,FF,
4559665,0CF00417,true,Rx,0,8,FF,FF,FF,BD,12,FF,FF,FF,
4580800,0CF00417,true,Rx,0,8,FF,FF,FF,BC,12,FF,FF,FF,
4581761,0CFE6CEE,true,Rx,0,8,38,1F,7F,C0,00,00,00,00,
4600214,0CF00417,true,Rx,0,8,FF,FF,FF,BC,12,FF,FF,FF,
4621071,0CF00417,true,Rx,0,8,FF,FF,FF,BC,12,FF,FF,FF,
4631917,0CFE6CEE,true,Rx,0,8,38,1F,7F,C0,00,00,00,00,
4640895,0CF00417,true,Rx,0,8,FF,FF,FF,BD,12,FF,FF,FF,
4660374,0CF00417,true,Rx,0,8,FF,FF,FF,C0,12,FF,FF,FF,
4681453,1CDEEE17,true,Rx,0,8,FC,FF,FF,FF,FF,FF,FF,FF,
4681458,0CF00417,true,Rx,0,8,FF,FF,FF,C3,12,FF,FF,FF,
4681895,0CFE6CEE,true,Rx,0,8,38,1F,7F,C0,00,00,00,00,
4700945,0CF00417,true,Rx,0,8,FF,FF,FF,C6,12,FF,FF,FF,
4721344,0CF00417,true,Rx,0,8,FF,FF,FF,C6,12,FF,FF,FF,
4731773,0CFE6CEE,true,Rx,0,8,38,1F,7F,C0,00,00,00,00,
4741673,0CF00417,true,Rx,0,8,FF,FF,FF,CB,12,FF,FF,FF,
4761208,0CF00417,true,Rx,0,8,FF,FF,FF,CE,12,FF,FF,FF,
4782282,0CF00417,true,Rx,0,8,FF,FF,FF,D1,12,FF,FF,FF,
4782287,0CFE6CEE,true,Rx,0,8,38,1F,7F,C0,00,00,00,00,
4801704,0CF00417,true,Rx,0,8,FF,FF,FF,CF,12,FF,FF,FF,
4821830,0CF00417,true,Rx,0,8,FF,FF,FF,CF,12,FF,FF,FF,
4831699,0CFE6CEE,true,Rx,0,8,38,1F,7F,C0,00,00,00,00,
4842151,0CF00417,true,Rx,0,8,FF,FF,FF,C8,12,FF,FF,FF,
4861644,0CF00417,true,Rx,0,8,FF,FF,FF,C2,12,FF,FF,FF,
4882737,0CF00417,true,Rx,0,8,FF,FF,FF,BA,12,FF,FF,FF,
4882742,0CFE6CEE,true,Rx,0,8,38,1F,7F,C0,00,00,00,00,
4902083,0CF00417,true,Rx,0,8,FF,FF,FF,B8,12,FF,FF,FF,
4921791,0CF00417,true,Rx,0,8,FF,FF,FF,B8,12,FF,FF,FF,
4931660,0CFE6CEE,true,Rx,0,8,38,1F,7F,C0,00,00,00,00,
4939633,0CF00417,true,Rx,0,8,FF,FF,FF,B5,12,FF,FF,FF,
4942645,18FEC1EE,true,Rx,0,8,84,B7,EC,00,40,70,10,00,
4959679,0CF00417,true,Rx,0,8,FF,FF,FF,B8,12,FF,FF,FF,
4979712,0CF00417,true,Rx,0,8,FF,FF,FF,B9,12,FF,FF,FF,
4983176,0CFE6CEE,true,Rx,0,8,38,1F,7F,C0,00,00,00,00,
4999773,0CF00417,true,Rx,0,8,FF,FF,FF,BA,12,FF,FF,FF,
5002454,18FEE6EE,true,Rx,0,8,D8,1F,14,07,58,27,7D,7A,
5019692,0CF00417,true,Rx,0,8,FF,FF,FF,BA,12,FF,FF,FF,
5031722,0CFE6CEE,true,Rx,0,8,38,1F,7F,C0,00,00,00,00,
5039724,0CF00417,true,Rx,0,8,FF,FF,FF,BE,12,FF,FF,FF,
5059781,0CF00417,true,Rx,0,8,FF,FF,FF,BD,12,FF,FF,FF,
5079658,0CF00417,true,Rx,0,8,FF,FF,FF,B9,12,FF,FF,FF,
5083696,0CFE6CEE,true,Rx,0,8,38,1F,7F,C0,00,00,00,00,
5099773,0CF00417,true,Rx,0,8,FF,FF,FF,BD,12,FF,FF,FF,
5119731,0CF00417,true,Rx,0,8,FF,FF,FF,BD,12,FF,FF,FF,
5132266,0CFE6CEE,true,Rx,0,8,38,1F,7F,C0,00,00,00,00,
5139729,0CF00417,true,Rx,0,8,FF,FF,FF,C7,12,FF,FF,FF,
5159793,0CF00417,true,Rx,0,8,FF,FF,FF,CA,12,FF,FF,FF,
5179720,0CF00417,true,Rx,0,8,FF,FF,FF,CB,12,FF,FF,FF,
5184352,0CFE6CEE,true,Rx,0,8,38,1F,7F,C0,00,00,00,00,
5199820,0CF00417,true,Rx,0,8,FF,FF,FF,CB,12,FF,FF,FF,
5219770,0CF00417,true,Rx,0,8,FF,FF,FF,CB,12,FF,FF,FF,
5232226,0CFE6CEE,true,Rx,0,8,38,1F,7F,C0,00,00,00,00,
5239712,0CF00417,true,Rx,0,8,FF,FF,FF,CC,12,FF,FF,FF,
5259787,0CF00417,true,Rx,0,8,FF,FF,FF,C7,12,FF,FF,FF,
5279724,0CF00417,true,Rx,0,8,FF,FF,FF,BD,12,FF,FF,FF,
5285845,0CFE6CEE,true,Rx,0,8,38,1F,7F,C0,00,00,00,00,
5299761,0CF00417,true,Rx,0,8,FF,FF,FF,BE,12,FF,FF,FF,
5319635,0CF00417,true,Rx,0,8,FF,FF,FF,BE,12,FF,FF,FF,
5332385,0CFE6CEE,true,Rx,0,8,38,1F,7F,C0,00,00,00,00,
5339601,0CF00417,true,Rx,0,8,FF,FF,FF,C2,12,FF,FF,FF,
5359708,0CF00417,true,Rx,0,8,FF,FF,FF,C3,12,FF,FF,FF,
5379602,0CF00417,true,Rx,0,8,FF,FF,FF,C2,12,FF,FF,FF,
5382206,0CFE6CEE,true,Rx,0,8,38,1F,7F,C0,00,00,00,00,
5399644,0CF00417,true,Rx,0,8,FF,FF,FF,C1,12,FF,FF,FF,
5419748,0CF00417,true,Rx,0,8,FF,FF,FF,C1,12,FF,FF,FF,
5432328,0CFE6CEE,true,Rx,0,8,38,1F,7F,C0,00,00,00,00,
5439799,0CF00417,true,Rx,0,8,FF,FF,FF,C0,12,FF,FF,FF,
5459640,0CF00417,true,Rx,0,8,FF,FF,FF,BC,12,FF,FF,FF,
5479731,0CF00417,true,Rx,0,8,FF,FF,FF,B9,12,FF,FF,FF,
5482352,0CFE6CEE,true,Rx,0,8,38,1F,7F,C0,00,00,00,00,
5499782,0CF00417,true,Rx,0,8,FF,FF,FF,BA,12,FF,FF,FF,
5519719,0CF00417,true,Rx,0,8,FF,FF,FF,BA,12,FF,FF,FF,
5532334,0CFE6CEE,true,Rx,0,8,38,1F,7F,C0,00,00,00,00,
5539652,0CF00417,true,Rx,0,8,FF,FF,FF,BC,12,FF,FF,FF,
5559788,0CF00417,true,Rx,0,8,FF,FF,FF,C0,12,FF,FF,FF,
5579736,0CF00417,true,Rx,0,8,FF,FF,FF,C5,12,FF,FF,FF,
5582102,0CFE6CEE,true,Rx,0,8,38,1F,7F,C0,00,00,00,00,
5599694,0CF00417,true,Rx,0,8,FF,FF,FF,C8,12,FF,FF,FF,
5619663,0CF00417,true,Rx,0,8,FF,FF,FF,C8,12,FF,FF,FF,
5632222,0CFE6CEE,true,Rx,0,8,38,1F,7F,C0,00,00,00,00,
5639805,0CF00417,true,Rx,0,8,FF,FF,FF,CE,12,FF,FF,FF,
5659763,0CF00417,true,Rx,0,8,FF,FF,FF,CB,12,FF,FF,FF,
5679834,1CDEEE17,true,Rx,0,8,FC,FF,FF,FF,FF,FF,FF,FF,
5680393,0CF00417,true,Rx,0,8,FF,FF,FF,C1,12,FF,FF,FF,
5682232,0CFE6CEE,true,Rx,0,8,38,1F,7F,C0,00,00,00,00,
5699814,0CF00417,true,Rx,0,8,FF,FF,FF,BE,12,FF,FF,FF,
5719788,0CF00417,true,Rx,0,8,FF,FF,FF,BE,12,FF,FF,FF,
5732202,0CFE6CEE,true,Rx,0,8,38,1F,7F,C0,00,00,00,00,
5739680,0CF00417,true,Rx,0,8,FF,FF,FF,BE,12,FF,FF,FF,
5759707,0CF00417,true,Rx,0,8,FF,FF,FF,C0,12,FF,FF,FF,
5779728,0CF00417,true,Rx,0,8,FF,FF,FF,C0,12,FF,FF,FF,
5782254,0CFE6CEE,true,Rx,0,8,38,1F,7F,C0,00,00,00,00,
5799763,0CF00417,true,Rx,0,8,FF,FF,FF,BD,12,FF,FF,FF,
5819625,0CF00417,true,Rx,0,8,FF,FF,FF,BD,12,FF,FF,FF,
5832063,0CFE6CEE,true,Rx,0,8,38,1F,7F,C0,00,00,00,00,
5839768,0CF00417,true,Rx,0,8,FF,FF,FF,BD,12,FF,FF,FF,
5859581,0CF00417,true,Rx,0,8,FF,FF,FF,B9,12,FF,FF,FF,
5879806,0CF00417,true,Rx,0,8,FF,FF,FF,B3,12,FF,FF,FF,
5882171,0CFE6CEE,true,Rx,0,8,38,1F,7F,C0,00,00,00,00,
5899791,0CF00417,true,Rx,0,8,FF,FF,FF,B0,12,FF,FF,FF,
5919645,0CF00417,true,Rx,0,8,FF,FF,FF,B0,12,FF,FF,FF,
5932051,0CFE6CEE,true,Rx,0,8,38,1F,7F,C0,00,00,00,00,
5939751,0CF00417,true,Rx,0,8,FF,FF,FF,B1,12,FF,FF,FF,
5942113,18FEC1EE,true,Rx,0,8,84,B7,EC,00,40,70,10,00,
5959660,0CF00417,true,Rx,0,8,FF,FF,FF,B7,12,FF,FF,FF,
5979711,0CF00417,true,Rx,0,8,FF,FF,FF,BD,12,FF,FF,FF,
5982070,0CFE6CEE,true,Rx,0,8,38,1F,7F,C0,00,00,00,00,
5999746,0CF00417,true,Rx,0,8,FF,FF,FF,C1,12,FF,FF,FF,
6001974,18FEE6EE,true,Rx,0,8,DC,1F,14,07,58,27,7D,7A,
6019788,0CF00417,true,Rx,0,8,FF,FF,FF,C1,12,FF,FF,FF,
6032050,0CFE6CEE,true,Rx,0,8,38,1F,7F,C0,00,00,00,00,
6039732,0CF00417,true,Rx,0,8,FF,FF,FF,C6,12,FF,FF,FF,
6059711,0CF00417,true,Rx,0,8,FF,FF,FF,C5,12,FF,FF,FF,
6079699,0CF00417,true,Rx,0,8,FF,FF,FF,C6,12,FF,FF,FF,
6082058,0CFE6CEE,true,Rx,0,8,38,1F,7F,C0,00,00,00,00,
6099574,0CF00417,true,Rx,0,8,FF,FF,FF,C6,12,FF,FF,FF,
6119689,0CF00417,true,Rx,0,8,FF,FF,FF,C6,12,FF,FF,FF,
6132142,0CFE6CEE,true,Rx,0,8,38,1F,7F,C0,00,00,00,00,
6139592,0CF00417,true,Rx,0,8,FF,FF,FF,C3,12,FF,FF,FF,
6159786,0CF00417,true,Rx,0,8,FF,FF,FF,C1,12,FF,FF,FF,
6179649,0CF00417,true,Rx,0,8,FF,FF,FF,BD,12,FF,FF,FF,
