Time Stamp,ID,Extended,Dir,Bus,LEN,D1,D2,D3,D4,D5,D6,D7,D8
82284192,18FEF000,true,Rx,0,8,FF,FF,FF,90,1A,F0,CC,FF,
82309409,18FEF100,true,Rx,0,8,F4,00,00,50,00,00,00,00,
82310469,0CF00400,true,Rx,0,8,20,7D,84,6D,17,00,0F,84,
82313815,0CF00300,true,Rx,0,8,D1,00,0D,FF,FF,FF,6B,FF,
82314383,18F00F52,true,Rx,0,8,FF,FF,FF,FF,FF,7F,1F,1F,
82319999,18FFC400,true,Rx,0,8,00,00,00,00,00,F1,FF,FF,
82323590,0CFE6CEE,true,Rx,0,8,00,3F,FF,C5,00,00,00,00,
82329001,18FEF200,true,Rx,0,8,26,00,00,00,15,03,FF,FF,
82330055,0CF00400,true,Rx,0,8,30,7D,84,71,17,00,0F,84,
82344175,18FEEF00,true,Rx,0,8,FF,FF,FF,FE,FF,FF,FF,FA,
82350080,0CF00400,true,Rx,0,8,20,7D,84,75,17,00,0F,84,
82353963,18F00100,true,Rx,0,8,FF,FF,FF,FF,00,FF,FF,FF,
82364060,0CF00300,true,Rx,0,8,D1,00,0D,FF,FF,FF,6B,FF,
82364645,18F00F52,true,Rx,0,8,FF,FF,FF,FF,FF,7F,1F,1F,
82365196,18FEF600,true,Rx,0,8,FF,00,55,FF,FF,FF,FF,FF,
82374804,18F00029,true,Rx,0,8,F0,7D,7D,FF,29,FF,FF,FF,
82384045,18FEF000,true,Rx,0,8,FF,FF,FF,90,1A,F0,CC,FF,
82388873,18FEF700,true,Rx,0,8,FF,FF,FF,FF,27,02,FF,FF,
82389489,18FD3E00,true,Rx,0,8,FF,FE,FF,FF,FE,FF,FF,FF,
82390035,0CF00400,true,Rx,0,8,30,7D,84,69,17,00,0F,84,
82408558,18FFC33D,true,Rx,0,8,00,00,00,00,31,00,00,C2,
82409370,18FEF100,true,Rx,0,8,F4,00,00,50,00,00,00,00,
82410173,18FEEE00,true,Rx,0,8,73,FF,FF,FF,FF,FF,FF,FF,
82410728,0CF00400,true,Rx,0,8,20,7D,84,72,17,00,0F,84,
82413839,0CF00300,true,Rx,0,8,D1,00,0D,FF,FF,FF,6B,FF,
82414405,18F00F52,true,Rx,0,8,FF,FF,FF,FF,FF,7F,1F,1F,
82423810,0CFE6CEE,true,Rx,0,8,00,3F,FF,C5,00,00,00,00,
82428989,18FEF200,true,Rx,0,8,1C,00,00,00,15,03,FF,FF,
82430045,0CF00400,true,Rx,0,8,30,7D,84,62,17,00,0F,84,
82433923,18FEE400,true,Rx,0,8,FF,3F,FD,FC,FF,3F,FF,FF,
82450013,0CF00400,true,Rx,0,8,30,7D,84,57,17,00,0F,85,
82453889,18F00100,true,Rx,0,8,FF,FF,FF,FF,00,FF,FF,FF,
82454454,18FEBD00,true,Rx,0,8,00,F0,FF,FF,FF,FF,FF,FF,
82464044,0CF00300,true,Rx,0,8,D1,00,0D,FF,FF,FF,6B,FF,
82464696,18F00F52,true,Rx,0,8,FF,FF,FF,FF,FF,7F,1F,1F,
82468564,18FFC13D,true,Rx,0,8,46,FF,FF,FF,FF,FF,FF,FF,
82470194,0CF00400,true,Rx,0,8,30,7D,84,5A,17,00,0F,85,
82473804,0CFE6CEE,true,Rx,0,8,00,3F,FF,C5,00,00,00,00,
82474373,18F00029,true,Rx,0,8,F0,7D,7D,FF,29,FF,FF,FF,
82481253,18E0FF00,true,Rx,0,8,00,FF,FF,FF,FF,FF,FF,FF,
82484127,18FEF000,true,Rx,0,8,FF,FF,FF,90,1A,F0,CC,FF,
82490134,0CF00400,true,Rx,0,8,40,7D,84,60,17,00,0F,85,
82504134,18FEF500,true,Rx,0,8,BF,FF,FF,FF,FF,FF,FF,FF,
82509492,18FEF100,true,Rx,0,8,F4,00,00,50,00,00,00,00,
82510545,0CF00400,true,Rx,0,8,30,7D,84,64,17,00,0F,84,
82513913,0CF00300,true,Rx,0,8,D1,00,0D,FF,FF,FF,6B,FF,
82514477,18F00F52,true,Rx,0,8,FF,FF,FF,FF,FF,7F,1F,1F,
82521211,18FFC400,true,Rx,0,8,00,00,00,00,00,F1,FF,FF,
82523675,0CFE6CEE,true,Rx,0,8,00,3F,FF,C5,00,00,00,00,
82524230,1885FF00,true,Rx,0,8,FF,FF,FF,FF,FF,FF,FF,FF,
82529479,18FEF200,true,Rx,0,8,26,00,00,00,15,03,FF,FF,
82530025,0CF00400,true,Rx,0,8,40,7D,84,57,17,00,0F,85,
82543978,18FF0A00,true,Rx,0,8,EF,FF,FF,FF,FF,FF,FF,FF,
82550150,0CF00400,true,Rx,0,8,40,7D,84,5F,17,00,0F,85,
82553781,18F00100,true,Rx,0,8,FF,FF,FF,FF,00,FF,FF,FF,
82564092,0CF00300,true,Rx,0,8,D1,00,0E,FF,FF,FF,6B,FF,
82564649,18F00F52,true,Rx,0,8,FF,FF,FF,FF,FF,7F,1F,1F,
82569129,18FDE500,true,Rx,0,8,FF,FF,FF,FF,FF,FF,FF,FB,
82570207,0CF00400,true,Rx,0,8,40,7D,84,6D,17,00,0F,84,
82573667,0CFE6CEE,true,Rx,0,8,00,3F,FF,C5,00,00,00,00,
82574316,18F00029,true,Rx,0,8,F0,7D,7D,FF,29,FF,FF,FF,
82583931,18FEF000,true,Rx,0,8,FF,FF,FF,90,1A,F0,CC,FF,
82588963,18FE5600,true,Rx,0,8,A1,3E,FF,FF,1F,FF,FF,FF,
82590020,0CF00400,true,Rx,0,8,40,7D,84,63,17,00,0F,85,
82609198,18FEF100,true,Rx,0,8,F4,00,00,50,00,00,00,00,
82609770,18FFC33D,true,Rx,0,8,00,00,00,00,31,00,00,C2,
82610589,0CF00400,true,Rx,0,8,40,7D,84,5D,17,00,0F,85,
82613967,0CF00300,true,Rx,0,8,D1,00,0D,FF,FF,FF,6B,FF,
82614517,18F00F52,true,Rx,0,8,FF,FF,FF,FF,FF,7F,1F,1F,
82615066,18ECFF00,true,Rx,0,8,20,32,00,08,FF,CA,FE,00,
82623889,0CFE6CEE,true,Rx,0,8,00,3F,FF,C5,00,00,00,00,
82628967,18FEF200,true,Rx,0,8,27,00,00,00,16,03,FF,FF,
82630015,0CF00400,true,Rx,0,8,40,7D,84,63,17,00,0F,85,
82633956,18FEC100,true,Rx,0,8,C9,0E,42,04,1B,20,42,04,
83001896,0CF00400,true,Rx,0,8,40,7D,84,6D,17,00,0F,85,
83001902,18F00100,true,Rx,0,8,FF,FF,FF,FF,00,FF,FF,FF,
83001907,18FEDF00,true,Rx,0,8,85,80,25,7D,FB,FF,FF,F3,
83001912,18F00F52,true,Rx,0,8,FF,FF,FF,FF,FF,7F,1F,1F,
83001917,0CF00300,true,Rx,0,8,D1,00,0D,FF,FF,FF,6B,FF,
83001923,18EBFF00,true,Rx,0,8,01,47,FF,61,00,03,7E,64,
83001928,0CF00400,true,Rx,0,8,30,7D,84,76,17,00,0F,84,
83001933,0CFE6CEE,true,Rx,0,8,00,3F,FF,C5,00,00,00,00,
83001939,18F00029,true,Rx,0,8,F0,7D,7D,FF,29,FF,FF,FF,
83001944,18ECFF29,true,Rx,0,8,20,13,00,03,FF,E1,FE,00,
83001961,18FEF000,true,Rx,0,8,FF,FF,FF,90,1A,F0,CC,FF,
83001966,18FEF100,true,Rx,0,8,F4,00,00,50,00,00,00,00,
83001971,0CF00400,true,Rx,0,8,40,7D,84,76,17,00,0F,85,
83001977,0CF00300,true,Rx,0,8,D1,00,0D,FF,FF,FF,6B,FF,
83001982,18F00F52,true,Rx,0,8,FF,FF,FF,FF,FF,7F,1F,1F,
83001987,18FFC400,true,Rx,0,8,00,00,00,00,00,F1,FF,FF,
83001993,18EBFF00,true,Rx,0,8,02,00,02,04,33,04,03,7E,
83001998,0CFE6CEE,true,Rx,0,8,00,3F,FF,C5,00,00,00,00,
83002003,18FEF200,true,Rx,0,8,27,00,00,00,15,03,FF,FF,
83002008,0CF00400,true,Rx,0,8,30,7D,84,84,17,00,0F,84,
83002014,18EBFF29,true,Rx,0,8,01,14,01,70,17,68,68,42,
83002019,0CF00400,true,Rx,0,8,30,7D,84,7A,17,00,0F,84,
83002024,18F00100,true,Rx,0,8,FF,FF,FF,FF,00,FF,FF,FF,
83002030,18F00F52,true,Rx,0,8,FF,FF,FF,FF,FF,7F,1F,1F,
83002035,0CF00300,true,Rx,0,8,D1,00,0D,FF,FF,FF,6B,FF,
83002040,0CF00400,true,Rx,0,8,30,7D,84,71,17,00,0F,85,
83002046,0CFE6CEE,true,Rx,0,8,00,3F,FF,C5,00,00,00,00,
83002051,18F00029,true,Rx,0,8,F0,7D,7D,FF,29,FF,FF,FF,
83002056,18EBFF00,true,Rx,0,8,03,08,11,03,7E,0B,11,03,
83002062,18FEF000,true,Rx,0,8,FF,FF,FF,90,1A,F0,CC,FF,
83002067,18EBFF29,true,Rx,0,8,02,59,20,26,64,68,42,59,
83002072,0CF00400,true,Rx,0,8,30,7D,84,75,17,00,0F,84,
83002077,18FEF100,true,Rx,0,8,F4,00,00,50,00,00,00,00,
83002083,0CF00400,true,Rx,0,8,30,7D,84,7B,17,00,0F,84,
83002088,18FFC33D,true,Rx,0,8,00,00,00,00,31,00,00,C2,
83002093,0CF00300,true,Rx,0,8,D1,00,0D,FF,FF,FF,6B,FF,
83002099,18F00F52,true,Rx,0,8,FF,FF,FF,FF,FF,7F,1F,1F,
83002104,0CFE6CEE,true,Rx,0,8,00,3F,FF,C5,00,00,00,00,
83002109,18FEF200,true,Rx,0,8,1D,00,00,00,15,03,FF,FF,
83002115,0CF00400,true,Rx,0,8,20,7D,84,83,17,00,0F,84,
83002120,18EBFF00,true,Rx,0,8,04,7E,A1,0D,04,7E,BA,12,
83002125,18EBFF29,true,Rx,0,8,03,D0,34,84,03,5B,FF,FF,
83002130,18FEEF00,true,Rx,0,8,FF,FF,FF,FE,FF,FF,FF,FA,
83002136,0CF00400,true,Rx,0,8,30,7D,84,75,17,00,0F,85,
83002141,18F00100,true,Rx,0,8,FF,FF,FF,FF,00,FF,FF,FF,
83002146,18F00F52,true,Rx,0,8,FF,FF,FF,FF,FF,7F,1F,1F,
83002152,0CF00300,true,Rx,0,8,D1,00,0D,FF,FF,FF,6B,FF,
83002157,18FEF600,true,Rx,0,8,FF,00,55,FF,FF,FF,FF,FF,
83002162,0CF00400,true,Rx,0,8,30,7D,84,7A,17,00,0F,84,
83002168,0CFE6CEE,true,Rx,0,8,00,3F,FF,C5,00,00,00,00,
83002173,18F00029,true,Rx,0,8,F0,7D,7D,FF,29,FF,FF,FF,
83002178,18FEC1EE,true,Rx,0,8,E4,31,A2,06,E8,3E,01,00,
83002183,18FEF000,true,Rx,0,8,FF,FF,FF,90,1A,F0,CC,FF,
83002189,18EBFF00,true,Rx,0,8,05,1F,02,9A,0C,0F,28,9A,
83002194,18FD3E00,true,Rx,0,8,FF,FE,FF,FF,FE,FF,FF,FF,
83002200,0CF00400,true,Rx,0,8,20,7D,84,84,17,00,0F,84,
83002205,18FEF100,true,Rx,0,8,F4,00,00,50,00,00,00,00,
83002211,0CF00400,true,Rx,0,8,20,7D,84,73,17,00,0F,84,
83002216,0CF00300,true,Rx,0,8,D1,00,0D,FF,FF,FF,6B,FF,
83002221,18F00F52,true,Rx,0,8,FF,FF,FF,FF,FF,7F,1F,1F,
83002227,18FEDF00,true,Rx,0,8,85,80,25,7D,FB,FF,FF,F3,
83002232,18FFC400,true,Rx,0,8,00,00,00,00,00,F1,FF,FF,
83002237,0CFE6CEE,true,Rx,0,8,00,3F,FF,C5,00,00,00,00,
83002242,18FEE6EE,true,Rx,0,8,C8,35,0F,07,57,27,70,7A,
83009452,18FEF100,true,Rx,0,8,F4,00,00,50,00,00,00,00,
83010564,0CF00400,true,Rx,0,8,30,7D,84,65,17,00,0F,85,
83011642,18FFC33D,true,Rx,0,8,00,00,00,00,31,00,00,C2,
83014010,0CF00300,true,Rx,0,8,D1,00,0D,FF,FF,FF,6B,FF,
83014565,18F00F52,true,Rx,0,8,FF,FF,FF,FF,FF,7F,1F,1F,
83025427,0CFE6CEE,true,Rx,0,8,00,3F,FF,C5,00,00,00,00,
83028939,18FEF200,true,Rx,0,8,26,00,00,00,16,03,FF,FF,
83030028,0CF00400,true,Rx,0,8,30,7D,84,69,17,00,0F,85,
83050216,0CF00400,true,Rx,0,8,30,7D,84,72,17,00,0F,84,
83050758,18EBFF00,true,Rx,0,8,08,0E,FF,FF,FF,FF,FF,FF,
83051314,18ECFF00,true,Rx,0,8,20,22,00,05,FF,E3,FE,00,
83053917,18F00100,true,Rx,0,8,FF,FF,FF,FF,00,FF,FF,FF,
83065445,18F00F52,true,Rx,0,8,FF,FF,FF,FF,FF,7F,1F,1F,
83065450,0CF00300,true,Rx,0,8,D1,00,0D,FF,FF,FF,6B,FF,
83070246,0CF00400,true,Rx,0,8,30,7D,84,64,17,00,0F,84,
83073885,0CFE6CEE,true,Rx,0,8,00,3F,FF,C5,00,00,00,00,
83074451,18F00029,true,Rx,0,8,F0,7D,7D,FF,29,FF,FF,FF,
83085723,18FEF000,true,Rx,0,8,FF,FF,FF,90,1A,F0,CC,FF,
83090146,0CF00400,true,Rx,0,8,30,7D,84,59,17,00,0F,85,
83106489,1CDEEE17,true,Rx,0,8,0F,FF,03,00,00,00,00,00,
83108530,18EBFF00,true,Rx,0,8,01,70,17,B2,68,42,CB,00,
83109368,18E8FF00,true,Rx,0,8,00,FF,FF,FF,FF,00,DE,00,
83109921,18FEF100,true,Rx,0,8,F4,00,00,50,00,00,00,00,
83110745,0CF00400,true,Rx,0,8,40,7D,84,5D,17,00,0F,85,
83113645,1CE8FFEE,true,Rx,0,8,00,FF,FF,FF,FF,00,DE,00,
83114449,0CF00300,true,Rx,0,8,D1,00,0D,FF,FF,FF,6B,FF,
83115002,18F00F52,true,Rx,0,8,FF,FF,FF,FF,FF,7F,1F,1F,
83119114,18FFC400,true,Rx,0,8,00,00,00,00,00,F1,FF,FF,
83125971,0CFE6CEE,true,Rx,0,8,00,3F,FF,C5,00,00,00,00,
83128958,18FEF200,true,Rx,0,8,26,00,00,00,15,03,FF,FF,
83130281,0CF00400,true,Rx,0,8,40,7D,84,63,17,00,0F,85,
83150087,0CF00400,true,Rx,0,8,30,7D,84,69,17,00,0F,84,
83154031,18F00100,true,Rx,0,8,FF,FF,FF,FF,00,FF,FF,FF,
83160871,18EBFF00,true,Rx,0,8,02,19,B9,80,25,E0,C0,2B,
83166022,0CFD0F52,true,Rx,0,8,00,00,CB,03,7D,FF,FF,FF,
83166027,0CF00300,true,Rx,0,8,D1,00,0D,FF,FF,FF,6B,FF,
83166032,18F00F52,true,Rx,0,8,FF,FF,FF,FF,FF,7F,1F,1F,
83174921,18F00029,true,Rx,0,8,F0,7D,7D,FF,29,FF,FF,FF,
83179054,18FEDF00,true,Rx,0,8,85,80,25,7D,FB,FF,FF,F3,
83186248,18FEF000,true,Rx,0,8,FF,FF,FF,90,1A,F0,CC,FF,
83190016,0CF00400,true,Rx,0,8,40,7D,84,64,17,00,0F,85,
83209393,18FEF100,true,Rx,0,8,F4,00,00,50,00,00,00,00,
83210708,0CF00400,true,Rx,0,8,30,7D,84,72,17,00,0F,84,
83212838,18FFC33D,true,Rx,0,8,00,00,00,00,31,00,00,C2,
83214164,0CF00300,true,Rx,0,8,D1,00,0D,FF,FF,FF,6B,FF,
83214725,18F00F52,true,Rx,0,8,FF,FF,FF,FF,FF,7F,1F,1F,
83215310,18EBFF00,true,Rx,0,8,03,E0,D8,4A,FF,FF,EF,06,
83223693,0CFE6CEE,true,Rx,0,8,00,3F,FF,C5,00,00,00,00,
83229017,18FEF200,true,Rx,0,8,1D,00,00,00,15,03,FF,FF,
83230078,0CF00400,true,Rx,0,8,30,7D,84,67,17,00,0F,84,
83250066,0CF00400,true,Rx,0,8,40,7D,84,60,17,00,0F,85,
83253958,18F00100,true,Rx,0,8,FF,FF,FF,FF,00,FF,FF,FF,
83263997,18F00F52,true,Rx,0,8,FF,FF,FF,FF,FF,7F,1F,1F,
83267381,0CF00300,true,Rx,0,8,D1,00,0E,FF,FF,FF,6B,FF,
83270196,0CF00400,true,Rx,0,8,40,7D,84,66,17,00,0F,85,
83270848,18EBFF00,true,Rx,0,8,04,20,4E,3C,3C,F0,7D,E0,
83273698,0CFE6CEE,true,Rx,0,8,00,3F,FF,C5,00,00,00,00,
83274250,18F00029,true,Rx,0,8,F0,7D,7D,FF,29,FF,FF,FF,
83284047,18FEF000,true,Rx,0,8,FF,FF,FF,90,1A,F0,CC,FF,
83290260,0CF00400,true,Rx,0,8,40,7D,84,6F,17,00,0F,85,
83309351,18FEF100,true,Rx,0,8,F4,00,00,50,00,00,00,00,
83310465,0CF00400,true,Rx,0,8,30,7D,84,77,17,00,0F,84,
83313958,0CF00300,true,Rx,0,8,D1,00,0D,FF,FF,FF,6B,FF,
83314506,18F00F52,true,Rx,0,8,FF,FF,FF,FF,FF,7F,1F,1F,
83318934,18FFC400,true,Rx,0,8,00,00,00,00,00,F1,FF,FF,
83323844,0CFE6CEE,true,Rx,0,8,00,3F,FF,C5,00,00,00,00,
83328589,18EBFF00,true,Rx,0,8,05,D8,4A,AF,00,FF,FF,FF,
83329139,18FEF200,true,Rx,0,8,27,00,00,00,15,03,FF,FF,
83330218,0CF00400,true,Rx,0,8,30,7D,84,6C,17,00,0F,85,
83344084,18FEEF00,true,Rx,0,8,FF,FF,FF,FE,FF,FF,FF,FA,
83350081,0CF00400,true,Rx,0,8,40,7D,84,74,17,00,0F,85,
83353989,18F00100,true,Rx,0,8,FF,FF,FF,FF,00,FF,FF,FF,
83364027,18F00F52,true,Rx,0,8,FF,FF,FF,FF,FF,7F,1F,1F,
83364594,0CF00300,true,Rx,0,8,D1,00,0D,FF,FF,FF,6B,FF,
83367638,18FEF600,true,Rx,0,8,FF,00,55,FF,FF,FF,FF,FF,
83370395,0CF00400,true,Rx,0,8,30,7D,84,81,17,00,0F,84,
83373770,0CFE6CEE,true,Rx,0,8,00,3F,FF,C5,00,00,00,00,
83374333,18F00029,true,Rx,0,8,F0,7D,7D,FF,29,FF,FF,FF,
83384111,18FEF000,true,Rx,0,8,FF,FF,FF,90,1A,F0,CC,FF,
83388963,18FEF700,true,Rx,0,8,FF,FF,FF,FF,27,02,FF,FF,
83389527,18FD3E00,true,Rx,0,8,FF,FE,FF,FF,FE,FF,FF,FF,
83390079,0CF00400,true,Rx,0,8,30,7D,84,77,17,00,0F,84,
83409361,18FEF100,true,Rx,0,8,F4,00,00,50,00,00,00,00,
83409991,18FEEE00,true,Rx,0,8,73,FF,FF,FF,FF,FF,FF,FF,
83410645,0CF00400,true,Rx,0,8,30,7D,84,6F,17,00,0F,85,
83413750,18FFC33D,true,Rx,0,8,00,00,00,00,31,00,00,C2,
83414307,0CF00300,true,Rx,0,8,D1,00,0D,FF,FF,FF,6B,FF,
83414853,18F00F52,true,Rx,0,8,FF,FF,FF,FF,FF,7F,1F,1F,
83423713,0CFE6CEE,true,Rx,0,8,00,3F,FF,C5,00,00,00,00,
83429011,18FEF200,true,Rx,0,8,27,00,00,00,16,03,FF,FF,
83430070,0CF00400,true,Rx,0,8,30,7D,84,73,17,00,0F,84,
83434043,18FEE400,true,Rx,0,8,FF,3F,FD,FC,FF,3F,FF,FF,
83438958,18FEDF00,true,Rx,0,8,85,80,25,7D,FB,FF,FF,F3,
83450241,0CF00400,true,Rx,0,8,30,7D,84,79,17,00,0F,84,
83453840,18F00100,true,Rx,0,8,FF,FF,FF,FF,00,FF,FF,FF,
83454656,18FEBD00,true,Rx,0,8,00,F0,FF,FF,FF,FF,FF,FF,
83464137,18F00F52,true,Rx,0,8,FF,FF,FF,FF,FF,7F,1F,1F,
83464690,0CF00300,true,Rx,0,8,D1,00,0D,FF,FF,FF,6B,FF,
83468354,18FFC13D,true,Rx,0,8,46,FF,FF,FF,FF,FF,FF,FF,
83470362,0CF00400,true,Rx,0,8,30,7D,84,80,17,00,0F,84,
83473727,0CFE6CEE,true,Rx,0,8,00,3F,FF,C5,00,00,00,00,
83474288,18F00029,true,Rx,0,8,F0,7D,7D,FF,29,FF,FF,FF,
83479202,18E0FF00,true,Rx,0,8,00,FF,FF,FF,FF,FF,FF,FF,
83484105,18FEF000,true,Rx,0,8,FF,FF,FF,90,1A,F0,CC,FF,
83490430,0CF00400,true,Rx,0,8,30,7D,84,74,17,00,0F,85,
83504126,18FEF500,true,Rx,0,8,BF,FF,FF,FF,FF,FF,FF,FF,
83510050,18FEF100,true,Rx,0,8,F4,00,00,50,00,00,00,00,
83510755,0CF00400,true,Rx,0,8,30,7D,84,7A,17,00,0F,84,
83514116,0CF00300,true,Rx,0,8,D1,00,0D,FF,FF,FF,6B,FF,
83514461,18F00F52,true,Rx,0,8,FF,FF,FF,FF,FF,7F,1F,1F,
83518962,18FFC400,true,Rx,0,8,00,00,00,00,00,F1,FF,FF,
83523897,0CFE6CEE,true,Rx,0,8,00,3F,FF,C5,00,00,00,00,
83524460,1885FF00,true,Rx,0,8,FF,FF,FF,FF,FF,FF,FF,FF,
83529169,18FEF200,true,Rx,0,8,27,00,00,00,15,03,FF,FF,
83530158,0CF00400,true,Rx,0,8,20,7D,84,84,17,00,0F,84,
83544181,18FF0A00,true,Rx,0,8,EF,FF,FF,FF,FF,FF,FF,FF,
83550221,0CF00400,true,Rx,0,8,20,7D,84,76,17,00,0F,84,
83554092,18F00100,true,Rx,0,8,FF,FF,FF,FF,00,FF,FF,FF,
83564124,18F00F52,true,Rx,0,8,FF,FF,FF,FF,FF,7F,1F,1F,
83564690,0CF00300,true,Rx,0,8,D1,00,0D,FF,FF,FF,6B,FF,
83569160,18FDE500,true,Rx,0,8,FF,FF,FF,FF,FF,FF,FF,FB,
83570381,0CF00400,true,Rx,0,8,30,7D,84,6B,17,00,0F,85,
83573746,0CFE6CEE,true,Rx,0,8,00,3F,FF,C5,00,00,00,00,
83574297,18F00029,true,Rx,0,8,F0,7D,7D,FF,29,FF,FF,FF,
83584076,18FEF000,true,Rx,0,8,FF,FF,FF,90,1A,F0,CC,FF,
83589211,18FE5600,true,Rx,0,8,A1,3E,FF,FF,1F,FF,FF,FF,
83590120,0CF00400,true,Rx,0,8,30,7D,84,6D,17,00,0F,84,
83611853,18FEF100,true,Rx,0,8,F4,00,00,50,00,00,00,00,
83611858,0CF00400,true,Rx,0,8,30,7D,84,72,17,00,0F,84,
83614124,0CF00300,true,Rx,0,8,D1,00,0D,FF,FF,FF,6B,FF,
83614464,18F00F52,true,Rx,0,8,FF,FF,FF,FF,FF,7F,1F,1F,
83615135,18ECFF00,true,Rx,0,8,20,32,00,08,FF,CA,FE,00,
83615714,18FFC33D,true,Rx,0,8,00,00,00,00,31,00,00,C2,
83623705,0CFE6CEE,true,Rx,0,8,00,3F,FF,C5,00,00,00,00,
83630140,18FEF200,true,Rx,0,8,1D,00,00,00,15,03,FF,FF,
83630145,0CF00400,true,Rx,0,8,20,7D,84,77,17,00,0F,84,
83634035,18FEC100,true,Rx,0,8,C9,0E,42,04,1B,20,42,04,
83664075,18F00F52,true,Rx,0,8,FF,FF,FF,FF,FF,7F,1F,1F,
83664634,0CF00300,true,Rx,0,8,D1,00,0D,FF,FF,FF,6B,FF,
83671263,18EBFF00,true,Rx,0,8,01,47,FF,61,00,03,7E,64,
83671269,0CF00400,true,Rx,0,8,30,7D,84,6C,17,00,0F,84,
83673860,0CFE6CEE,true,Rx,0,8,00,3F,FF,C5,00,00,00,00,
83674427,18F00029,true,Rx,0,8,F0,7D,7D,FF,29,FF,FF,FF,
83684179,18FEF000,true,Rx,0,8,FF,FF,FF,90,1A,F0,CC,FF,
83690368,0CF00400,true,Rx,0,8,30,7D,84,74,17,00,0F,84,
83699076,18FEDF00,true,Rx,0,8,85,80,25,7D,FB,FF,FF,F3,
83710159,18FEF100,true,Rx,0,8,F4,00,00,50,00,00,00,00,
83710558,0CF00400,true,Rx,0,8,30,7D,84,66,17,00,0F,84,
83714148,0CF00300,true,Rx,0,8,D1,00,0D,FF,FF,FF,6B,FF,
83714699,18F00F52,true,Rx,0,8,FF,FF,FF,FF,FF,7F,1F,1F,
83719087,18FFC400,true,Rx,0,8,00,00,00,00,00,F1,FF,FF,
83721186,18EBFF00,true,Rx,0,8,02,00,02,04,33,04,03,7E,
83723783,0CFE6CEE,true,Rx,0,8,00,3F,FF,C5,00,00,00,00,
83730534,18FEF200,true,Rx,0,8,26,00,00,00,16,03,FF,FF,
83730539,0CF00400,true,Rx,0,8,30,7D,84,5C,17,00,0F,85,
83750235,0CF00400,true,Rx,0,8,30,7D,84,5F,17,00,0F,84,
83754028,18F00100,true,Rx,0,8,FF,FF,FF,FF,00,FF,FF,FF,
83764123,18F00F52,true,Rx,0,8,FF,FF,FF,FF,FF,7F,1F,1F,
83764681,0CF00300,true,Rx,0,8,D1,00,0D,FF,FF,FF,6B,FF,
83770596,0CF00400,true,Rx,0,8,40,7D,84,64,17,00,0F,85,
83773775,0CFE6CEE,true,Rx,0,8,00,3F,FF,C5,00,00,00,00,
83774334,18F00029,true,Rx,0,8,F0,7D,7D,FF,29,FF,FF,FF,
83774875,18EBFF00,true,Rx,0,8,03,08,11,03,7E,0B,11,03,
83784122,18FEF000,true,Rx,0,8,FF,FF,FF,90,1A,F0,CC,FF,
83790218,0CF00400,true,Rx,0,8,30,7D,84,6C,17,00,0F,84,
83815155,18F00F52,true,Rx,0,8,FF,FF,FF,FF,FF,7F,1F,1F,
83815707,18FFC33D,true,Rx,0,8,00,00,00,00,31,00,00,C2,
83823917,0CFE6CEE,true,Rx,0,8,00,3F,FF,C5,00,00,00,00,
83831219,18FEF200,true,Rx,0,8,26,00,00,00,15,03,FF,FF,
83831225,0CF00400,true,Rx,0,8,40,7D,84,68,17,00,0F,85,
83831230,18EBFF00,true,Rx,0,8,04,7E,A1,0D,04,7E,BA,12,
83844077,18FEEF00,true,Rx,0,8,FF,FF,FF,FE,FF,FF,FF,FA,
83850727,0CF00400,true,Rx,0,8,30,7D,84,73,17,00,0F,84,
83853977,18F00100,true,Rx,0,8,FF,FF,FF,FF,00,FF,FF,FF,
83864010,18F00F52,true,Rx,0,8,FF,FF,FF,FF,FF,7F,1F,1F,
83864556,0CF00300,true,Rx,0,8,D1,00,0D,FF,FF,FF,6B,FF,
83865109,18FEF600,true,Rx,0,8,FF,00,55,FF,FF,FF,FF,FF,
83870886,0CF00400,true,Rx,0,8,30,7D,84,68,17,00,0F,84,
83873866,0CFE6CEE,true,Rx,0,8,00,3F,FF,C5,00,00,00,00,
83874437,18F00029,true,Rx,0,8,F0,7D,7D,FF,29,FF,FF,FF,
83874990,18FEC1EE,true,Rx,0,8,E4,31,A2,06,E8,3E,01,00,
83909678,18FEF100,true,Rx,0,8,F4,00,00,50,00,00,00,00,
83910777,0CF00400,true,Rx,0,8,40,7D,84,63,17,00,0F,85,
83913900,0CF00300,true,Rx,0,8,D1,00,0D,FF,FF,FF,6B,FF,
83914456,18F00F52,true,Rx,0,8,FF,FF,FF,FF,FF,7F,1F,1F,
83919051,18FFC400,true,Rx,0,8,00,00,00,00,00,F1,FF,FF,
83923972,0CFE6CEE,true,Rx,0,8,00,3F,FF,C5,00,00,00,00,
83924273,18FEE6EE,true,Rx,0,8,CC,35,0F,07,57,27,70,7A,
83931865,18FEF200,true,Rx,0,8,27,00,00,00,15,03,FF,FF,
83931870,0CF00400,true,Rx,0,8,40,7D,84,69,17,00,0F,85,
83941076,18EBFF00,true,Rx,0,8,06,0C,04,02,54,00,09,08,
83951281,0CF00400,true,Rx,0,8,40,7D,84,6E,17,00,0F,84,
83953993,18F00100,true,Rx,0,8,FF,FF,FF,FF,00,FF,FF,FF,
83958957,18FEDF00,true,Rx,0,8,85,80,25,7D,FB,FF,FF,F3,
83964170,18F00F52,true,Rx,0,8,FF,FF,FF,FF,FF,7F,1F,1F,
83964722,0CF00300,true,Rx,0,8,D1,00,0D,FF,FF,FF,6B,FF,
83984125,18FEF000,true,Rx,0,8,FF,FF,FF,90,1A,F0,CC,FF,
83991520,0CF00400,true,Rx,0,8,40,7D,84,6F,17,00,0F,85,
83994564,18EBFF00,true,Rx,0,8,07,57,06,09,08,54,00,02,
84011633,18FEF100,true,Rx,0,8,F4,00,00,50,00,00,00,00,
84011638,0CF00400,true,Rx,0,8,30,7D,84,7E,17,00,0F,84,
84014101,0CF00300,true,Rx,0,8,D1,00,0D,FF,FF,FF,6B,FF,
84014723,18F00F52,true,Rx,0,8,FF,FF,FF,FF,FF,7F,1F,1F,
84016801,18FFC33D,true,Rx,0,8,00,00,00,00,31,00,00,C2,
84023955,0CFE6CEE,true,Rx,0,8,00,3F,FF,C5,00,00,00,00,
84032234,18FEF200,true,Rx,0,8,1D,00,00,00,15,03,FF,FF,
84032240,0CF00400,true,Rx,0,8,30,7D,84,75,17,00,0F,84,
84064078,18F00F52,true,Rx,0,8,FF,FF,FF,FF,FF,7F,1F,1F,
84064637,0CF00300,true,Rx,0,8,D1,00,0D,FF,FF,FF,6B,FF,
84071964,0CF00400,true,Rx,0,8,30,7D,84,72,17,00,0F,84,
84073901,0CFE6CEE,true,Rx,0,8,00,3F,FF,C5,00,00,00,00,
84074459,18F00029,true,Rx,0,8,F0,7D,7D,FF,29,FF,FF,FF,
84084218,18FEF000,true,Rx,0,8,FF,FF,FF,90,1A,F0,CC,FF,
84332573,0CF00400,true,Rx,0,8,30,7D,84,7A,17,00,0F,85,
84332578,1CDEEE17,true,Rx,0,8,0F,FF,03,00,00,00,00,00,
84332583,18E8FF00,true,Rx,0,8,00,FF,FF,FF,FF,00,DE,00,
84332588,18FEF100,true,Rx,0,8,F4,00,00,50,00,00,00,00,
84332594,0CF00400,true,Rx,0,8,30,7D,84,81,17,00,0F,84,
84332599,1CE8FFEE,true,Rx,0,8,00,FF,FF,FF,FF,00,DE,00,
84332604,0CF00300,true,Rx,0,8,D1,00,0D,FF,FF,FF,6B,FF,
84332610,18F00F52,true,Rx,0,8,FF,FF,FF,FF,FF,7F,1F,1F,
84332615,18FFC400,true,Rx,0,8,00,00,00,00,00,F1,FF,FF,
84332620,0CFE6CEE,true,Rx,0,8,00,3F,FF,C5,00,00,00,00,
84332626,0CF00400,true,Rx,0,8,30,7D,84,7C,17,00,0F,84,
84332631,18F00100,true,Rx,0,8,FF,FF,FF,FF,00,FF,FF,FF,
84332636,0CFD0F52,true,Rx,0,8,00,00,CB,03,7D,FF,FF,FF,
84332641,0CF00300,true,Rx,0,8,D1,00,0D,FF,FF,FF,6B,FF,
84332647,18F00F52,true,Rx,0,8,FF,FF,FF,FF,FF,7F,1F,1F,
84332652,0CF00400,true,Rx,0,8,20,7D,84,87,17,00,0F,84,
84332657,0CFE6CEE,true,Rx,0,8,00,3F,FF,C5,00,00,00,00,
84332663,18F00029,true,Rx,0,8,F0,7D,7D,FF,29,FF,FF,FF,
84332668,18FEF000,true,Rx,0,8,FF,FF,FF,90,1A,F0,CC,FF,
84332673,0CF00400,true,Rx,0,8,20,7D,84,79,17,00,0F,84,
84332679,18FEF100,true,Rx,0,8,F4,00,00,50,00,00,00,00,
84332684,0CF00400,true,Rx,0,8,30,7D,84,70,17,00,0F,85,
84332689,0CF00300,true,Rx,0,8,D1,00,0D,FF,FF,FF,6B,FF,
84332694,18F00F52,true,Rx,0,8,FF,FF,FF,FF,FF,7F,1F,1F,
84332700,18FFC33D,true,Rx,0,8,00,00,00,00,31,00,00,C2,
84332705,18FEDF00,true,Rx,0,8,85,80,25,7D,FB,FF,FF,F3,
84332710,0CFE6CEE,true,Rx,0,8,00,3F,FF,C5,00,00,00,00,
84332716,18FEF200,true,Rx,0,8,27,00,00,00,15,03,FF,FF,
84332721,0CF00400,true,Rx,0,8,30,7D,84,73,17,00,0F,84,
84332726,0CF00400,true,Rx,0,8,30,7D,84,78,17,00,0F,84,
84332732,18F00100,true,Rx,0,8,FF,FF,FF,FF,00,FF,FF,FF,
84332737,18F00F52,true,Rx,0,8,FF,FF,FF,FF,FF,7F,1F,1F,
84332742,0CF00300,true,Rx,0,8,D1,00,0D,FF,FF,FF,6B,FF,
84332748,0CF00400,true,Rx,0,8,20,7D,84,7E,17,00,0F,84,
84332753,0CFE6CEE,true,Rx,0,8,00,3F,FF,C5,00,00,00,00,
84332758,18F00029,true,Rx,0,8,F0,7D,7D,FF,29,FF,FF,FF,
84332763,18FEF000,true,Rx,0,8,FF,FF,FF,90,1A,F0,CC,FF,
84332769,0CF00400,true,Rx,0,8,20,7D,84,6F,17,00,0F,85,
84332774,18FEF100,true,Rx,0,8,F4,00,00,50,00,00,00,00,
84332780,0CF00400,true,Rx,0,8,30,7D,84,73,17,00,0F,84,
84332785,18F00F52,true,Rx,0,8,FF,FF,FF,FF,FF,7F,1F,1F,
84332790,0CF00300,true,Rx,0,8,D1,00,0D,FF,FF,FF,6B,FF,
84332796,18FFC400,true,Rx,0,8,00,00,00,00,00,F1,FF,FF,
84332801,0CFE6CEE,true,Rx,0,8,00,3F,FF,C5,00,00,00,00,
84332806,18FEF200,true,Rx,0,8,26,00,00,00,15,03,FF,FF,
84332812,0CF00400,true,Rx,0,8,20,7D,84,7B,17,00,0F,84,
84344102,18FEEF00,true,Rx,0,8,FF,FF,FF,FE,FF,FF,FF,FA,
84350052,0CF00400,true,Rx,0,8,20,7D,84,6B,17,00,0F,84,
84355620,18F00100,true,Rx,0,8,FF,FF,FF,FF,00,FF,FF,FF,
84364106,18F00F52,true,Rx,0,8,FF,FF,FF,FF,FF,7F,1F,1F,
84364663,0CF00300,true,Rx,0,8,D1,00,0D,FF,FF,FF,6B,FF,
84365218,18FEF600,true,Rx,0,8,FF,00,55,FF,FF,FF,FF,FF,
84370408,0CF00400,true,Rx,0,8,30,7D,84,60,17,00,0F,85,
84375965,0CFE6CEE,true,Rx,0,8,00,3F,FF,C5,00,00,00,00,
84375971,18F00029,true,Rx,0,8,F0,7D,7D,FF,29,FF,FF,FF,
84384055,18FEF000,true,Rx,0,8,FF,FF,FF,90,1A,F0,CC,FF,
84388975,18FEF700,true,Rx,0,8,FF,FF,FF,FF,26,02,FF,FF,
84389529,18FD3E00,true,Rx,0,8,FF,FE,FF,FF,FE,FF,FF,FF,
84390336,0CF00400,true,Rx,0,8,30,7D,84,62,17,00,0F,84,
84409483,18FEF100,true,Rx,0,8,F4,00,00,50,00,00,00,00,
84410035,18FEEE00,true,Rx,0,8,73,FF,FF,FF,FF,FF,FF,FF,
84410840,0CF00400,true,Rx,0,8,30,7D,84,66,17,00,0F,85,
84416302,18F00F52,true,Rx,0,8,FF,FF,FF,FF,FF,7F,1F,1F,
84416307,0CF00300,true,Rx,0,8,D1,00,0D,FF,FF,FF,6B,FF,
84418880,18FFC33D,true,Rx,0,8,00,00,00,00,31,00,00,C2,
84424041,0CFE6CEE,true,Rx,0,8,00,3F,FF,C5,00,00,00,00,
84429053,18FEF200,true,Rx,0,8,1C,00,00,00,15,03,FF,FF,
84430193,0CF00400,true,Rx,0,8,30,7D,84,6A,17,00,0F,84,
84437196,18FEE400,true,Rx,0,8,FF,3F,FD,FC,FF,3F,FF,FF,
84464008,18F00F52,true,Rx,0,8,FF,FF,FF,FF,FF,7F,1F,1F,
84464551,0CF00300,true,Rx,0,8,D1,00,0D,FF,FF,FF,6B,FF,
84469728,18FFC13D,true,Rx,0,8,46,FF,FF,FF,FF,FF,FF,FF,
84470542,0CF00400,true,Rx,0,8,40,7D,84,63,17,00,0F,85,
84473903,0CFE6CEE,true,Rx,0,8,00,3F,FF,C5,00,00,00,00,
84476730,18F00029,true,Rx,0,8,F0,7D,7D,FF,29,FF,FF,FF,
84479201,18FEDF00,true,Rx,0,8,85,80,25,7D,FB,FF,FF,F3,
84479749,18E0FF00,true,Rx,0,8,00,FF,FF,FF,FF,FF,FF,FF,
84484151,18FEF000,true,Rx,0,8,FF,FF,FF,90,1A,F0,CC,FF,
84490336,0CF00400,true,Rx,0,8,30,7D,84,6F,17,00,0F,84,
84504332,18FEF500,true,Rx,0,8,BF,FF,FF,FF,FF,FF,FF,FF,
84509500,18FEF100,true,Rx,0,8,F4,00,00,50,00,00,00,00,
84510813,0CF00400,true,Rx,0,8,30,7D,84,63,17,00,0F,84,
84516593,18F00F52,true,Rx,0,8,FF,FF,FF,FF,FF,7F,1F,1F,
84516598,0CF00300,true,Rx,0,8,D1,00,0D,FF,FF,FF,6B,FF,
84519052,18FFC400,true,Rx,0,8,00,00,00,00,00,F1,FF,FF,
84523983,0CFE6CEE,true,Rx,0,8,00,3F,FF,C5,00,00,00,00,
84524613,1885FF00,true,Rx,0,8,FF,FF,FF,FF,FF,FF,FF,FF,
84529063,18FEF200,true,Rx,0,8,26,00,00,00,16,03,FF,FF,
84530285,0CF00400,true,Rx,0,8,40,7D,84,5C,17,00,0F,85,
84544323,18FF0A00,true,Rx,0,8,EF,FF,FF,FF,FF,FF,FF,FF,
84550242,0CF00400,true,Rx,0,8,40,7D,84,5F,17,00,0F,85,
84554101,18F00100,true,Rx,0,8,FF,FF,FF,FF,00,FF,FF,FF,
84564121,18F00F52,true,Rx,0,8,FF,FF,FF,FF,FF,7F,1F,1F,
84564681,0CF00300,true,Rx,0,8,D1,00,0D,FF,FF,FF,6B,FF,
84569424,18FDE500,true,Rx,0,8,FF,FF,FF,FF,FF,FF,FF,FB,
84570491,0CF00400,true,Rx,0,8,40,7D,84,66,17,00,0F,85,
84573841,0CFE6CEE,true,Rx,0,8,00,3F,FF,C5,00,00,00,00,
84574405,18F00029,true,Rx,0,8,F0,7D,7D,FF,29,FF,FF,FF,
84584317,18FEF000,true,Rx,0,8,FF,FF,FF,90,1A,F0,CC,FF,
84589230,18FE5600,true,Rx,0,8,A1,3E,FF,FF,1F,FF,FF,FF,
84590297,0CF00400,true,Rx,0,8,40,7D,84,6C,17,00,0F,84,
84609426,18FEF100,true,Rx,0,8,F4,00,00,50,00,00,00,00,
84610745,0CF00400,true,Rx,0,8,40,7D,84,5F,17,00,0F,85,
84614016,18F00F52,true,Rx,0,8,FF,FF,FF,FF,FF,7F,1F,1F,
84614673,0CF00300,true,Rx,0,8,D1,00,0D,FF,FF,FF,6B,FF,
84617833,18ECFF00,true,Rx,0,8,20,32,00,08,FF,CA,FE,00,
84619787,18FFC33D,true,Rx,0,8,00,00,00,00,31,00,00,C2,
84623926,0CFE6CEE,true,Rx,0,8,00,3F,FF,C5,00,00,00,00,
84629073,18FEF200,true,Rx,0,8,27,00,00,00,15,03,FF,FF,
84630402,0CF00400,true,Rx,0,8,40,7D,84,69,17,00,0F,85,
84634181,18FEC100,true,Rx,0,8,C9,0E,42,04,1B,20,42,04,
2417383,0CF00400,true,Rx,0,8,40,7D,84,77,17,00,0F,84,
2421010,18F00100,true,Rx,0,8,FF,FF,FF,FF,00,FF,FF,FF,
2431222,18F00F52,true,Rx,0,8,FF,FF,FF,FF,FF,7F,1F,1F,
2431768,0CF00300,true,Rx,0,8,D1,00,0D,FF,FF,FF,6B,FF,
2435663,18EBFF00,true,Rx,0,8,01,47,FF,61,00,03,7E,64,
2437502,0CF00400,true,Rx,0,8,30,7D,84,6F,17,00,0F,84,
2440923,0CFE6CEE,true,Rx,0,8,00,3F,FF,C5,00,00,00,00,
2441556,18F00029,true,Rx,0,8,F0,7D,7D,FF,29,FF,FF,FF,
2451237,18FEF000,true,Rx,0,8,FF,FF,FF,90,1A,F0,CC,FF,
2476474,18FEF100,true,Rx,0,8,F4,00,00,50,00,00,00,00,
2477785,0CF00400,true,Rx,0,8,40,7D,84,72,17,00,0F,84,
2481159,18F00F52,true,Rx,0,8,FF,FF,FF,FF,FF,7F,1F,1F,
2481714,0CF00300,true,Rx,0,8,D1,00,0D,FF,FF,FF,6B,FF,
2486281,18FFC400,true,Rx,0,8,00,00,00,00,00,F1,FF,FF,
2488102,18EBFF00,true,Rx,0,8,02,00,02,04,33,04,03,7E,
2490971,0CFE6CEE,true,Rx,0,8,00,3F,FF,C5,00,00,00,00,
2496122,18FEF200,true,Rx,0,8,27,00,00,00,15,03,FF,FF,
2497449,0CF00400,true,Rx,0,8,30,7D,84,7B,17,00,0F,85,
2507095,18FEDF00,true,Rx,0,8,85,80,25,7D,FB,FF,FF,F3,
2517363,0CF00400,true,Rx,0,8,30,7D,84,83,17,00,0F,84,
2520989,18F00100,true,Rx,0,8,FF,FF,FF,FF,00,FF,FF,FF,
2531073,18F00F52,true,Rx,0,8,FF,FF,FF,FF,FF,7F,1F,1F,
2531627,0CF00300,true,Rx,0,8,D1,00,0D,FF,FF,FF,6B,FF,
2542689,18EBFF00,true,Rx,0,8,0B,11,03,03,08,11,03,7E,
2551141,18FEF000,true,Rx,0,8,FF,FF,FF,90,1A,F0,CC,FF,
2557330,0CF00400,true,Rx,0,8,30,7D,84,7F,17,00,0F,85,
2576536,18FEF100,true,Rx,0,8,F4,00,00,50,00,00,00,00,
2577856,0CF00400,true,Rx,0,8,20,7D,84,8A,17,00,0F,84,
2580983,18F00F52,true,Rx,0,8,FF,FF,FF,FF,FF,7F,1F,1F,
2581533,0CF00300,true,Rx,0,8,D1,00,0D,FF,FF,FF,6B,FF,
2587911,18FFC33D,true,Rx,0,8,00,00,00,00,31,00,00,C2,
2591025,0CFE6CEE,true,Rx,0,8,00,3F,FF,C5,00,00,00,00,
2596201,18FEF200,true,Rx,0,8,1D,00,00,00,16,03,FF,FF,
2597269,0CF00400,true,Rx,0,8,20,7D,84,7E,17,00,0F,84,
2597815,18EBFF00,true,Rx,0,8,04,7E,A1,0D,04,7E,BA,12,
2611221,18FEEF00,true,Rx,0,8,FF,FF,FF,FE,FF,FF,FF,FA,
2631110,18F00F52,true,Rx,0,8,FF,FF,FF,FF,FF,7F,1F,1F,
2631668,0CF00300,true,Rx,0,8,D1,00,0D,FF,FF,FF,6B,FF,
2632226,18FEF600,true,Rx,0,8,FF,00,55,FF,FF,FF,FF,FF,
2637430,0CF00400,true,Rx,0,8,20,7D,84,77,17,00,0F,84,
2641043,0CFE6CEE,true,Rx,0,8,00,3F,FF,C5,00,00,00,00,
2641593,18F00029,true,Rx,0,8,F0,7D,7D,FF,29,FF,FF,FF,
2642146,18FEC1EE,true,Rx,0,8,E4,31,A2,06,E8,3E,01,00,
2651210,18FEF000,true,Rx,0,8,FF,FF,FF,90,1A,F0,CC,FF,
2655589,18EBFF00,true,Rx,0,8,05,1F,02,9A,0C,0F,28,9A,
2656139,18FD3E00,true,Rx,0,8,FF,FE,FF,FF,FE,FF,FF,FF,
2657469,0CF00400,true,Rx,0,8,20,7D,84,7C,17,00,0F,84,
2676620,18FEF100,true,Rx,0,8,F4,00,00,50,00,00,00,00,
2677686,0CF00400,true,Rx,0,8,20,7D,84,80,17,00,0F,84,
2681050,18F00F52,true,Rx,0,8,FF,FF,FF,FF,FF,7F,1F,1F,
2681599,0CF00300,true,Rx,0,8,D1,00,0D,FF,FF,FF,6B,FF,
2686562,18FFC400,true,Rx,0,8,00,00,00,00,00,F1,FF,FF,
2691055,0CFE6CEE,true,Rx,0,8,00,3F,FF,C5,00,00,00,00,
2691605,18FEE6EE,true,Rx,0,8,D0,35,0F,07,57,27,70,7A,
2696119,18FEF200,true,Rx,0,8,26,00,00,00,15,03,FF,FF,
2697459,0CF00400,true,Rx,0,8,20,7D,84,71,17,00,0F,84,
2709265,18EBFF00,true,Rx,0,8,06,0C,04,02,54,00,09,08,
2717304,0CF00400,true,Rx,0,8,20,7D,84,73,17,00,0F,84,
2721183,18F00100,true,Rx,0,8,FF,FF,FF,FF,00,FF,FF,FF,
2731209,18F00F52,true,Rx,0,8,FF,FF,FF,FF,FF,7F,1F,1F,
2731756,0CF00300,true,Rx,0,8,D1,00,0D,FF,FF,FF,6B,FF,
2737473,0CF00400,true,Rx,0,8,20,7D,84,7B,17,00,0F,84,
2741084,0CFE6CEE,true,Rx,0,8,00,3F,FF,C5,00,00,00,00,
2741640,18F00029,true,Rx,0,8,F0,7D,7D,FF,29,FF,FF,FF,
2751111,18FEF000,true,Rx,0,8,FF,FF,FF,90,1A,F0,CC,FF,
2757304,0CF00400,true,Rx,0,8,20,7D,84,6B,17,00,0F,84,
2761705,18EBFF00,true,Rx,0,8,07,57,06,09,08,54,00,02,
2767137,18FEDF00,true,Rx,0,8,85,80,25,7D,FB,FF,FF,F3,
2776496,18FEF100,true,Rx,0,8,F4,00,00,50,00,00,00,00,
2777799,0CF00400,true,Rx,0,8,30,7D,84,61,17,00,0F,85,
2781178,18F00F52,true,Rx,0,8,FF,FF,FF,FF,FF,7F,1F,1F,
2781728,0CF00300,true,Rx,0,8,D1,00,0D,FF,FF,FF,6B,FF,
2788787,18FFC33D,true,Rx,0,8,00,00,00,00,31,00,00,C2,
2790873,0CFE6CEE,true,Rx,0,8,00,3F,FF,C5,00,00,00,00,
2796025,18FEF200,true,Rx,0,8,26,00,00,00,15,03,FF,FF,
2797355,0CF00400,true,Rx,0,8,30,7D,84,63,17,00,0F,84,
2817227,0CF00400,true,Rx,0,8,30,7D,84,67,17,00,0F,84,
2817791,18EBFF00,true,Rx,0,8,08,0E,FF,FF,FF,FF,FF,FF,
2821163,18F00100,true,Rx,0,8,FF,FF,FF,FF,00,FF,FF,FF,
2831103,18F00F52,true,Rx,0,8,FF,FF,FF,FF,FF,7F,1F,1F,
2831665,0CF00300,true,Rx,0,8,D1,00,0D,FF,FF,FF,6B,FF,
2837408,0CF00400,true,Rx,0,8,30,7D,84,6B,17,00,0F,84,
2841037,0CFE6CEE,true,Rx,0,8,00,3F,FF,C5,00,00,00,00,
2841590,18F00029,true,Rx,0,8,F0,7D,7D,FF,29,FF,FF,FF,
2851122,18FEF000,true,Rx,0,8,FF,FF,FF,90,1A,F0,CC,FF,
2857312,0CF00400,true,Rx,0,8,30,7D,84,5B,17,00,0F,85,
2873386,1CDEEE17,true,Rx,0,8,0F,FF,03,00,00,00,00,00,
2876494,18E8FF00,true,Rx,0,8,00,FF,FF,FF,FF,00,DE,00,
2877044,18FEF100,true,Rx,0,8,F4,00,00,50,00,00,00,00,
2877847,0CF00400,true,Rx,0,8,30,7D,84,61,17,00,0F,85,
2880967,1CE8FFEE,true,Rx,0,8,00,FF,FF,FF,FF,00,DE,00,
2881516,0CF00300,true,Rx,0,8,D1,00,0D,FF,FF,FF,6B,FF,
2882064,18F00F52,true,Rx,0,8,FF,FF,FF,FF,FF,7F,1F,1F,
2888068,18FFC400,true,Rx,0,8,00,00,00,00,00,F1,FF,FF,
2891017,0CFE6CEE,true,Rx,0,8,00,3F,FF,C5,00,00,00,00,
2896187,18FEF200,true,Rx,0,8,26,00,00,00,15,03,FF,FF,
2897262,0CF00400,true,Rx,0,8,30,7D,84,6C,17,00,0F,84,
2917407,0CF00400,true,Rx,0,8,30,7D,84,60,17,00,0F,84,
2921024,18F00100,true,Rx,0,8,FF,FF,FF,FF,00,FF,FF,FF,
2931360,0CFD0F52,true,Rx,0,8,91,00,CB,03,7D,FF,FF,FF,
2931668,0CF00300,true,Rx,0,8,D1,00,0D,FF,FF,FF,6B,FF,
2932226,18F00F52,true,Rx,0,8,FF,FF,FF,FF,FF,7F,1F,1F,
2937593,0CF00400,true,Rx,0,8,40,7D,84,58,17,00,0F,85,
2940967,0CFE6CEE,true,Rx,0,8,00,3F,FF,C5,00,00,00,00,
2941516,18F00029,true,Rx,0,8,F0,7D,7D,FF,29,FF,FF,FF,
2951294,18FEF000,true,Rx,0,8,FF,FF,FF,90,1A,F0,CC,FF,
2957248,0CF00400,true,Rx,0,8,40,7D,84,5C,17,00,0F,85,
2976684,18FEF100,true,Rx,0,8,F4,00,00,50,00,00,00,00,
2977745,0CF00400,true,Rx,0,8,40,7D,84,61,17,00,0F,85,
2981106,18F00F52,true,Rx,0,8,FF,FF,FF,FF,FF,7F,1F,1F,
2981665,0CF00300,true,Rx,0,8,D1,00,0E,FF,FF,FF,6B,FF,
2989787,18FFC33D,true,Rx,0,8,00,00,00,00,31,00,00,C2,
2991106,0CFE6CEE,true,Rx,0,8,00,3F,FF,C5,00,00,00,00,
2996254,18FEF200,true,Rx,0,8,1D,00,00,00,16,03,FF,FF,
2997327,0CF00400,true,Rx,0,8,40,7D,84,66,17,00,0F,84,
3026075,18FEDF00,true,Rx,0,8,85,80,25,7D,FB,FF,FF,F3,
3031217,18F00F52,true,Rx,0,8,FF,FF,FF,FF,FF,7F,1F,1F,
3031763,0CF00300,true,Rx,0,8,D1,00,0E,FF,FF,FF,6B,FF,
3037496,0CF00400,true,Rx,0,8,50,7D,84,66,17,00,0F,85,
3041106,0CFE6CEE,true,Rx,0,8,00,3F,FF,C5,00,00,00,00,
3041665,18F00029,true,Rx,0,8,F0,7D,7D,FF,29,FF,FF,FF,
3051212,18FEF000,true,Rx,0,8,FF,FF,FF,90,1A,F0,CC,FF,
3057142,0CF00400,true,Rx,0,8,40,7D,84,75,17,00,0F,84,
3076603,18FEF100,true,Rx,0,8,F4,00,00,50,00,00,00,00,
3077672,0CF00400,true,Rx,0,8,40,7D,84,6D,17,00,0F,84,
3081093,18F00F52,true,Rx,0,8,FF,FF,FF,FF,FF,7F,1F,1F,
3081657,0CF00300,true,Rx,0,8,D1,00,0D,FF,FF,FF,6B,FF,
3086151,18FFC400,true,Rx,0,8,00,00,00,00,00,F1,FF,FF,
3091077,0CFE6CEE,true,Rx,0,8,00,3F,FF,C5,00,00,00,00,
3096244,18FEF200,true,Rx,0,8,27,00,00,00,15,03,FF,FF,
3097300,0CF00400,true,Rx,0,8,40,7D,84,69,17,00,0F,85,
3111369,18FEEF00,true,Rx,0,8,FF,FF,FF,FE,FF,FF,FF,FA,
3117350,0CF00400,true,Rx,0,8,40,7D,84,6E,17,00,0F,85,
3131111,18F00F52,true,Rx,0,8,FF,FF,FF,FF,FF,7F,1F,1F,
3131722,0CF00300,true,Rx,0,8,D1,00,0D,FF,FF,FF,6B,FF,
3132282,18FEF600,true,Rx,0,8,FF,00,55,FF,FF,FF,FF,FF,
3137532,0CF00400,true,Rx,0,8,40,7D,84,77,17,00,0F,85,
3140898,0CFE6CEE,true,Rx,0,8,00,3F,FF,C5,00,00,00,00,
3141455,18F00029,true,Rx,0,8,F0,7D,7D,FF,29,FF,FF,FF,
3151267,18FEF000,true,Rx,0,8,FF,FF,FF,90,1A,F0,CC,FF,
3156171,18FEF700,true,Rx,0,8,FF,FF,FF,FF,27,02,FF,FF,
3156723,18FD3E00,true,Rx,0,8,FF,FE,FF,FF,FE,FF,FF,FF,
3157538,0CF00400,true,Rx,0,8,30,7D,84,7F,17,00,0F,84,
3191033,18FFC33D,true,Rx,0,8,00,00,00,00,31,00,00,C2,
3191366,0CFE6CEE,true,Rx,0,8,00,3F,FF,C5,00,00,00,00,
3196355,18FEF200,true,Rx,0,8,27,00,00,00,15,03,FF,FF,
3197435,0CF00400,true,Rx,0,8,30,7D,84,7E,17,00,0F,84,
3201054,18FEE400,true,Rx,0,8,FF,3F,FD,FC,FF,3F,FF,FF,
3217300,0CF00400,true,Rx,0,8,30,7D,84,8A,17,00,0F,84,
3221074,18F00100,true,Rx,0,8,FF,FF,FF,FF,00,FF,FF,FF,
3221665,18FEBD00,true,Rx,0,8,00,F0,FF,FF,FF,FF,FF,FF,
3231050,18F00F52,true,Rx,0,8,FF,FF,FF,FF,FF,7F,1F,1F,
3231767,0CF00300,true,Rx,0,8,D1,00,0D,FF,FF,FF,6B,FF,
3236423,18FFC13D,true,Rx,0,8,46,FF,FF,FF,FF,FF,FF,FF,
3237489,0CF00400,true,Rx,0,8,20,7D,84,7F,17,00,0F,84,
3241100,0CFE6CEE,true,Rx,0,8,00,3F,FF,C5,00,00,00,00,
3241655,18F00029,true,Rx,0,8,F0,7D,7D,FF,29,FF,FF,FF,
3246299,18E0FF00,true,Rx,0,8,00,FF,FF,FF,FF,FF,FF,FF,
3251281,18FEF000,true,Rx,0,8,FF,FF,FF,90,1A,F0,CC,FF,
3271455,18FEF500,true,Rx,0,8,BF,FF,FF,FF,FF,FF,FF,FF,
3276616,18FEF100,true,Rx,0,8,F4,00,00,50,00,00,00,00,
3277937,0CF00400,true,Rx,0,8,30,7D,84,7A,17,00,0F,84,
3281036,18F00F52,true,Rx,0,8,FF,FF,FF,FF,FF,7F,1F,1F,
3281596,0CF00300,true,Rx,0,8,D1,00,0D,FF,FF,FF,6B,FF,
3286245,18FEDF00,true,Rx,0,8,85,80,25,7D,FB,FF,FF,F3,
3286791,18FFC400,true,Rx,0,8,00,00,00,00,00,F1,FF,FF,
3291048,0CFE6CEE,true,Rx,0,8,00,3F,FF,C5,00,00,00,00,
3291605,1885FF00,true,Rx,0,8,FF,FF,FF,FF,FF,FF,FF,FF,
3296254,18FEF200,true,Rx,0,8,27,00,00,00,15,03,FF,FF,
3297314,0CF00400,true,Rx,0,8,30,7D,84,80,17,00,0F,84,
3311298,18FF0A00,true,Rx,0,8,EF,FF,FF,FF,FF,FF,FF,FF,
3317248,0CF00400,true,Rx,0,8,20,7D,84,85,17,00,0F,84,
3321197,18F00100,true,Rx,0,8,FF,FF,FF,FF,00,FF,FF,FF,
3331087,18F00F52,true,Rx,0,8,FF,FF,FF,FF,FF,7F,1F,1F,
3331736,0CF00300,true,Rx,0,8,D1,00,0D,FF,FF,FF,6B,FF,
3351266,18FEF000,true,Rx,0,8,FF,FF,FF,90,1A,F0,CC,FF,
3356268,18FE5600,true,Rx,0,8,A1,3E,FF,FF,1F,FF,FF,FF,
3357332,0CF00400,true,Rx,0,8,20,7D,84,7A,17,00,0F,84,
3376783,18FEF100,true,Rx,0,8,F4,00,00,50,00,00,00,00,
3377847,0CF00400,true,Rx,0,8,20,7D,84,81,17,00,0F,84,
3381210,18F00F52,true,Rx,0,8,FF,FF,FF,FF,FF,7F,1F,1F,
3381765,0CF00300,true,Rx,0,8,D1,00,0D,FF,FF,FF,6B,FF,
3382326,18ECFF00,true,Rx,0,8,20,32,00,08,FF,CA,FE,00,
3533800,0CFE6CEE,true,Rx,0,8,00,3F,FF,C5,00,00,00,00,
3533805,18FFC33D,true,Rx,0,8,00,00,00,00,31,00,00,C2,
3533810,18FEF200,true,Rx,0,8,1D,00,00,00,16,03,FF,FF,
3533815,0CF00400,true,Rx,0,8,20,7D,84,71,17,00,0F,84,
3533821,18FEC100,true,Rx,0,8,C9,0E,42,04,1B,20,42,04,
3533826,0CF00400,true,Rx,0,8,30,7D,84,68,17,00,0F,85,
3533831,18F00100,true,Rx,0,8,FF,FF,FF,FF,00,FF,FF,FF,
3533837,18F00F52,true,Rx,0,8,FF,FF,FF,FF,FF,7F,1F,1F,
3533842,0CF00300,true,Rx,0,8,D1,00,0D,FF,FF,FF,6B,FF,
3533848,18EBFF00,true,Rx,0,8,01,47,FF,61,00,03,7E,64,
3533854,0CF00400,true,Rx,0,8,30,7D,84,6A,17,00,0F,84,
3533860,0CFE6CEE,true,Rx,0,8,00,3F,FF,C5,00,00,00,00,
3533865,18F00029,true,Rx,0,8,F0,7D,7D,FF,29,FF,FF,FF,
3533871,18FEF000,true,Rx,0,8,FF,FF,FF,90,1A,F0,CC,FF,
3533876,0CF00400,true,Rx,0,8,30,7D,84,6E,17,00,0F,84,
3533881,18FEF100,true,Rx,0,8,F4,00,00,50,00,00,00,00,
3533887,0CF00400,true,Rx,0,8,20,7D,84,72,17,00,0F,84,
3533892,18F00F52,true,Rx,0,8,FF,FF,FF,FF,FF,7F,1F,1F,
3533897,0CF00300,true,Rx,0,8,D1,00,0D,FF,FF,FF,6B,FF,
3533902,18FFC400,true,Rx,0,8,00,00,00,00,00,F1,FF,FF,
3533908,18EBFF00,true,Rx,0,8,02,00,02,04,33,04,03,7E,
3533913,0CFE6CEE,true,Rx,0,8,00,3F,FF,C5,00,00,00,00,
3533918,0CF00400,true,Rx,0,8,30,7D,84,68,17,00,0F,84,
3533924,18F00100,true,Rx,0,8,FF,FF,FF,FF,00,FF,FF,FF,
3533929,18F00F52,true,Rx,0,8,FF,FF,FF,FF,FF,7F,1F,1F,
3533934,0CF00300,true,Rx,0,8,D1,00,0D,FF,FF,FF,6B,FF,
3537709,0CF00400,true,Rx,0,8,30,7D,84,70,17,00,0F,84,
3541168,0CFE6CEE,true,Rx,0,8,00,3F,FF,C5,00,00,00,00,
3541716,18F00029,true,Rx,0,8,F0,7D,7D,FF,29,FF,FF,FF,
3542274,18EBFF00,true,Rx,0,8,03,08,11,03,7E,0B,11,03,
3546253,18FEDF00,true,Rx,0,8,85,80,25,7D,FB,FF,FF,F3,
3551153,18FEF000,true,Rx,0,8,FF,FF,FF,90,1A,F0,CC,FF,
3557251,0CF00400,true,Rx,0,8,30,7D,84,62,17,00,0F,84,
3591046,0CFE6CEE,true,Rx,0,8,00,3F,FF,C5,00,00,00,00,
3593132,18FFC33D,true,Rx,0,8,00,00,00,00,31,00,00,C2,
3597362,18FEF200,true,Rx,0,8,26,00,00,00,15,03,FF,FF,
3597367,0CF00400,true,Rx,0,8,40,7D,84,5D,17,00,0F,85,
3598006,18EBFF00,true,Rx,0,8,04,7E,A1,0D,04,7E,BA,12,
3611391,18FEEF00,true,Rx,0,8,FF,FF,FF,FE,FF,FF,FF,FA,
3617326,0CF00400,true,Rx,0,8,40,7D,84,62,17,00,0F,85,
3621191,18F00100,true,Rx,0,8,FF,FF,FF,FF,00,FF,FF,FF,
3630998,18F00F52,true,Rx,0,8,FF,FF,FF,FF,FF,7F,1F,1F,
3631794,0CF00300,true,Rx,0,8,D1,00,0D,FF,FF,FF,6B,FF,
3632389,18FEF600,true,Rx,0,8,FF,00,55,FF,FF,FF,FF,FF,
3638482,0CF00400,true,Rx,0,8,30,7D,84,69,17,00,0F,84,
3640958,0CFE6CEE,true,Rx,0,8,00,3F,FF,C5,00,00,00,00,
3641501,18F00029,true,Rx,0,8,F0,7D,7D,FF,29,FF,FF,FF,
3642081,18FEC1EE,true,Rx,0,8,E4,31,A2,06,E8,3E,01,00,
3651209,18FEF000,true,Rx,0,8,FF,FF,FF,90,1A,F0,CC,FF,
3676617,18FEF100,true,Rx,0,8,F4,00,00,50,00,00,00,00,
3677936,0CF00400,true,Rx,0,8,40,7D,84,64,17,00,0F,85,
3681050,18F00F52,true,Rx,0,8,FF,FF,FF,FF,FF,7F,1F,1F,
3681597,0CF00300,true,Rx,0,8,D1,00,0D,FF,FF,FF,6B,FF,
3686254,18FFC400,true,Rx,0,8,00,00,00,00,00,F1,FF,FF,
3691156,0CFE6CEE,true,Rx,0,8,00,3F,FF,C5,00,00,00,00,
3691710,18FEE6EE,true,Rx,0,8,D4,35,0F,07,57,27,70,7A,
3697997,18FEF200,true,Rx,0,8,27,00,00,00,16,03,FF,FF,
3698003,0CF00400,true,Rx,0,8,40,7D,84,70,17,00,0F,84,
3708259,18EBFF00,true,Rx,0,8,06,0C,04,02,54,00,09,08,
3718540,0CF00400,true,Rx,0,8,40,7D,84,66,17,00,0F,85,
3721075,18F00100,true,Rx,0,8,FF,FF,FF,FF,00,FF,FF,FF,
3731132,18F00F52,true,Rx,0,8,FF,FF,FF,FF,FF,7F,1F,1F,
3731786,0CF00300,true,Rx,0,8,D1,00,0D,FF,FF,FF,6B,FF,
3751429,18FEF000,true,Rx,0,8,FF,FF,FF,90,1A,F0,CC,FF,
3758158,0CF00400,true,Rx,0,8,40,7D,84,65,17,00,0F,85,
3761729,18EBFF00,true,Rx,0,8,07,57,06,09,08,54,00,02,
3778552,18FEF100,true,Rx,0,8,F4,00,00,50,00,00,00,00,
3778558,0CF00400,true,Rx,0,8,40,7D,84,6D,17,00,0F,85,
3781010,18F00F52,true,Rx,0,8,FF,FF,FF,FF,FF,7F,1F,1F,
3781559,0CF00300,true,Rx,0,8,D1,00,0D,FF,FF,FF,6B,FF,
3791087,0CFE6CEE,true,Rx,0,8,00,3F,FF,C5,00,00,00,00,
3793958,18FFC33D,true,Rx,0,8,00,00,00,00,31,00,00,C2,
3798536,18FEF200,true,Rx,0,8,1D,00,00,00,15,03,FF,FF,
3798542,0CF00400,true,Rx,0,8,40,7D,84,76,17,00,0F,84,
3806230,18FEDF00,true,Rx,0,8,85,80,25,7D,FB,FF,FF,F3,
3831002,18F00F52,true,Rx,0,8,FF,FF,FF,FF,FF,7F,1F,1F,
3831582,0CF00300,true,Rx,0,8,D1,00,0D,FF,FF,FF,6B,FF,
3840644,0CF00400,true,Rx,0,8,40,7D,84,75,17,00,0F,85,
3841047,0CFE6CEE,true,Rx,0,8,00,3F,FF,C5,00,00,00,00,
3841750,18F00029,true,Rx,0,8,F0,7D,7D,FF,29,FF,FF,FF,
3851445,18FEF000,true,Rx,0,8,FF,FF,FF,90,1A,F0,CC,FF,
3859367,0CF00400,true,Rx,0,8,30,7D,84,82,17,00,0F,84,
3871870,1CDEEE17,true,Rx,0,8,0F,FF,03,00,00,00,00,00,
3879036,18E8FF00,true,Rx,0,8,00,FF,FF,FF,FF,00,DE,00,
3879042,18FEF100,true,Rx,0,8,F4,00,00,50,00,00,00,00,
3879047,0CF00400,true,Rx,0,8,30,7D,84,78,17,00,0F,84,
3881010,1CE8FFEE,true,Rx,0,8,00,FF,FF,FF,FF,00,DE,00,
3881556,0CF00300,true,Rx,0,8,D1,00,0D,FF,FF,FF,6B,FF,
3882197,18F00F52,true,Rx,0,8,FF,FF,FF,FF,FF,7F,1F,1F,
3886309,18FFC400,true,Rx,0,8,00,00,00,00,00,F1,FF,FF,
3890966,0CFE6CEE,true,Rx,0,8,00,3F,FF,C5,00,00,00,00,
3896368,18FEF200,true,Rx,0,8,27,00,00,00,15,03,FF,FF,
3899495,0CF00400,true,Rx,0,8,30,7D,84,71,17,00,0F,85,
3919685,0CF00400,true,Rx,0,8,30,7D,84,75,17,00,0F,84,
3921144,18F00100,true,Rx,0,8,FF,FF,FF,FF,00,FF,FF,FF,
3931008,0CFD0F52,true,Rx,0,8,2F,04,CB,03,7D,FF,FF,FF,
3931555,0CF00300,true,Rx,0,8,D1,00,0D,FF,FF,FF,6B,FF,
3932375,18F00F52,true,Rx,0,8,FF,FF,FF,FF,FF,7F,1F,1F,
3941717,0CF00400,true,Rx,0,8,30,7D,84,7A,17,00,0F,85,
3941722,0CFE6CEE,true,Rx,0,8,00,3F,FF,C5,00,00,00,00,
3941727,18F00029,true,Rx,0,8,F0,7D,7D,FF,29,FF,FF,FF,
3951307,18FEF000,true,Rx,0,8,FF,FF,FF,90,1A,F0,CC,FF,
3960644,0CF00400,true,Rx,0,8,30,7D,84,81,17,00,0F,84,
3990993,0CFE6CEE,true,Rx,0,8,00,3F,FF,C5,00,00,00,00,
3994870,18FFC33D,true,Rx,0,8,00,00,00,00,31,00,00,C2,
3996210,18FEF200,true,Rx,0,8,27,00,00,00,15,03,FF,FF,
4000354,0CF00400,true,Rx,0,8,30,7D,84,7A,17,00,0F,84,
4017529,0CF00400,true,Rx,0,8,20,7D,84,81,17,00,0F,84,
4021211,18F00100,true,Rx,0,8,FF,FF,FF,FF,00,FF,FF,FF,
4031031,18F00F52,true,Rx,0,8,FF,FF,FF,FF,FF,7F,1F,1F,
4031586,0CF00300,true,Rx,0,8,D1,00,0D,FF,FF,FF,6B,FF,
4037592,0CF00400,true,Rx,0,8,20,7D,84,74,17,00,0F,84,
4041742,0CFE6CEE,true,Rx,0,8,00,3F,FF,C5,00,00,00,00,
4041748,18F00029,true,Rx,0,8,F0,7D,7D,FF,29,FF,FF,FF,
4051390,18FEF000,true,Rx,0,8,FF,FF,FF,90,1A,F0,CC,FF,
4066297,18FEDF00,true,Rx,0,8,85,80,25,7D,FB,FF,FF,F3,
4076840,18FEF100,true,Rx,0,8,F4,00,00,50,00,00,00,00,
4077909,0CF00400,true,Rx,0,8,30,7D,84,6E,17,00,0F,84,
4081421,18F00F52,true,Rx,0,8,FF,FF,FF,FF,FF,7F,1F,1F,
4081761,0CF00300,true,Rx,0,8,D1,00,0D,FF,FF,FF,6B,FF,
4086446,18FFC400,true,Rx,0,8,00,00,00,00,00,F1,FF,FF,
4091222,0CFE6CEE,true,Rx,0,8,00,3F,FF,C5,00,00,00,00,
4096373,18FEF200,true,Rx,0,8,26,00,00,00,16,03,FF,FF,
4097444,0CF00400,true,Rx,0,8,30,7D,84,72,17,00,0F,84,
4111300,18FEEF00,true,Rx,0,8,FF,FF,FF,FE,FF,FF,FF,FA,
4117501,0CF00400,true,Rx,0,8,20,7D,84,77,17,00,0F,84,
4121136,18F00100,true,Rx,0,8,FF,FF,FF,FF,00,FF,FF,FF,
4131214,18F00F52,true,Rx,0,8,FF,FF,FF,FF,FF,7F,1F,1F,
4131759,0CF00300,true,Rx,0,8,D1,00,0D,FF,FF,FF,6B,FF,
4132313,18FEF600,true,Rx,0,8,FF,00,55,FF,FF,FF,FF,FF,
4137593,0CF00400,true,Rx,0,8,30,7D,84,68,17,00,0F,85,
4142850,0CFE6CEE,true,Rx,0,8,00,3F,FF,C5,00,00,00,00,
4142855,18F00029,true,Rx,0,8,F0,7D,7D,FF,29,FF,FF,FF,
4151395,18FEF000,true,Rx,0,8,FF,FF,FF,90,1A,F0,CC,FF,
4156299,18FEF700,true,Rx,0,8,FF,FF,FF,FF,27,02,FF,FF,
4156844,18FD3E00,true,Rx,0,8,FF,FE,FF,FF,FE,FF,FF,FF,
4157412,0CF00400,true,Rx,0,8,30,7D,84,6C,17,00,0F,85,
4176738,18FEF100,true,Rx,0,8,F4,00,00,50,00,00,00,00,
4177299,18FEEE00,true,Rx,0,8,73,FF,FF,FF,FF,FF,FF,FF,
4178106,0CF00400,true,Rx,0,8,30,7D,84,75,17,00,0F,84,
4181218,18F00F52,true,Rx,0,8,FF,FF,FF,FF,FF,7F,1F,1F,
4181602,0CF00300,true,Rx,0,8,D1,00,0D,FF,FF,FF,6B,FF,
4191214,0CFE6CEE,true,Rx,0,8,00,3F,FF,C5,00,00,00,00,
4196103,18FFC33D,true,Rx,0,8,00,00,00,00,31,00,00,C2,
4196658,18FEF200,true,Rx,0,8,1D,00,00,00,15,03,FF,FF,
4197481,0CF00400,true,Rx,0,8,30,7D,84,68,17,00,0F,84,
4202642,18FEE400,true,Rx,0,8,FF,3F,FD,FC,FF,3F,FF,FF,
4217393,0CF00400,true,Rx,0,8,30,7D,84,5E,17,00,0F,85,
4221644,18F00100,true,Rx,0,8,FF,FF,FF,FF,00,FF,FF,FF,
4221700,18FEBD00,true,Rx,0,8,00,F0,FF,FF,FF,FF,FF,FF,
4231193,18F00F52,true,Rx,0,8,FF,FF,FF,FF,FF,7F,1F,1F,
4231759,0CF00300,true,Rx,0,8,D1,00,0D,FF,FF,FF,6B,FF,
4237723,0CF00400,true,Rx,0,8,30,7D,84,62,17,00,0F,84,
4238284,18FFC13D,true,Rx,0,8,46,FF,FF,FF,FF,FF,FF,FF,
4242043,0CFE6CEE,true,Rx,0,8,00,3F,FF,C5,00,00,00,00,
4242048,18F00029,true,Rx,0,8,F0,7D,7D,FF,29,FF,FF,FF,
4246261,18E0FF00,true,Rx,0,8,00,FF,FF,FF,FF,FF,FF,FF,
4251433,18FEF000,true,Rx,0,8,FF,FF,FF,90,1A,F0,CC,FF,
4257353,0CF00400,true,Rx,0,8,30,7D,84,67,17,00,0F,85,
4271361,18FEF500,true,Rx,0,8,BF,FF,FF,FF,FF,FF,FF,FF,
4276771,18FEF100,true,Rx,0,8,F4,00,00,50,00,00,00,00,
4277838,0CF00400,true,Rx,0,8,30,7D,84,6B,17,00,0F,84,
4282010,18F00F52,true,Rx,0,8,FF,FF,FF,FF,FF,7F,1F,1F,
4282015,0CF00300,true,Rx,0,8,D1,00,0D,FF,FF,FF,6B,FF,
4286276,18FFC400,true,Rx,0,8,00,00,00,00,00,F1,FF,FF,
4291196,0CFE6CEE,true,Rx,0,8,00,3F,FF,C5,00,00,00,00,
4291745,1885FF00,true,Rx,0,8,FF,FF,FF,FF,FF,FF,FF,FF,
4296393,18FEF200,true,Rx,0,8,26,00,00,00,15,03,FF,FF,
4297463,0CF00400,true,Rx,0,8,30,7D,84,5E,17,00,0F,85,
4311394,18FF0A00,true,Rx,0,8,EF,FF,FF,FF,FF,FF,FF,FF,
4317305,0CF00400,true,Rx,0,8,40,7D,84,66,17,00,0F,85,
4322366,18F00100,true,Rx,0,8,FF,FF,FF,FF,00,FF,FF,FF,
4326299,18FEDF00,true,Rx,0,8,85,80,25,7D,FB,FF,FF,F3,
4331211,18F00F52,true,Rx,0,8,FF,FF,FF,FF,FF,7F,1F,1F,
4331760,0CF00300,true,Rx,0,8,D1,00,0D,FF,FF,FF,6B,FF,
4336483,18FDE500,true,Rx,0,8,FF,FF,FF,FF,FF,FF,FF,FB,
4337796,0CF00400,true,Rx,0,8,30,7D,84,72,17,00,0F,84,
4342481,0CFE6CEE,true,Rx,0,8,00,3F,FF,C5,00,00,00,00,
4342486,18F00029,true,Rx,0,8,F0,7D,7D,FF,29,FF,FF,FF,
4351411,18FEF000,true,Rx,0,8,FF,FF,FF,90,1A,F0,CC,FF,
4356417,18FE5600,true,Rx,0,8,A1,3E,FF,FF,1F,FF,FF,FF,
4357509,0CF00400,true,Rx,0,8,30,7D,84,65,17,00,0F,84,
4376783,18FEF100,true,Rx,0,8,F4,00,00,50,00,00,00,00,
4377848,0CF00400,true,Rx,0,8,40,7D,84,5E,17,00,0F,85,
4382791,18F00F52,true,Rx,0,8,FF,FF,FF,FF,FF,7F,1F,1F,
4382796,0CF00300,true,Rx,0,8,D1,00,0D,FF,FF,FF,6B,FF,
4382802,18ECFF00,true,Rx,0,8,20,32,00,08,FF,CA,FE,00,
4391227,0CFE6CEE,true,Rx,0,8,00,3F,FF,C5,00,00,00,00,
4396390,18FEF200,true,Rx,0,8,27,00,00,00,15,03,FF,FF,
4396933,18FFC33D,true,Rx,0,8,00,00,00,00,31,00,00,C2,
4397496,0CF00400,true,Rx,0,8,40,7D,84,64,17,00,0F,85,
4762641,18FEC100,true,Rx,0,8,C9,0E,42,04,1B,20,42,04,
4762647,0CF00400,true,Rx,0,8,40,7D,84,6A,17,00,0F,85,
4762652,18F00100,true,Rx,0,8,FF,FF,FF,FF,00,FF,FF,FF,
4762657,18F00F52,true,Rx,0,8,FF,FF,FF,FF,FF,7F,1F,1F,
4762662,0CF00300,true,Rx,0,8,D1,00,0E,FF,FF,FF,6B,FF,
4762668,18EBFF00,true,Rx,0,8,01,47,FF,61,00,03,7E,64,
4762673,0CF00400,true,Rx,0,8,40,7D,84,71,17,00,0F,84,
4762679,0CFE6CEE,true,Rx,0,8,00,3F,FF,C5,00,00,00,00,
4762684,18F00029,true,Rx,0,8,F0,7D,7D,FF,29,FF,FF,FF,
4762689,18FEF000,true,Rx,0,8,FF,FF,FF,90,1A,F0,CC,FF,
4762694,0CF00400,true,Rx,0,8,40,7D,84,66,17,00,0F,85,
4762700,18FEF100,true,Rx,0,8,F4,00,00,50,00,00,00,00,
4762705,0CF00400,true,Rx,0,8,40,7D,84,6F,17,00,0F,85,
4762710,18F00F52,true,Rx,0,8,FF,FF,FF,FF,FF,7F,1F,1F,
4762716,0CF00300,true,Rx,0,8,D1,00,0D,FF,FF,FF,6B,FF,
4762721,18FFC400,true,Rx,0,8,00,00,00,00,00,F1,FF,FF,
4762726,18EBFF00,true,Rx,0,8,02,00,02,04,33,04,03,7E,
4762732,0CFE6CEE,true,Rx,0,8,00,3F,FF,C5,00,00,00,00,
4762737,18FEF200,true,Rx,0,8,27,00,00,00,16,03,FF,FF,
4762742,0CF00400,true,Rx,0,8,30,7D,84,7B,17,00,0F,84,
4762747,0CF00400,true,Rx,0,8,30,7D,84,6F,17,00,0F,84,
4762753,18F00100,true,Rx,0,8,FF,FF,FF,FF,00,FF,FF,FF,
4762758,18F00F52,true,Rx,0,8,FF,FF,FF,FF,FF,7F,1F,1F,
4762763,0CF00300,true,Rx,0,8,D1,00,0D,FF,FF,FF,6B,FF,
4762769,0CF00400,true,Rx,0,8,40,7D,84,68,17,00,0F,85,
4762774,0CFE6CEE,true,Rx,0,8,00,3F,FF,C5,00,00,00,00,
4762779,18F00029,true,Rx,0,8,F0,7D,7D,FF,29,FF,FF,FF,
4762785,18EBFF00,true,Rx,0,8,03,08,11,03,7E,0B,11,03,
4762790,18FEF000,true,Rx,0,8,FF,FF,FF,90,1A,F0,CC,FF,
4762796,0CF00400,true,Rx,0,8,40,7D,84,6D,17,00,0F,85,
4762801,18FEF100,true,Rx,0,8,F4,00,00,50,00,00,00,00,
4762806,0CF00400,true,Rx,0,8,40,7D,84,74,17,00,0F,85,
4762812,18F00F52,true,Rx,0,8,FF,FF,FF,FF,FF,7F,1F,1F,
4762817,0CF00300,true,Rx,0,8,D1,00,0D,FF,FF,FF,6B,FF,
4762822,18FEDF00,true,Rx,0,8,85,80,25,7D,FB,FF,FF,F3,
4762828,0CFE6CEE,true,Rx,0,8,00,3F,FF,C5,00,00,00,00,
4762833,18FEF200,true,Rx,0,8,1D,00,00,00,15,03,FF,FF,
4762838,0CF00400,true,Rx,0,8,30,7D,84,7B,17,00,0F,84,
4762844,18FFC33D,true,Rx,0,8,00,00,00,00,31,00,00,C2,
4762849,18EBFF00,true,Rx,0,8,04,7E,A1,0D,04,7E,BA,12,
4762854,18FEEF00,true,Rx,0,8,FF,FF,FF,FE,FF,FF,FF,FA,
4762859,18F00F52,true,Rx,0,8,FF,FF,FF,FF,FF,7F,1F,1F,
4762865,0CF00300,true,Rx,0,8,D1,00,0D,FF,FF,FF,6B,FF,
4762870,18FEF600,true,Rx,0,8,FF,00,55,FF,FF,FF,FF,FF,
4762875,0CF00400,true,Rx,0,8,30,7D,84,76,17,00,0F,85,
4762881,0CFE6CEE,true,Rx,0,8,00,3F,FF,C5,00,00,00,00,
4762886,18F00029,true,Rx,0,8,F0,7D,7D,FF,29,FF,FF,FF,
4762891,18FEC1EE,true,Rx,0,8,E4,31,A2,06,E8,3E,01,00,
4762897,18FEF000,true,Rx,0,8,FF,FF,FF,90,1A,F0,CC,FF,
4762903,18EBFF00,true,Rx,0,8,05,1F,02,9A,0C,0F,28,9A,
4762908,18FD3E00,true,Rx,0,8,FF,FE,FF,FF,FE,FF,FF,FF,
4762914,0CF00400,true,Rx,0,8,30,7D,84,7F,17,00,0F,84,
4762919,18FEF100,true,Rx,0,8,F4,00,00,50,00,00,00,00,
4762925,0CF00400,true,Rx,0,8,30,7D,84,71,17,00,0F,84,
4762930,18F00F52,true,Rx,0,8,FF,FF,FF,FF,FF,7F,1F,1F,
4762936,0CF00300,true,Rx,0,8,D1,00,0D,FF,FF,FF,6B,FF,
4762941,18FFC400,true,Rx,0,8,00,00,00,00,00,F1,FF,FF,
4762960,0CFE6CEE,true,Rx,0,8,00,3F,FF,C5,00,00,00,00,
4762966,18FEE6EE,true,Rx,0,8,D8,35,0F,07,57,27,70,7A,
4762972,18FEF200,true,Rx,0,8,27,00,00,00,15,03,FF,FF,
4762978,0CF00400,true,Rx,0,8,30,7D,84,69,17,00,0F,85,
4762983,18EBFF00,true,Rx,0,8,06,0C,04,02,54,00,09,08,
4762989,0CF00400,true,Rx,0,8,30,7D,84,6D,17,00,0F,84,
4762994,18F00F52,true,Rx,0,8,FF,FF,FF,FF,FF,7F,1F,1F,
4776835,18FEF100,true,Rx,0,8,F4,00,00,50,00,00,00,00,
4777919,0CF00400,true,Rx,0,8,30,7D,84,6A,17,00,0F,85,
4781056,18F00F52,true,Rx,0,8,FF,FF,FF,FF,FF,7F,1F,1F,
4781631,0CF00300,true,Rx,0,8,D1,00,0D,FF,FF,FF,6B,FF,
4793215,0CFE6CEE,true,Rx,0,8,00,3F,FF,C5,00,00,00,00,
4796383,18FEF200,true,Rx,0,8,27,00,00,00,16,03,FF,FF,
4797450,0CF00400,true,Rx,0,8,30,7D,84,71,17,00,0F,85,
4799019,18FFC33D,true,Rx,0,8,00,00,00,00,31,00,00,C2,
4817567,0CF00400,true,Rx,0,8,30,7D,84,7B,17,00,0F,84,
4818126,18EBFF00,true,Rx,0,8,08,0E,FF,FF,FF,FF,FF,FF,
4821244,18F00100,true,Rx,0,8,FF,FF,FF,FF,00,FF,FF,FF,
4831045,18F00F52,true,Rx,0,8,FF,FF,FF,FF,FF,7F,1F,1F,
4831591,0CF00300,true,Rx,0,8,D1,00,0D,FF,FF,FF,6B,FF,
4837517,0CF00400,true,Rx,0,8,30,7D,84,6D,17,00,0F,84,
4841149,0CFE6CEE,true,Rx,0,8,00,3F,FF,C5,00,00,00,00,
4841702,18F00029,true,Rx,0,8,F0,7D,7D,FF,29,FF,FF,FF,
4847230,18FEDF00,true,Rx,0,8,85,80,25,7D,FB,FF,FF,F3,
4851334,18FEF000,true,Rx,0,8,FF,FF,FF,90,1A,F0,CC,FF,
4857465,0CF00400,true,Rx,0,8,30,7D,84,64,17,00,0F,85,
4871817,1CDEEE17,true,Rx,0,8,0F,FF,03,00,00,00,00,00,
4876656,18E8FF00,true,Rx,0,8,00,FF,FF,FF,FF,00,DE,00,
4877211,18FEF100,true,Rx,0,8,F4,00,00,50,00,00,00,00,
4878019,0CF00400,true,Rx,0,8,30,7D,84,68,17,00,0F,85,
4881128,18F00F52,true,Rx,0,8,FF,FF,FF,FF,FF,7F,1F,1F,
4881686,0CF00300,true,Rx,0,8,D1,00,0D,FF,FF,FF,6B,FF,
4882328,1CE8FFEE,true,Rx,0,8,00,FF,FF,FF,FF,00,DE,00,
4888008,18FFC400,true,Rx,0,8,00,00,00,00,00,F1,FF,FF,
4891217,0CFE6CEE,true,Rx,0,8,00,3F,FF,C5,00,00,00,00,
4896373,18FEF200,true,Rx,0,8,27,00,00,00,15,03,FF,FF,
4897450,0CF00400,true,Rx,0,8,30,7D,84,6E,17,00,0F,85,
4917598,0CF00400,true,Rx,0,8,30,7D,84,74,17,00,0F,84,
4921241,18F00100,true,Rx,0,8,FF,FF,FF,FF,00,FF,FF,FF,
4931031,0CFD0F52,true,Rx,0,8,AC,2D,CB,03,7D,FF,FF,FF,
4931585,0CF00300,true,Rx,0,8,D1,00,0D,FF,FF,FF,6B,FF,
4932138,18F00F52,true,Rx,0,8,FF,FF,FF,FF,FF,7F,1F,1F,
4937617,0CF00400,true,Rx,0,8,30,7D,84,69,17,00,0F,85,
4941244,0CFE6CEE,true,Rx,0,8,00,3F,FF,C5,00,00,00,00,
4941797,18F00029,true,Rx,0,8,F0,7D,7D,FF,29,FF,FF,FF,
4951522,18FEF000,true,Rx,0,8,FF,FF,FF,90,1A,F0,CC,FF,
4957475,0CF00400,true,Rx,0,8,30,7D,84,70,17,00,0F,85,
4976800,18FEF100,true,Rx,0,8,F4,00,00,50,00,00,00,00,
4977859,0CF00400,true,Rx,0,8,30,7D,84,79,17,00,0F,84,
4981242,18F00F52,true,Rx,0,8,FF,FF,FF,FF,FF,7F,1F,1F,
4981787,0CF00300,true,Rx,0,8,D1,00,0D,FF,FF,FF,6B,FF,
4991166,0CFE6CEE,true,Rx,0,8,00,3F,FF,C5,00,00,00,00,
4996312,18FEF200,true,Rx,0,8,1D,00,00,00,15,03,FF,FF,
4997642,0CF00400,true,Rx,0,8,30,7D,84,6C,17,00,0F,84,
4999997,18FFC33D,true,Rx,0,8,00,00,00,00,31,00,00,C2,
5017443,0CF00400,true,Rx,0,8,30,7D,84,65,17,00,0F,85,
5021341,18F00100,true,Rx,0,8,FF,FF,FF,FF,00,FF,FF,FF,
5031148,18F00F52,true,Rx,0,8,FF,FF,FF,FF,FF,7F,1F,1F,
5031702,0CF00300,true,Rx,0,8,D1,00,0D,FF,FF,FF,6B,FF,
5037705,0CF00400,true,Rx,0,8,30,7D,84,6A,17,00,0F,84,
5051431,18FEF000,true,Rx,0,8,FF,FF,FF,90,1A,F0,CC,FF,
5057449,0CF00400,true,Rx,0,8,30,7D,84,70,17,00,0F,85,
5076935,18FEF100,true,Rx,0,8,F4,00,00,50,00,00,00,00,
5078006,0CF00400,true,Rx,0,8,30,7D,84,77,17,00,0F,84,
5081115,18F00F52,true,Rx,0,8,FF,FF,FF,FF,FF,7F,1F,1F,
5081671,0CF00300,true,Rx,0,8,D1,00,0D,FF,FF,FF,6B,FF,
5089319,18FFC400,true,Rx,0,8,00,00,00,00,00,F1,FF,FF,
5091306,0CFE6CEE,true,Rx,0,8,00,3F,FF,C5,00,00,00,00,
5106238,18FEDF00,true,Rx,0,8,85,80,25,7D,FB,FF,FF,F3,
5111516,18FEEF00,true,Rx,0,8,FF,FF,FF,FE,FF,FF,FF,FA,
5117481,0CF00400,true,Rx,0,8,30,7D,84,71,17,00,0F,85,
5121361,18F00100,true,Rx,0,8,FF,FF,FF,FF,00,FF,FF,FF,
5131201,18F00F52,true,Rx,0,8,FF,FF,FF,FF,FF,7F,1F,1F,
5131754,0CF00300,true,Rx,0,8,D1,00,0D,FF,FF,FF,6B,FF,
5132308,18FEF600,true,Rx,0,8,FF,00,55,FF,FF,FF,FF,FF,
5137751,0CF00400,true,Rx,0,8,30,7D,84,7B,17,00,0F,84,
5141118,0CFE6CEE,true,Rx,0,8,00,3F,FF,C5,00,00,00,00,
5141677,18F00029,true,Rx,0,8,F0,7D,7D,FF,29,FF,FF,FF,
5151345,18FEF000,true,Rx,0,8,FF,FF,FF,90,1A,F0,CC,FF,
5156281,18FEF700,true,Rx,0,8,FF,FF,FF,FF,28,02,FF,FF,
5156826,18FD3E00,true,Rx,0,8,FF,FE,FF,FF,FE,FF,FF,FF,
5157641,0CF00400,true,Rx,0,8,30,7D,84,6F,17,00,0F,84,
5176709,18FEF100,true,Rx,0,8,F4,00,00,50,00,00,00,00,
5177271,18FEEE00,true,Rx,0,8,73,FF,FF,FF,FF,FF,FF,FF,
5178076,0CF00400,true,Rx,0,8,30,7D,84,67,17,00,0F,85,
5181213,18F00F52,true,Rx,0,8,FF,FF,FF,FF,FF,7F,1F,1F,
5181760,0CF00300,true,Rx,0,8,D1,00,0D,FF,FF,FF,6B,FF,
5191307,0CFE6CEE,true,Rx,0,8,00,3F,FF,C5,00,00,00,00,
5196477,18FEF200,true,Rx,0,8,27,00,00,00,16,03,FF,FF,
5197539,0CF00400,true,Rx,0,8,30,7D,84,6B,17,00,0F,84,
5201153,18FFC33D,true,Rx,0,8,00,00,00,00,31,00,00,C2,
5201716,18FEE400,true,Rx,0,8,FF,3F,FD,FC,FF,3F,FF,FF,
5217524,0CF00400,true,Rx,0,8,30,7D,84,71,17,00,0F,85,
5221434,18F00100,true,Rx,0,8,FF,FF,FF,FF,00,FF,FF,FF,
5221987,18FEBD00,true,Rx,0,8,00,F0,FF,FF,FF,FF,FF,FF,
5231262,18F00F52,true,Rx,0,8,FF,FF,FF,FF,FF,7F,1F,1F,
5231808,0CF00300,true,Rx,0,8,D1,00,0D,FF,FF,FF,6B,FF,
5237663,0CF00400,true,Rx,0,8,30,7D,84,77,17,00,0F,84,
5238218,18FFC13D,true,Rx,0,8,46,FF,FF,FF,FF,FF,FF,FF,
5241312,0CFE6CEE,true,Rx,0,8,00,3F,FF,C5,00,00,00,00,
5241858,18F00029,true,Rx,0,8,F0,7D,7D,FF,29,FF,FF,FF,
5246525,18E0FF00,true,Rx,0,8,00,FF,FF,FF,FF,FF,FF,FF,
5251425,18FEF000,true,Rx,0,8,FF,FF,FF,90,1A,F0,CC,FF,
5257589,0CF00400,true,Rx,0,8,30,7D,84,6A,17,00,0F,85,
5271591,18FEF500,true,Rx,0,8,BF,FF,FF,FF,FF,FF,FF,FF,
5276886,18FEF100,true,Rx,0,8,F4,00,00,50,00,00,00,00,
5278212,0CF00400,true,Rx,0,8,30,7D,84,6F,17,00,0F,85,
5281052,18F00F52,true,Rx,0,8,FF,FF,FF,FF,FF,7F,1F,1F,
5281601,0CF00300,true,Rx,0,8,D1,00,0D,FF,FF,FF,6B,FF,
5286524,18FFC400,true,Rx,0,8,00,00,00,00,00,F1,FF,FF,
5291317,0CFE6CEE,true,Rx,0,8,00,3F,FF,C5,00,00,00,00,
5291877,1885FF00,true,Rx,0,8,FF,FF,FF,FF,FF,FF,FF,FF,
5296512,18FEF200,true,Rx,0,8,27,00,00,00,15,03,FF,FF,
5297584,0CF00400,true,Rx,0,8,30,7D,84,7A,17,00,0F,84,
5311620,18FF0A00,true,Rx,0,8,EF,FF,FF,FF,FF,FF,FF,FF,
5317537,0CF00400,true,Rx,0,8,30,7D,84,6C,17,00,0F,84,
5321417,18F00100,true,Rx,0,8,FF,FF,FF,FF,00,FF,FF,FF,
5331132,18F00F52,true,Rx,0,8,FF,FF,FF,FF,FF,7F,1F,1F,
5331695,0CF00300,true,Rx,0,8,D1,00,0D,FF,FF,FF,6B,FF,
5336699,18FDE500,true,Rx,0,8,FF,FF,FF,FF,FF,FF,FF,FB,
5337754,0CF00400,true,Rx,0,8,30,7D,84,65,17,00,0F,85,
5341128,0CFE6CEE,true,Rx,0,8,00,3F,FF,C5,00,00,00,00,
5341681,18F00029,true,Rx,0,8,F0,7D,7D,FF,29,FF,FF,FF,
5351520,18FEF000,true,Rx,0,8,FF,FF,FF,90,1A,F0,CC,FF,
5356447,18FE5600,true,Rx,0,8,A1,3E,FF,FF,1F,FF,FF,FF,
5357502,0CF00400,true,Rx,0,8,30,7D,84,69,17,00,0F,84,
5366335,18FEDF00,true,Rx,0,8,85,80,25,7D,FB,FF,FF,F3,
5376787,18FEF100,true,Rx,0,8,F4,00,00,50,00,00,00,00,
5378111,0CF00400,true,Rx,0,8,30,7D,84,6F,17,00,0F,85,
5381226,18F00F52,true,Rx,0,8,FF,FF,FF,FF,FF,7F,1F,1F,
5381772,0CF00300,true,Rx,0,8,D1,00,0D,FF,FF,FF,6B,FF,
5382333,18ECFF00,true,Rx,0,8,20,32,00,08,FF,CA,FE,00,
5391962,0CFE6CEE,true,Rx,0,8,00,3F,FF,C5,00,00,00,00,
5396401,18FEF200,true,Rx,0,8,1D,00,00,00,15,03,FF,FF,
5397488,0CF00400,true,Rx,0,8,30,7D,84,74,17,00,0F,84,
5401364,18FEC100,true,Rx,0,8,C9,0E,42,04,1B,20,42,04,
5402165,18FFC33D,true,Rx,0,8,00,00,00,00,31,00,00,C2,
5417630,0CF00400,true,Rx,0,8,30,7D,84,68,17,00,0F,85,
5421267,18F00100,true,Rx,0,8,FF,FF,FF,FF,00,FF,FF,FF,
5431317,18F00F52,true,Rx,0,8,FF,FF,FF,FF,FF,7F,1F,1F,
5431701,0CF00300,true,Rx,0,8,D1,00,0D,FF,FF,FF,6B,FF,
5436136,18EBFF00,true,Rx,0,8,01,47,FF,61,00,03,7E,64,
5437723,0CF00400,true,Rx,0,8,30,7D,84,6F,17,00,0F,85,
5441344,0CFE6CEE,true,Rx,0,8,00,3F,FF,C5,00,00,00,00,
5441890,18F00029,true,Rx,0,8,F0,7D,7D,FF,29,FF,FF,FF,
5446535,18ECFF29,true,Rx,0,8,20,13,00,03,FF,E1,FE,00,
5451542,18FEF000,true,Rx,0,8,FF,FF,FF,90,1A,F0,CC,FF,
5457426,0CF00400,true,Rx,0,8,30,7D,84,7C,17,00,0F,84,
5474177,18FEFF00,true,Rx,0,8,FE,FF,FF,FF,FF,FF,FF,FF,
5476817,18FEF100,true,Rx,0,8,F4,00,00,50,00,00,00,00,
5478143,0CF00400,true,Rx,0,8,30,7D,84,70,17,00,0F,84,
5481250,18F00F52,true,Rx,0,8,FF,FF,FF,FF,FF,7F,1F,1F,
5481796,0CF00300,true,Rx,0,8,D1,00,0D,FF,FF,FF,6B,FF,
5486454,18FFC400,true,Rx,0,8,00,00,00,00,00,F1,FF,FF,
5488534,18EBFF00,true,Rx,0,8,02,00,02,04,33,04,03,7E,
5492202,0CFE6CEE,true,Rx,0,8,00,3F,FF,C5,00,00,00,00,
5496472,18FEF200,true,Rx,0,8,27,00,00,00,15,03,FF,FF,
5497534,0CF00400,true,Rx,0,8,30,7D,84,68,17,00,0F,85,
5498087,18EBFF29,true,Rx,0,8,01,14,01,70,17,68,68,42,
5517544,0CF00400,true,Rx,0,8,30,7D,84,6B,17,00,0F,84,
5521269,18F00100,true,Rx,0,8,FF,FF,FF,FF,00,FF,FF,FF,
5532142,18F00F52,true,Rx,0,8,FF,FF,FF,FF,FF,7F,1F,1F,
5532147,0CF00300,true,Rx,0,8,D1,00,0D,FF,FF,FF,6B,FF,
5537720,0CF00400,true,Rx,0,8,30,7D,84,71,17,00,0F,85,
5541344,0CFE6CEE,true,Rx,0,8,00,3F,FF,C5,00,00,00,00,
5541889,18F00029,true,Rx,0,8,F0,7D,7D,FF,29,FF,FF,FF,
5542453,18EBFF00,true,Rx,0,8,03,08,11,03,7E,0B,11,03,
5552110,18FEF000,true,Rx,0,8,FF,FF,FF,90,1A,F0,CC,FF,
5555839,18EBFF29,true,Rx,0,8,02,59,20,26,64,68,42,59,
5557434,0CF00400,true,Rx,0,8,30,7D,84,78,17,00,0F,84,
5576942,18FEF100,true,Rx,0,8,F4,00,00,50,00,00,00,00,
5578006,0CF00400,true,Rx,0,8,30,7D,84,6E,17,00,0F,85,
5581207,18F00F52,true,Rx,0,8,FF,FF,FF,FF,FF,7F,1F,1F,
5581754,0CF00300,true,Rx,0,8,D1,00,0D,FF,FF,FF,6B,FF,
5593280,0CFE6CEE,true,Rx,0,8,00,3F,FF,C5,00,00,00,00,
5596333,18FEF200,true,Rx,0,8,27,00,00,00,16,03,FF,FF,
5597659,0CF00400,true,Rx,0,8,30,7D,84,77,17,00,0F,84,
5598213,18EBFF00,true,Rx,0,8,04,7E,A1,0D,04,7E,BA,12,
5603097,18FFC33D,true,Rx,0,8,00,00,00,00,31,00,00,C2,
5608510,18EBFF29,true,Rx,0,8,03,D0,34,84,03,5B,FF,FF,
5612491,18FEEF00,true,Rx,0,8,FF,FF,FF,FE,FF,FF,FF,FA,
5617588,0CF00400,true,Rx,0,8,30,7D,84,84,17,00,0F,84,
5621485,18F00100,true,Rx,0,8,FF,FF,FF,FF,00,FF,FF,FF,
5626392,18FEDF00,true,Rx,0,8,85,80,25,7D,FB,FF,FF,F3,
5632713,18F00F52,true,Rx,0,8,FF,FF,FF,FF,FF,7F,1F,1F,
5632719,0CF00300,true,Rx,0,8,D1,00,0D,FF,FF,FF,6B,FF,
5632724,18FEF600,true,Rx,0,8,FF,00,55,FF,FF,FF,FF,FF,
5637795,0CF00400,true,Rx,0,8,20,7D,84,78,17,00,0F,84,
5641226,0CFE6CEE,true,Rx,0,8,00,3F,FF,C5,00,00,00,00,
5641771,18F00029,true,Rx,0,8,F0,7D,7D,FF,29,FF,FF,FF,
5642336,18FEC1EE,true,Rx,0,8,E4,31,A2,06,E8,3E,01,00,
5652588,18FEF000,true,Rx,0,8,FF,FF,FF,90,1A,F0,CC,FF,
5655792,18EBFF00,true,Rx,0,8,05,1F,02,9A,0C,0F,28,9A,
5656600,18FD3E00,true,Rx,0,8,FF,FE,FF,FF,FE,FF,FF,FF,
5657667,0CF00400,true,Rx,0,8,30,7D,84,71,17,00,0F,85,
5677044,18FEF100,true,Rx,0,8,F4,00,00,50,00,00,00,00,
5678019,0CF00400,true,Rx,0,8,30,7D,84,75,17,00,0F,84,
5681247,18F00F52,true,Rx,0,8,FF,FF,FF,FF,FF,7F,1F,1F,
5681592,0CF00300,true,Rx,0,8,D1,00,0D,FF,FF,FF,6B,FF,
5686498,18FFC400,true,Rx,0,8,00,00,00,00,00,F1,FF,FF,
5693783,0CFE6CEE,true,Rx,0,8,00,3F,FF,C5,00,00,00,00,
5693788,18FEE6EE,true,Rx,0,8,DC,35,0F,07,57,27,70,7A,
5696415,18FEF200,true,Rx,0,8,27,00,00,00,15,03,FF,FF,
5697932,0CF00400,true,Rx,0,8,30,7D,84,7A,17,00,0F,84,
5708248,18EBFF00,true,Rx,0,8,06,0C,04,02,54,00,09,08,
5717453,0CF00400,true,Rx,0,8,20,7D,84,7F,17,00,0F,84,
5721422,18F00100,true,Rx,0,8,FF,FF,FF,FF,00,FF,FF,FF,
5733202,18F00F52,true,Rx,0,8,FF,FF,FF,FF,FF,7F,1F,1F,
5733207,0CF00300,true,Rx,0,8,D1,00,0D,FF,FF,FF,6B,FF,
5737737,0CF00400,true,Rx,0,8,20,7D,84,72,17,00,0F,84,
5741362,0CFE6CEE,true,Rx,0,8,00,3F,FF,C5,00,00,00,00,
5741907,18F00029,true,Rx,0,8,F0,7D,7D,FF,29,FF,FF,FF,
5753319,18FEF000,true,Rx,0,8,FF,FF,FF,90,1A,F0,CC,FF,
5757460,0CF00400,true,Rx,0,8,30,7D,84,76,17,00,0F,84,
5761840,18EBFF00,true,Rx,0,8,07,57,06,09,08,54,00,02,
5776944,18FEF100,true,Rx,0,8,F4,00,00,50,00,00,00,00,
5778010,0CF00400,true,Rx,0,8,20,7D,84,7F,17,00,0F,84,
5781199,18F00F52,true,Rx,0,8,FF,FF,FF,FF,FF,7F,1F,1F,
5781963,0CF00300,true,Rx,0,8,D1,00,0D,FF,FF,FF,6B,FF,
5794359,0CFE6CEE,true,Rx,0,8,00,3F,FF,C5,00,00,00,00,
5796412,18FEF200,true,Rx,0,8,1D,00,00,00,15,03,FF,FF,
5797727,0CF00400,true,Rx,0,8,20,7D,84,70,17,00,0F,84,
5804161,18FFC33D,true,Rx,0,8,00,00,00,00,31,00,00,C2,
5817491,0CF00400,true,Rx,0,8,30,7D,84,67,17,00,0F,85,
5818299,18EBFF00,true,Rx,0,8,08,0E,FF,FF,FF,FF,FF,FF,
5818840,18ECFF00,true,Rx,0,8,20,22,00,05,FF,E3,FE,00,
5821454,18F00100,true,Rx,0,8,FF,FF,FF,FF,00,FF,FF,FF,
5831219,18F00F52,true,Rx,0,8,FF,FF,FF,FF,FF,7F,1F,1F,
5833857,0CF00300,true,Rx,0,8,D1,00,0D,FF,FF,FF,6B,FF,
5837700,0CF00400,true,Rx,0,8,30,7D,84,6B,17,00,0F,84,
5841313,0CFE6CEE,true,Rx,0,8,00,3F,FF,C5,00,00,00,00,
5841859,18F00029,true,Rx,0,8,F0,7D,7D,FF,29,FF,FF,FF,
5854147,18FEF000,true,Rx,0,8,FF,FF,FF,90,1A,F0,CC,FF,
5857607,0CF00400,true,Rx,0,8,30,7D,84,71,17,00,0F,84,
5874080,1CDEEE17,true,Rx,0,8,0F,FF,03,00,00,00,00,00,
5876006,18EBFF00,true,Rx,0,8,01,70,17,B2,68,42,CB,00,
5876809,18E8FF00,true,Rx,0,8,00,FF,FF,FF,FF,00,DE,00,
5877364,18FEF100,true,Rx,0,8,F4,00,00,50,00,00,00,00,
5878168,0CF00400,true,Rx,0,8,20,7D,84,76,17,00,0F,84,
5881154,18F00F52,true,Rx,0,8,FF,FF,FF,FF,FF,7F,1F,1F,
5881805,0CF00300,true,Rx,0,8,D1,00,0D,FF,FF,FF,6B,FF,
5882163,1CE8FFEE,true,Rx,0,8,00,FF,FF,FF,FF,00,DE,00,
5886537,18FEDF00,true,Rx,0,8,85,80,25,7D,FB,FF,FF,F3,
5887091,18FFC400,true,Rx,0,8,00,00,00,00,00,F1,FF,FF,
5891240,0CFE6CEE,true,Rx,0,8,00,3F,FF,C5,00,00,00,00,
5896360,18FEF200,true,Rx,0,8,26,00,00,00,15,03,FF,FF,
5897680,0CF00400,true,Rx,0,8,30,7D,84,68,17,00,0F,85,
5917585,0CF00400,true,Rx,0,8,30,7D,84,6B,17,00,0F,84,
5921473,18F00100,true,Rx,0,8,FF,FF,FF,FF,00,FF,FF,FF,
5928435,18EBFF00,true,Rx,0,8,02,19,B9,80,25,E0,C0,2B,
5931024,0CFD0F52,true,Rx,0,8,AC,2D,CB,03,7D,FF,FF,FF,
5931580,0CF00300,true,Rx,0,8,D1,00,0D,FF,FF,FF,6B,FF,
5934528,18F00F52,true,Rx,0,8,FF,FF,FF,FF,FF,7F,1F,1F,
5938029,0CF00400,true,Rx,0,8,30,7D,84,73,17,00,0F,84,
5941410,0CFE6CEE,true,Rx,0,8,00,3F,FF,C5,00,00,00,00,
5941963,18F00029,true,Rx,0,8,F0,7D,7D,FF,29,FF,FF,FF,
5951462,18FEF000,true,Rx,0,8,FF,FF,FF,90,1A,F0,CC,FF,
5957649,0CF00400,true,Rx,0,8,30,7D,84,65,17,00,0F,84,
5976771,18FEF100,true,Rx,0,8,F4,00,00,50,00,00,00,00,
5977941,0CF00400,true,Rx,0,8,30,7D,84,5B,17,00,0F,85,
5981042,18F00F52,true,Rx,0,8,FF,FF,FF,FF,FF,7F,1F,1F,
5981594,0CF00300,true,Rx,0,8,D1,00,0D,FF,FF,FF,6B,FF,
5982410,18EBFF00,true,Rx,0,8,03,E0,D8,4A,FF,FF,EF,06,
5991344,0CFE6CEE,true,Rx,0,8,00,3F,FF,C5,00,00,00,00,
5996473,18FEF200,true,Rx,0,8,26,00,00,00,16,03,FF,FF,
5997565,0CF00400,true,Rx,0,8,40,7D,84,5F,17,00,0F,85,
6005113,18FFC33D,true,Rx,0,8,00,00,00,00,31,00,00,C2,
6017546,0CF00400,true,Rx,0,8,40,7D,84,64,17,00,0F,85,
6021501,18F00100,true,Rx,0,8,FF,FF,FF,FF,00,FF,FF,FF,
6031169,18F00F52,true,Rx,0,8,FF,FF,FF,FF,FF,7F,1F,1F,
6031724,0CF00300,true,Rx,0,8,D1,00,0D,FF,FF,FF,6B,FF,
6037817,0CF00400,true,Rx,0,8,30,7D,84,6A,17,00,0F,84,
6038382,18EBFF00,true,Rx,0,8,04,20,4E,3C,3C,F0,7D,E0,
6041248,0CFE6CEE,true,Rx,0,8,00,3F,FF,C5,00,00,00,00,
6041793,18F00029,true,Rx,0,8,F0,7D,7D,FF,29,FF,FF,FF,
6051551,18FEF000,true,Rx,0,8,FF,FF,FF,90,1A,F0,CC,FF,
6057526,0CF00400,true,Rx,0,8,40,7D,84,5E,17,00,0F,85,
6076937,18FEF100,true,Rx,0,8,F4,00,00,50,00,00,00,00,
6078003,0CF00400,true,Rx,0,8,40,7D,84,67,17,00,0F,85,
6081102,18F00F52,true,Rx,0,8,FF,FF,FF,FF,FF,7F,1F,1F,
6081659,0CF00300,true,Rx,0,8,D1,00,0D,FF,FF,FF,6B,FF,
6086539,18FFC400,true,Rx,0,8,00,00,00,00,00,F1,FF,FF,
6091243,0CFE6CEE,true,Rx,0,8,00,3F,FF,C5,00,00,00,00,
6096192,18EBFF00,true,Rx,0,8,05,D8,4A,AF,00,FF,FF,FF,
6096573,18FEF200,true,Rx,0,8,27,00,00,00,15,03,FF,FF,
6097737,0CF00400,true,Rx,0,8,30,7D,84,76,17,00,0F,84,
6111533,18FEEF00,true,Rx,0,8,FF,FF,FF,FE,FF,FF,FF,FA,
6117696,0CF00400,true,Rx,0,8,30,7D,84,6B,17,00,0F,84,
6121302,18F00100,true,Rx,0,8,FF,FF,FF,FF,00,FF,FF,FF,
6131062,18F00F52,true,Rx,0,8,FF,FF,FF,FF,FF,7F,1F,1F,
6131616,0CF00300,true,Rx,0,8,D1,00,0D,FF,FF,FF,6B,FF,
6132422,18FEF600,true,Rx,0,8,FF,00,55,FF,FF,FF,FF,FF,
6137772,0CF00400,true,Rx,0,8,40,7D,84,66,17,00,0F,85,
6141411,0CFE6CEE,true,Rx,0,8,00,3F,FF,C5,00,00,00,00,
6141958,18F00029,true,Rx,0,8,F0,7D,7D,FF,29,FF,FF,FF,
6146587,18FEDF00,true,Rx,0,8,85,80,25,7D,FB,FF,FF,F3,
6151499,18FEF000,true,Rx,0,8,FF,FF,FF,90,1A,F0,CC,FF,
6156420,18FEF700,true,Rx,0,8,FF,FF,FF,FF,26,02,FF,FF,
6156972,18FD3E00,true,Rx,0,8,FF,FE,FF,FF,FE,FF,FF,FF,
6157777,0CF00400,true,Rx,0,8,40,7D,84,6C,17,00,0F,85,
6176991,18FEF100,true,Rx,0,8,F4,00,00,50,00,00,00,00,
6177546,18FEEE00,true,Rx,0,8,73,FF,FF,FF,FF,FF,FF,FF,
6178097,0CF00400,true,Rx,0,8,40,7D,84,73,17,00,0F,85,
6181213,18F00F52,true,Rx,0,8,FF,FF,FF,FF,FF,7F,1F,1F,
6181760,0CF00300,true,Rx,0,8,D1,00,0D,FF,FF,FF,6B,FF,
6191369,0CFE6CEE,true,Rx,0,8,00,3F,FF,C5,00,00,00,00,
6196834,18FEF200,true,Rx,0,8,1D,00,00,00,15,03,FF,FF,
6197782,0CF00400,true,Rx,0,8,30,7D,84,7A,17,00,0F,84,
6201513,18FEE400,true,Rx,0,8,FF,3F,FD,FC,FF,3F,FF,FF,
6206229,18FFC33D,true,Rx,0,8,00,00,00,00,31,00,00,C2,
6217637,0CF00400,true,Rx,0,8,30,7D,84,70,17,00,0F,85,
6221516,18F00100,true,Rx,0,8,FF,FF,FF,FF,00,FF,FF,FF,
6222123,18FEBD00,true,Rx,0,8,00,F0,FF,FF,FF,FF,FF,FF,
6231226,18F00F52,true,Rx,0,8,FF,FF,FF,FF,FF,7F,1F,1F,
6231772,0CF00300,true,Rx,0,8,D1,00,0D,FF,FF,FF,6B,FF,
6237739,0CF00400,true,Rx,0,8,30,7D,84,7A,17,00,0F,85,
6239052,18FFC13D,true,Rx,0,8,46,FF,FF,FF,FF,FF,FF,FF,
6241410,0CFE6CEE,true,Rx,0,8,00,3F,FF,C5,00,00,00,00,
6241963,18F00029,true,Rx,0,8,F0,7D,7D,FF,29,FF,FF,FF,
6246590,18E0FF00,true,Rx,0,8,00,FF,FF,FF,FF,FF,FF,FF,
6251496,18FEF000,true,Rx,0,8,FF,FF,FF,90,1A,F0,CC,FF,
6257619,0CF00400,true,Rx,0,8,30,7D,84,88,17,00,0F,84,
6271470,18FEF500,true,Rx,0,8,BF,FF,FF,FF,FF,FF,FF,FF,
6276999,18FEF100,true,Rx,0,8,F4,00,00,50,00,00,00,00,
6278077,0CF00400,true,Rx,0,8,20,7D,84,7D,17,00,0F,84,
6281196,18F00F52,true,Rx,0,8,FF,FF,FF,FF,FF,7F,1F,1F,
6281745,0CF00300,true,Rx,0,8,D1,00,0D,FF,FF,FF,6B,FF,
6286498,18FFC400,true,Rx,0,8,00,00,00,00,00,F1,FF,FF,
6291426,0CFE6CEE,true,Rx,0,8,00,3F,FF,C5,00,00,00,00,
6292093,1885FF00,true,Rx,0,8,FF,FF,FF,FF,FF,FF,FF,FF,
6297819,18FEF200,true,Rx,0,8,27,00,00,00,16,03,FF,FF,
6297824,0CF00400,true,Rx,0,8,30,7D,84,76,17,00,0F,85,
6311688,18FF0A00,true,Rx,0,8,EF,FF,FF,FF,FF,FF,FF,FF,
6317784,0CF00400,true,Rx,0,8,30,7D,84,7A,17,00,0F,84,
6321355,18F00100,true,Rx,0,8,FF,FF,FF,FF,00,FF,FF,FF,
6331201,18F00F52,true,Rx,0,8,FF,FF,FF,FF,FF,7F,1F,1F,
6331753,0CF00300,true,Rx,0,8,D1,00,0D,FF,FF,FF,6B,FF,
6337448,18FDE500,true,Rx,0,8,FF,FF,FF,FF,FF,FF,FF,FB,
6337827,0CF00400,true,Rx,0,8,30,7D,84,7E,17,00,0F,84,
6341211,0CFE6CEE,true,Rx,0,8,00,3F,FF,C5,00,00,00,00,
6342016,18F00029,true,Rx,0,8,F0,7D,7D,FF,29,FF,FF,FF,
6351533,18FEF000,true,Rx,0,8,FF,FF,FF,90,1A,F0,CC,FF,
6357139,18FE5600,true,Rx,0,8,A1,3E,FF,FF,1F,FF,FF,FF,
6357533,0CF00400,true,Rx,0,8,20,7D,84,84,17,00,0F,84,
6377647,18FEF100,true,Rx,0,8,F4,00,00,50,00,00,00,00,
6378056,0CF00400,true,Rx,0,8,20,7D,84,76,17,00,0F,84,
6381189,18F00F52,true,Rx,0,8,FF,FF,FF,FF,FF,7F,1F,1F,
6381738,0CF00300,true,Rx,0,8,D1,00,0D,FF,FF,FF,6B,FF,
6382299,18ECFF00,true,Rx,0,8,20,32,00,08,FF,CA,FE,00,
6391335,0CFE6CEE,true,Rx,0,8,00,3F,FF,C5,00,00,00,00,
6398272,18FEF200,true,Rx,0,8,27,00,00,00,15,03,FF,FF,
6398277,0CF00400,true,Rx,0,8,20,7D,84,7B,17,00,0F,84,
6401506,18FEC100,true,Rx,0,8,C9,0E,42,04,1B,20,42,04,
6406413,18FEDF00,true,Rx,0,8,85,80,25,7D,FB,FF,FF,F3,
6407226,18FFC33D,true,Rx,0,8,00,00,00,00,31,00,00,C2,
6417588,0CF00400,true,Rx,0,8,20,7D,84,82,17,00,0F,84,
6421395,18F00100,true,Rx,0,8,FF,FF,FF,FF,00,FF,FF,FF,
6431123,18F00F52,true,Rx,0,8,FF,FF,FF,FF,FF,7F,1F,1F,
6431681,0CF00300,true,Rx,0,8,D1,00,0D,FF,FF,FF,6B,FF,
6437926,18EBFF00,true,Rx,0,8,01,47,FF,61,00,03,7E,64,
6437931,0CF00400,true,Rx,0,8,20,7D,84,73,17,00,0F,84,
6441413,0CFE6CEE,true,Rx,0,8,00,3F,FF,C5,00,00,00,00,
6441958,18F00029,true,Rx,0,8,F0,7D,7D,FF,29,FF,FF,FF,
6451564,18FEF000,true,Rx,0,8,FF,FF,FF,90,1A,F0,CC,FF,
6458385,0CF00400,true,Rx,0,8,30,7D,84,6A,17,00,0F,85,
6478719,18FEF100,true,Rx,0,8,F4,00,00,50,00,00,00,00,
6478725,0CF00400,true,Rx,0,8,30,7D,84,6C,17,00,0F,84,
6481105,18F00F52,true,Rx,0,8,FF,FF,FF,FF,FF,7F,1F,1F,
6481661,0CF00300,true,Rx,0,8,D1,00,0D,FF,FF,FF,6B,FF,
6486551,18FFC400,true,Rx,0,8,00,00,00,00,00,F1,FF,FF,
6488643,18EBFF00,true,Rx,0,8,02,00,02,04,33,04,03,7E,
6491245,0CFE6CEE,true,Rx,0,8,00,3F,FF,C5,00,00,00,00,
6499421,18FEF200,true,Rx,0,8,26,00,00,00,15,03,FF,FF,
6499426,0CF00400,true,Rx,0,8,30,7D,84,70,17,00,0F,84,
6518675,0CF00400,true,Rx,0,8,20,7D,84,74,17,00,0F,84,
6521435,18F00100,true,Rx,0,8,FF,FF,FF,FF,00,FF,FF,FF,
6531183,18F00F52,true,Rx,0,8,FF,FF,FF,FF,FF,7F,1F,1F,
6531732,0CF00300,true,Rx,0,8,D1,00,0D,FF,FF,FF,6B,FF,
6538589,0CF00400,true,Rx,0,8,30,7D,84,66,17,00,0F,85,
6541306,0CFE6CEE,true,Rx,0,8,00,3F,FF,C5,00,00,00,00,
6541850,18F00029,true,Rx,0,8,F0,7D,7D,FF,29,FF,FF,FF,
6542409,18EBFF00,true,Rx,0,8,03,08,11,03,7E,0B,11,03,
6551495,18FEF000,true,Rx,0,8,FF,FF,FF,90,1A,F0,CC,FF,
6558834,0CF00400,true,Rx,0,8,30,7D,84,6B,17,00,0F,84,
6579083,18FEF100,true,Rx,0,8,F4,00,00,50,00,00,00,00,
6579088,0CF00400,true,Rx,0,8,30,7D,84,72,17,00,0F,84,
6581274,18F00F52,true,Rx,0,8,FF,FF,FF,FF,FF,7F,1F,1F,
6581820,0CF00300,true,Rx,0,8,D1,00,0D,FF,FF,FF,6B,FF,
6591353,0CFE6CEE,true,Rx,0,8,00,3F,FF,C5,00,00,00,00,
6596564,18FEF200,true,Rx,0,8,1C,00,00,00,15,03,FF,FF,
6602768,0CF00400,true,Rx,0,8,30,7D,84,65,17,00,0F,84,
6602774,18EBFF00,true,Rx,0,8,04,7E,A1,0D,04,7E,BA,12,
6608313,18FFC33D,true,Rx,0,8,00,00,00,00,31,00,00,C2,
6611686,18FEEF00,true,Rx,0,8,FF,FF,FF,FE,FF,FF,FF,FA,
6620204,0CF00400,true,Rx,0,8,30,7D,84,5C,17,00,0F,85,
6621403,18F00100,true,Rx,0,8,FF,FF,FF,FF,00,FF,FF,FF,
6631123,18F00F52,true,Rx,0,8,FF,FF,FF,FF,FF,7F,1F,1F,
6631681,0CF00300,true,Rx,0,8,D1,00,0D,FF,FF,FF,6B,FF,
6632234,18FEF600,true,Rx,0,8,FF,00,55,FF,FF,FF,FF,FF,
6640020,0CF00400,true,Rx,0,8,30,7D,84,5F,17,00,0F,85,
6641471,0CFE6CEE,true,Rx,0,8,00,3F,FF,C5,00,00,00,00,
6641805,18F00029,true,Rx,0,8,F0,7D,7D,FF,29,FF,FF,FF,
6642401,18FEC1EE,true,Rx,0,8,E4,31,A2,06,E8,3E,01,00,
6651617,18FEF000,true,Rx,0,8,FF,FF,FF,90,1A,F0,CC,FF,
6656010,18EBFF00,true,Rx,0,8,05,1F,02,9A,0C,0F,28,9A,
6656560,18FD3E00,true,Rx,0,8,FF,FE,FF,FF,FE,FF,FF,FF,
6659852,0CF00400,true,Rx,0,8,40,7D,84,64,17,00,0F,85,
6666412,18FEDF00,true,Rx,0,8,85,80,25,7D,FB,FF,FF,F3,
6676958,18FEF100,true,Rx,0,8,F4,00,00,50,00,00,00,00,
6679874,0CF00400,true,Rx,0,8,30,7D,84,68,17,00,0F,84,
6681046,18F00F52,true,Rx,0,8,FF,FF,FF,FF,FF,7F,1F,1F,
6681847,0CF00300,true,Rx,0,8,D1,00,0D,FF,FF,FF,6B,FF,
6686499,18FFC400,true,Rx,0,8,00,00,00,00,00,F1,FF,FF,
6691350,0CFE6CEE,true,Rx,0,8,00,3F,FF,C5,00,00,00,00,
6692029,18FEE6EE,true,Rx,0,8,E0,35,0F,07,57,27,70,7A,
6696727,18FEF200,true,Rx,0,8,26,00,00,00,16,03,FF,FF,
6703152,0CF00400,true,Rx,0,8,40,7D,84,5C,17,00,0F,85,
6708394,18EBFF00,true,Rx,0,8,06,0C,04,02,54,00,09,08,
6720684,0CF00400,true,Rx,0,8,40,7D,84,65,17,00,0F,85,
6721410,18F00100,true,Rx,0,8,FF,FF,FF,FF,00,FF,FF,FF,
6731201,18F00F52,true,Rx,0,8,FF,FF,FF,FF,FF,7F,1F,1F,
6731753,0CF00300,true,Rx,0,8,D1,00,0E,FF,FF,FF,6B,FF,
6740618,0CF00400,true,Rx,0,8,30,7D,84,72,17,00,0F,84,
6741312,0CFE6CEE,true,Rx,0,8,00,3F,FF,C5,00,00,00,00,
6741853,18F00029,true,Rx,0,8,F0,7D,7D,FF,29,FF,FF,FF,
6751611,18FEF000,true,Rx,0,8,FF,FF,FF,90,1A,F0,CC,FF,
6757542,0CF00400,true,Rx,0,8,30,7D,84,66,17,00,0F,85,
6762082,18EBFF00,true,Rx,0,8,07,57,06,09,08,54,00,02,
6776985,18FEF100,true,Rx,0,8,F4,00,00,50,00,00,00,00,
6780381,0CF00400,true,Rx,0,8,40,7D,84,5E,17,00,0F,85,
6781055,18F00F52,true,Rx,0,8,FF,FF,FF,FF,FF,7F,1F,1F,
6781852,0CF00300,true,Rx,0,8,D1,00,0D,FF,FF,FF,6B,FF,
6791394,0CFE6CEE,true,Rx,0,8,00,3F,FF,C5,00,00,00,00,
6796545,18FEF200,true,Rx,0,8,27,00,00,00,15,03,FF,FF,
6797607,0CF00400,true,Rx,0,8,40,7D,84,65,17,00,0F,85,
6809336,18FFC33D,true,Rx,0,8,00,00,00,00,31,00,00,C2,
6817552,0CF00400,true,Rx,0,8,40,7D,84,6A,17,00,0F,85,
6821554,18EBFF00,true,Rx,0,8,08,0E,FF,FF,FF,FF,FF,FF,
6821559,18F00100,true,Rx,0,8,FF,FF,FF,FF,00,FF,FF,FF,
6831183,18F00F52,true,Rx,0,8,FF,FF,FF,FF,FF,7F,1F,1F,
6831732,0CF00300,true,Rx,0,8,D1,00,0D,FF,FF,FF,6B,FF,
6837712,0CF00400,true,Rx,0,8,40,7D,84,72,17,00,0F,84,
6841850,0CFE6CEE,true,Rx,0,8,00,3F,FF,C5,00,00,00,00,
6841855,18F00029,true,Rx,0,8,F0,7D,7D,FF,29,FF,FF,FF,
6851643,18FEF000,true,Rx,0,8,FF,FF,FF,90,1A,F0,CC,FF,
6857551,0CF00400,true,Rx,0,8,40,7D,84,6A,17,00,0F,85,
6871685,1CDEEE17,true,Rx,0,8,0F,FF,03,00,00,00,00,00,
6877101,18E8FF00,true,Rx,0,8,00,FF,FF,FF,FF,00,DE,00,
6877653,18FEF100,true,Rx,0,8,F4,00,00,50,00,00,00,00,
6878208,0CF00400,true,Rx,0,8,40,7D,84,75,17,00,0F,85,
6881507,18F00F52,true,Rx,0,8,FF,FF,FF,FF,FF,7F,1F,1F,
6881917,0CF00300,true,Rx,0,8,D1,00,0D,FF,FF,FF,6B,FF,
6882263,1CE8FFEE,true,Rx,0,8,00,FF,FF,FF,FF,00,DE,00,
6886660,18FFC400,true,Rx,0,8,00,00,00,00,00,F1,FF,FF,
6891296,0CFE6CEE,true,Rx,0,8,00,3F,FF,C5,00,00,00,00,
6896458,18FEF200,true,Rx,0,8,27,00,00,00,15,03,FF,FF,
6897779,0CF00400,true,Rx,0,8,30,7D,84,82,17,00,0F,84,
6917608,0CF00400,true,Rx,0,8,30,7D,84,77,17,00,0F,84,
6922280,18F00100,true,Rx,0,8,FF,FF,FF,FF,00,FF,FF,FF,
6926538,18FEDF00,true,Rx,0,8,85,80,25,7D,FB,FF,FF,F3,
6931190,0CFD0F52,true,Rx,0,8,00,00,CB,03,7D,FF,FF,FF,
6931743,0CF00300,true,Rx,0,8,D1,00,0D,FF,FF,FF,6B,FF,
6932304,18F00F52,true,Rx,0,8,FF,FF,FF,FF,FF,7F,1F,1F,
6938002,0CF00400,true,Rx,0,8,30,7D,84,71,17,00,0F,85,
6941549,0CFE6CEE,true,Rx,0,8,00,3F,FF,C5,00,00,00,00,
6941849,18F00029,true,Rx,0,8,F0,7D,7D,FF,29,FF,FF,FF,
6951605,18FEF000,true,Rx,0,8,FF,FF,FF,90,1A,F0,CC,FF,
6957741,0CF00400,true,Rx,0,8,30,7D,84,77,17,00,0F,84,
6977038,18FEF100,true,Rx,0,8,F4,00,00,50,00,00,00,00,
6978107,0CF00400,true,Rx,0,8,30,7D,84,7C,17,00,0F,84,
6981830,18F00F52,true,Rx,0,8,FF,FF,FF,FF,FF,7F,1F,1F,
6981835,0CF00300,true,Rx,0,8,D1,00,0D,FF,FF,FF,6B,FF,
6991444,0CFE6CEE,true,Rx,0,8,00,3F,FF,C5,00,00,00,00,
6996591,18FEF200,true,Rx,0,8,1D,00,00,00,15,03,FF,FF,
6997659,0CF00400,true,Rx,0,8,30,7D,84,84,17,00,0F,84,
7010374,18FFC33D,true,Rx,0,8,00,00,00,00,31,00,00,C2,
7017792,0CF00400,true,Rx,0,8,30,7D,84,78,17,00,0F,84,
7023010,18F00100,true,Rx,0,8,FF,FF,FF,FF,00,FF,FF,FF,
7031128,18F00F52,true,Rx,0,8,FF,FF,FF,FF,FF,7F,1F,1F,
7031685,0CF00300,true,Rx,0,8,D1,00,0D,FF,FF,FF,6B,FF,
7037884,0CF00400,true,Rx,0,8,30,7D,84,80,17,00,0F,84,
7042180,0CFE6CEE,true,Rx,0,8,00,3F,FF,C5,00,00,00,00,
7042185,18F00029,true,Rx,0,8,F0,7D,7D,FF,29,FF,FF,FF,
7051569,18FEF000,true,Rx,0,8,FF,FF,FF,90,1A,F0,CC,FF,
7057604,0CF00400,true,Rx,0,8,20,7D,84,89,17,00,0F,84,
7077025,18FEF100,true,Rx,0,8,F4,00,00,50,00,00,00,00,
7078322,0CF00400,true,Rx,0,8,20,7D,84,7B,17,00,0F,84,
7083240,18F00F52,true,Rx,0,8,FF,FF,FF,FF,FF,7F,1F,1F,
7083246,0CF00300,true,Rx,0,8,D1,00,0D,FF,FF,FF,6B,FF,
7086646,18FFC400,true,Rx,0,8,00,00,00,00,00,F1,FF,FF,
7091293,0CFE6CEE,true,Rx,0,8,00,3F,FF,C5,00,00,00,00,
7096456,18FEF200,true,Rx,0,8,27,00,00,00,16,03,FF,FF,
7097778,0CF00400,true,Rx,0,8,30,7D,84,71,17,00,0F,85,
7111774,18FEEF00,true,Rx,0,8,FF,FF,FF,FE,FF,FF,FF,FA,
7117716,0CF00400,true,Rx,0,8,20,7D,84,75,17,00,0F,84,
7123807,18F00100,true,Rx,0,8,FF,FF,FF,FF,00,FF,FF,FF,
7131177,18F00F52,true,Rx,0,8,FF,FF,FF,FF,FF,7F,1F,1F,
7131755,0CF00300,true,Rx,0,8,D1,00,0D,FF,FF,FF,6B,FF,
7132381,18FEF600,true,Rx,0,8,FF,00,55,FF,FF,FF,FF,FF,
7138059,0CF00400,true,Rx,0,8,20,7D,84,79,17,00,0F,84,
7142962,0CFE6CEE,true,Rx,0,8,00,3F,FF,C5,00,00,00,00,
7142967,18F00029,true,Rx,0,8,F0,7D,7D,FF,29,FF,FF,FF,
7151560,18FEF000,true,Rx,0,8,FF,FF,FF,90,1A,F0,CC,FF,
7156476,18FEF700,true,Rx,0,8,FF,FF,FF,FF,26,02,FF,FF,
7157028,18FD3E00,true,Rx,0,8,FF,FE,FF,FF,FE,FF,FF,FF,
7157834,0CF00400,true,Rx,0,8,20,7D,84,7D,17,00,0F,84,
7177080,18FEF100,true,Rx,0,8,F4,00,00,50,00,00,00,00,
7177636,18FEEE00,true,Rx,0,8,73,FF,FF,FF,FF,FF,FF,FF,
7178189,0CF00400,true,Rx,0,8,20,7D,84,6E,17,00,0F,84,
7182957,18F00F52,true,Rx,0,8,FF,FF,FF,FF,FF,7F,1F,1F,
7182963,0CF00300,true,Rx,0,8,D1,00,0D,FF,FF,FF,6B,FF,
7186758,18FEDF00,true,Rx,0,8,85,80,25,7D,FB,FF,FF,F3,
7191529,0CFE6CEE,true,Rx,0,8,00,3F,FF,C5,00,00,00,00,
7196580,18FEF200,true,Rx,0,8,26,00,00,00,15,03,FF,FF,
7197663,0CF00400,true,Rx,0,8,20,7D,84,73,17,00,0F,84,
7204033,18FEE400,true,Rx,0,8,FF,3F,FD,FC,FF,3F,FF,FF,
7211380,18FFC33D,true,Rx,0,8,00,00,00,00,31,00,00,C2,
7217877,0CF00400,true,Rx,0,8,20,7D,84,7A,17,00,0F,84,
7223894,18F00100,true,Rx,0,8,FF,FF,FF,FF,00,FF,FF,FF,
7223899,18FEBD00,true,Rx,0,8,00,F0,FF,FF,FF,FF,FF,FF,
7231254,18F00F52,true,Rx,0,8,FF,FF,FF,FF,FF,7F,1F,1F,
7231800,0CF00300,true,Rx,0,8,D1,00,0D,FF,FF,FF,6B,FF,
7238010,0CF00400,true,Rx,0,8,20,7D,84,6A,17,00,0F,84,
7238808,18FFC13D,true,Rx,0,8,46,FF,FF,FF,FF,FF,FF,FF,
7243307,0CFE6CEE,true,Rx,0,8,00,3F,FF,C5,00,00,00,00,
7243312,18F00029,true,Rx,0,8,F0,7D,7D,FF,29,FF,FF,FF,
7246558,18E0FF00,true,Rx,0,8,00,FF,FF,FF,FF,FF,FF,FF,
7251544,18FEF000,true,Rx,0,8,FF,FF,FF,90,1A,F0,CC,FF,
7257746,0CF00400,true,Rx,0,8,30,7D,84,60,17,00,0F,85,
7271788,18FEF500,true,Rx,0,8,BF,FF,FF,FF,FF,FF,FF,FF,
7276994,18FEF100,true,Rx,0,8,F4,00,00,50,00,00,00,00,
7278259,0CF00400,true,Rx,0,8,30,7D,84,64,17,00,0F,84,
7323122,18F00F52,true,Rx,0,8,FF,FF,FF,FF,FF,7F,1F,1F,
7323158,0CF00300,true,Rx,0,8,D1,00,0D,FF,FF,FF,6B,FF,
7323163,18FFC400,true,Rx,0,8,00,00,00,00,00,F1,FF,FF,
7323168,0CFE6CEE,true,Rx,0,8,00,3F,FF,C5,00,00,00,00,
7323174,1885FF00,true,Rx,0,8,FF,FF,FF,FF,FF,FF,FF,FF,
7323179,18FEF200,true,Rx,0,8,26,00,00,00,15,03,FF,FF,
7323184,0CF00400,true,Rx,0,8,30,7D,84,68,17,00,0F,84,
7323190,18FF0A00,true,Rx,0,8,EF,FF,FF,FF,FF,FF,FF,FF,
7323195,0CF00400,true,Rx,0,8,30,7D,84,6D,17,00,0F,84,
7323201,18F00100,true,Rx,0,8,FF,FF,FF,FF,00,FF,FF,FF,
7331146,18F00F52,true,Rx,0,8,FF,FF,FF,FF,FF,7F,1F,1F,
7331719,0CF00300,true,Rx,0,8,D1,00,0D,FF,FF,FF,6B,FF,
7336756,18FDE500,true,Rx,0,8,FF,FF,FF,FF,FF,FF,FF,FB,
7338123,0CF00400,true,Rx,0,8,30,7D,84,5E,17,00,0F,85,
7341380,0CFE6CEE,true,Rx,0,8,00,3F,FF,C5,00,00,00,00,
7341927,18F00029,true,Rx,0,8,F0,7D,7D,FF,29,FF,FF,FF,
7351729,18FEF000,true,Rx,0,8,FF,FF,FF,90,1A,F0,CC,FF,
7356668,18FE5600,true,Rx,0,8,A1,3E,FF,FF,1F,FF,FF,FF,
7357735,0CF00400,true,Rx,0,8,30,7D,84,66,17,00,0F,85,
7377003,18FEF100,true,Rx,0,8,F4,00,00,50,00,00,00,00,
7378266,0CF00400,true,Rx,0,8,30,7D,84,71,17,00,0F,84,
7381053,18F00F52,true,Rx,0,8,FF,FF,FF,FF,FF,7F,1F,1F,
7381860,0CF00300,true,Rx,0,8,D1,00,0D,FF,FF,FF,6B,FF,
7382422,18ECFF00,true,Rx,0,8,20,32,00,08,FF,CA,FE,00,
7391400,0CFE6CEE,true,Rx,0,8,00,3F,FF,C5,00,00,00,00,
7396551,18FEF200,true,Rx,0,8,1D,00,00,00,16,03,FF,FF,
7397868,0CF00400,true,Rx,0,8,30,7D,84,63,17,00,0F,84,
7401499,18FEC100,true,Rx,0,8,C9,0E,42,04,1B,20,42,04,
7412402,18FFC33D,true,Rx,0,8,00,00,00,00,31,00,00,C2,
7417819,0CF00400,true,Rx,0,8,40,7D,84,5B,17,00,0F,85,
7421449,18F00100,true,Rx,0,8,FF,FF,FF,FF,00,FF,FF,FF,
7431086,18F00F52,true,Rx,0,8,FF,FF,FF,FF,FF,7F,1F,1F,
7431641,0CF00300,true,Rx,0,8,D1,00,0D,FF,FF,FF,6B,FF,
7436179,18EBFF00,true,Rx,0,8,01,47,FF,61,00,03,7E,64,
7438019,0CF00400,true,Rx,0,8,40,7D,84,60,17,00,0F,85,
7441392,0CFE6CEE,true,Rx,0,8,00,3F,FF,C5,00,00,00,00,
7441938,18F00029,true,Rx,0,8,F0,7D,7D,FF,29,FF,FF,FF,
7447190,18FEDF00,true,Rx,0,8,85,80,25,7D,FB,FF,FF,F3,
7451708,18FEF000,true,Rx,0,8,FF,FF,FF,90,1A,F0,CC,FF,
7457779,0CF00400,true,Rx,0,8,40,7D,84,65,17,00,0F,85,
7476915,18FEF100,true,Rx,0,8,F4,00,00,50,00,00,00,00,
7478250,0CF00400,true,Rx,0,8,40,7D,84,6B,17,00,0F,84,
7481099,18F00F52,true,Rx,0,8,FF,FF,FF,FF,FF,7F,1F,1F,
7481660,0CF00300,true,Rx,0,8,D1,00,0E,FF,FF,FF,6B,FF,
7487257,18FFC400,true,Rx,0,8,00,00,00,00,00,F1,FF,FF,
7488686,18EBFF00,true,Rx,0,8,02,00,02,04,33,04,03,7E,
7491545,0CFE6CEE,true,Rx,0,8,00,3F,FF,C5,00,00,00,00,
7496723,18FEF200,true,Rx,0,8,27,00,00,00,15,03,FF,FF,
7497786,0CF00400,true,Rx,0,8,40,7D,84,60,17,00,0F,85,
7517713,0CF00400,true,Rx,0,8,40,7D,84,6A,17,00,0F,85,
7521590,18F00100,true,Rx,0,8,FF,FF,FF,FF,00,FF,FF,FF,
7531074,18F00F52,true,Rx,0,8,FF,FF,FF,FF,FF,7F,1F,1F,
7531634,0CF00300,true,Rx,0,8,D1,00,0D,FF,FF,FF,6B,FF,
7537977,0CF00400,true,Rx,0,8,30,7D,84,78,17,00,0F,84,
7541516,0CFE6CEE,true,Rx,0,8,00,3F,FF,C5,00,00,00,00,
7542070,18F00029,true,Rx,0,8,F0,7D,7D,FF,29,FF,FF,FF,
7542623,18EBFF00,true,Rx,0,8,03,08,11,03,7E,0B,11,03,
7551813,18FEF000,true,Rx,0,8,FF,FF,FF,90,1A,F0,CC,FF,
7557788,0CF00400,true,Rx,0,8,30,7D,84,6D,17,00,0F,84,
7577053,18FEF100,true,Rx,0,8,F4,00,00,50,00,00,00,00,
7578111,0CF00400,true,Rx,0,8,40,7D,84,68,17,00,0F,85,
7581243,18F00F52,true,Rx,0,8,FF,FF,FF,FF,FF,7F,1F,1F,
7581789,0CF00300,true,Rx,0,8,D1,00,0D,FF,FF,FF,6B,FF,
7591494,0CFE6CEE,true,Rx,0,8,00,3F,FF,C5,00,00,00,00,
7596649,18FEF200,true,Rx,0,8,27,00,00,00,15,03,FF,FF,
7597720,0CF00400,true,Rx,0,8,40,7D,84,6F,17,00,0F,85,
7598283,18EBFF00,true,Rx,0,8,04,7E,A1,0D,04,7E,BA,12,
7611713,18FEEF00,true,Rx,0,8,FF,FF,FF,FE,FF,FF,FF,FA,
7613287,18FFC33D,true,Rx,0,8,00,00,00,00,31,00,00,C2,
7617699,0CF00400,true,Rx,0,8,40,7D,84,76,17,00,0F,85,
7621631,18F00100,true,Rx,0,8,FF,FF,FF,FF,00,FF,FF,FF,
7631115,18F00F52,true,Rx,0,8,FF,FF,FF,FF,FF,7F,1F,1F,
7631729,0CF00300,true,Rx,0,8,D1,00,0D,FF,FF,FF,6B,FF,
7632307,18FEF600,true,Rx,0,8,FF,00,55,FF,FF,FF,FF,FF,
7638006,0CF00400,true,Rx,0,8,30,7D,84,7F,17,00,0F,84,
7641354,0CFE6CEE,true,Rx,0,8,00,3F,FF,C5,00,00,00,00,
7641989,18F00029,true,Rx,0,8,F0,7D,7D,FF,29,FF,FF,FF,
7642541,18FEC1EE,true,Rx,0,8,E4,31,A2,06,E8,3E,01,00,
7651563,18FEF000,true,Rx,0,8,FF,FF,FF,90,1A,F0,CC,FF,
7656004,18EBFF00,true,Rx,0,8,05,1F,02,9A,0C,0F,28,9A,
7656800,18FD3E00,true,Rx,0,8,FF,FE,FF,FF,FE,FF,FF,FF,
7657862,0CF00400,true,Rx,0,8,30,7D,84,74,17,00,0F,85,
7677049,18FEF100,true,Rx,0,8,F4,00,00,50,00,00,00,00,
7678368,0CF00400,true,Rx,0,8,30,7D,84,7D,17,00,0F,85,
7681227,18F00F52,true,Rx,0,8,FF,FF,FF,FF,FF,7F,1F,1F,
7681773,0CF00300,true,Rx,0,8,D1,00,0D,FF,FF,FF,6B,FF,
7689311,18FFC400,true,Rx,0,8,00,00,00,00,00,F1,FF,FF,
7691578,0CFE6CEE,true,Rx,0,8,00,3F,FF,C5,00,00,00,00,
7692132,18FEE6EE,true,Rx,0,8,E4,35,0F,07,57,27,70,7A,
7696780,18FEF200,true,Rx,0,8,27,00,00,00,15,03,FF,FF,
7697849,0CF00400,true,Rx,0,8,30,7D,84,89,17,00,0F,84,
7709670,18FEDF00,true,Rx,0,8,85,80,25,7D,FB,FF,FF,F3,
7709676,18EBFF00,true,Rx,0,8,06,0C,04,02,54,00,09,08,
7717707,0CF00400,true,Rx,0,8,20,7D,84,7D,17,00,0F,84,
7721591,18F00100,true,Rx,0,8,FF,FF,FF,FF,00,FF,FF,FF,
7731213,18F00F52,true,Rx,0,8,FF,FF,FF,FF,FF,7F,1F,1F,
7731766,0CF00300,true,Rx,0,8,D1,00,0D,FF,FF,FF,6B,FF,
7738042,0CF00400,true,Rx,0,8,30,7D,84,76,17,00,0F,85,
7741427,0CFE6CEE,true,Rx,0,8,00,3F,FF,C5,00,00,00,00,
7741981,18F00029,true,Rx,0,8,F0,7D,7D,FF,29,FF,FF,FF,
7751611,18FEF000,true,Rx,0,8,FF,FF,FF,90,1A,F0,CC,FF,
7757810,0CF00400,true,Rx,0,8,30,7D,84,7A,17,00,0F,84,
7762241,18EBFF00,true,Rx,0,8,07,57,06,09,08,54,00,02,
7777180,18FEF100,true,Rx,0,8,F4,00,00,50,00,00,00,00,
7778244,0CF00400,true,Rx,0,8,30,7D,84,80,17,00,0F,84,
7781090,18F00F52,true,Rx,0,8,FF,FF,FF,FF,FF,7F,1F,1F,
7781641,0CF00300,true,Rx,0,8,D1,00,0D,FF,FF,FF,6B,FF,
7791381,0CFE6CEE,true,Rx,0,8,00,3F,FF,C5,00,00,00,00,
7796532,18FEF200,true,Rx,0,8,1D,00,00,00,16,03,FF,FF,
7797846,0CF00400,true,Rx,0,8,20,7D,84,83,17,00,0F,84,
7814332,18FFC33D,true,Rx,0,8,00,00,00,00,31,00,00,C2,
7817963,0CF00400,true,Rx,0,8,20,7D,84,75,17,00,0F,84,
7818518,18EBFF00,true,Rx,0,8,08,0E,FF,FF,FF,FF,FF,FF,
7821458,18F00100,true,Rx,0,8,FF,FF,FF,FF,00,FF,FF,FF,
7831224,18F00F52,true,Rx,0,8,FF,FF,FF,FF,FF,7F,1F,1F,
7831796,0CF00300,true,Rx,0,8,D1,00,0D,FF,FF,FF,6B,FF,
7837997,0CF00400,true,Rx,0,8,20,7D,84,7A,17,00,0F,84,
7841393,0CFE6CEE,true,Rx,0,8,00,3F,FF,C5,00,00,00,00,
7841939,18F00029,true,Rx,0,8,F0,7D,7D,FF,29,FF,FF,FF,
7851695,18FEF000,true,Rx,0,8,FF,FF,FF,90,1A,F0,CC,FF,
7857890,0CF00400,true,Rx,0,8,20,7D,84,81,17,00,0F,84,
7871864,1CDEEE17,true,Rx,0,8,0F,FF,03,00,00,00,00,00,
7877032,18E8FF00,true,Rx,0,8,00,FF,FF,FF,FF,00,DE,00,
7877590,18FEF100,true,Rx,0,8,F4,00,00,50,00,00,00,00,
7878398,0CF00400,true,Rx,0,8,20,7D,84,71,17,00,0F,84,
7881250,18F00F52,true,Rx,0,8,FF,FF,FF,FF,FF,7F,1F,1F,
7881799,0CF00300,true,Rx,0,8,D1,00,0D,FF,FF,FF,6B,FF,
7882365,1CE8FFEE,true,Rx,0,8,00,FF,FF,FF,FF,00,DE,00,
7886746,18FFC400,true,Rx,0,8,00,00,00,00,00,F1,FF,FF,
8141535,0CFE6CEE,true,Rx,0,8,00,3F,FF,C5,00,00,00,00,
8141540,18FEF200,true,Rx,0,8,26,00,00,00,15,03,FF,FF,
8141546,0CF00400,true,Rx,0,8,30,7D,84,67,17,00,0F,85,
8141551,0CF00400,true,Rx,0,8,30,7D,84,6B,17,00,0F,84,
8141556,18F00100,true,Rx,0,8,FF,FF,FF,FF,00,FF,FF,FF,
8141562,0CFD0F52,true,Rx,0,8,E4,25,CB,03,7D,FF,FF,FF,
8141567,0CF00300,true,Rx,0,8,D1,00,0D,FF,FF,FF,6B,FF,
8141572,18F00F52,true,Rx,0,8,FF,FF,FF,FF,FF,7F,1F,1F,
8141578,0CF00400,true,Rx,0,8,30,7D,84,71,17,00,0F,84,
8141583,0CFE6CEE,true,Rx,0,8,00,3F,FF,C5,00,00,00,00,
8141588,18F00029,true,Rx,0,8,F0,7D,7D,FF,29,FF,FF,FF,
8141593,18FEF000,true,Rx,0,8,FF,FF,FF,90,1A,F0,CC,FF,
8141599,0CF00400,true,Rx,0,8,20,7D,84,74,17,00,0F,84,
8141604,18FEDF00,true,Rx,0,8,85,80,25,7D,FB,FF,FF,F3,
8141609,18FEF100,true,Rx,0,8,F4,00,00,50,00,00,00,00,
8141615,0CF00400,true,Rx,0,8,30,7D,84,67,17,00,0F,85,
8141620,18F00F52,true,Rx,0,8,FF,FF,FF,FF,FF,7F,1F,1F,
8141625,0CF00300,true,Rx,0,8,D1,00,0D,FF,FF,FF,6B,FF,
8141631,0CFE6CEE,true,Rx,0,8,00,3F,FF,C5,00,00,00,00,
8141636,18FEF200,true,Rx,0,8,26,00,00,00,15,03,FF,FF,
8141641,0CF00400,true,Rx,0,8,30,7D,84,6C,17,00,0F,84,
8141647,18FFC33D,true,Rx,0,8,00,00,00,00,31,00,00,C2,
8141652,0CF00400,true,Rx,0,8,30,7D,84,74,17,00,0F,84,
8141658,18F00100,true,Rx,0,8,FF,FF,FF,FF,00,FF,FF,FF,
8141663,18F00F52,true,Rx,0,8,FF,FF,FF,FF,FF,7F,1F,1F,
8141668,0CF00300,true,Rx,0,8,D1,00,0D,FF,FF,FF,6B,FF,
8141673,0CF00400,true,Rx,0,8,30,7D,84,65,17,00,0F,84,
8141679,0CFE6CEE,true,Rx,0,8,00,3F,FF,C5,00,00,00,00,
8141684,18F00029,true,Rx,0,8,F0,7D,7D,FF,29,FF,FF,FF,
8141690,18FEF000,true,Rx,0,8,FF,FF,FF,90,1A,F0,CC,FF,
8141695,0CF00400,true,Rx,0,8,30,7D,84,5B,17,00,0F,85,
8141700,18FEF100,true,Rx,0,8,F4,00,00,50,00,00,00,00,
8141706,0CF00400,true,Rx,0,8,30,7D,84,5E,17,00,0F,85,
8141711,18F00F52,true,Rx,0,8,FF,FF,FF,FF,FF,7F,1F,1F,
8141716,0CF00300,true,Rx,0,8,D1,00,0D,FF,FF,FF,6B,FF,
8141722,18FFC400,true,Rx,0,8,00,00,00,00,00,F1,FF,FF,
8141727,0CFE6CEE,true,Rx,0,8,00,3F,FF,C5,00,00,00,00,
8141732,18FEF200,true,Rx,0,8,26,00,00,00,15,03,FF,FF,
8141738,0CF00400,true,Rx,0,8,40,7D,84,63,17,00,0F,85,
8141743,18FEEF00,true,Rx,0,8,FF,FF,FF,FE,FF,FF,FF,FA,
8141748,0CF00400,true,Rx,0,8,30,7D,84,67,17,00,0F,84,
8141754,18F00100,true,Rx,0,8,FF,FF,FF,FF,00,FF,FF,FF,
8141760,18F00F52,true,Rx,0,8,FF,FF,FF,FF,FF,7F,1F,1F,
8141765,0CF00300,true,Rx,0,8,D1,00,0D,FF,FF,FF,6B,FF,
8141770,18FEF600,true,Rx,0,8,FF,00,55,FF,FF,FF,FF,FF,
8141776,0CF00400,true,Rx,0,8,40,7D,84,5B,17,00,0F,85,
8141781,0CFE6CEE,true,Rx,0,8,00,3F,FF,C5,00,00,00,00,
8145120,18F00029,true,Rx,0,8,F0,7D,7D,FF,29,FF,FF,FF,
8151736,18FEF000,true,Rx,0,8,FF,FF,FF,90,1A,F0,CC,FF,
8156685,18FEF700,true,Rx,0,8,FF,FF,FF,FF,27,02,FF,FF,
8157240,18FD3E00,true,Rx,0,8,FF,FE,FF,FF,FE,FF,FF,FF,
8157785,0CF00400,true,Rx,0,8,40,7D,84,64,17,00,0F,85,
8177145,18FEF100,true,Rx,0,8,F4,00,00,50,00,00,00,00,
8177700,18FEEE00,true,Rx,0,8,73,FF,FF,FF,FF,FF,FF,FF,
8178255,0CF00400,true,Rx,0,8,40,7D,84,71,17,00,0F,84,
8181099,18F00F52,true,Rx,0,8,FF,FF,FF,FF,FF,7F,1F,1F,
8181653,0CF00300,true,Rx,0,8,D1,00,0E,FF,FF,FF,6B,FF,
8191592,0CFE6CEE,true,Rx,0,8,00,3F,FF,C5,00,00,00,00,
8196779,18FEF200,true,Rx,0,8,1D,00,00,00,16,03,FF,FF,
8197929,0CF00400,true,Rx,0,8,30,7D,84,63,17,00,0F,85,
8201657,18FEE400,true,Rx,0,8,FF,3F,FD,FC,FF,3F,FF,FF,
8216302,18FFC33D,true,Rx,0,8,00,00,00,00,31,00,00,C2,
8217873,0CF00400,true,Rx,0,8,40,7D,84,5E,17,00,0F,85,
8221750,18F00100,true,Rx,0,8,FF,FF,FF,FF,00,FF,FF,FF,
8222309,18FEBD00,true,Rx,0,8,00,F0,FF,FF,FF,FF,FF,FF,
8226710,18FEDF00,true,Rx,0,8,85,80,25,7D,FB,FF,FF,F3,
8231254,18F00F52,true,Rx,0,8,FF,FF,FF,FF,FF,7F,1F,1F,
8231799,0CF00300,true,Rx,0,8,D1,00,0E,FF,FF,FF,6B,FF,
8238190,0CF00400,true,Rx,0,8,40,7D,84,64,17,00,0F,85,
8240320,18FFC13D,true,Rx,0,8,46,FF,FF,FF,FF,FF,FF,FF,
8241389,0CFE6CEE,true,Rx,0,8,00,3F,FF,C5,00,00,00,00,
8242195,18F00029,true,Rx,0,8,F0,7D,7D,FF,29,FF,FF,FF,
8247595,18E0FF00,true,Rx,0,8,00,FF,FF,FF,FF,FF,FF,FF,
8251801,18FEF000,true,Rx,0,8,FF,FF,FF,90,1A,F0,CC,FF,
8257883,0CF00400,true,Rx,0,8,40,7D,84,6C,17,00,0F,85,
8271705,18FEF500,true,Rx,0,8,BF,FF,FF,FF,FF,FF,FF,FF,
8277127,18FEF100,true,Rx,0,8,F4,00,00,50,00,00,00,00,
8278459,0CF00400,true,Rx,0,8,40,7D,84,72,17,00,0F,84,
8281304,18F00F52,true,Rx,0,8,FF,FF,FF,FF,FF,7F,1F,1F,
8281846,0CF00300,true,Rx,0,8,D1,00,0D,FF,FF,FF,6B,FF,
8286784,18FFC400,true,Rx,0,8,00,00,00,00,00,F1,FF,FF,
8291562,0CFE6CEE,true,Rx,0,8,00,3F,FF,C5,00,00,00,00,
8292109,1885FF00,true,Rx,0,8,FF,FF,FF,FF,FF,FF,FF,FF,
8296759,18FEF200,true,Rx,0,8,27,00,00,00,15,03,FF,FF,
8297821,0CF00400,true,Rx,0,8,40,7D,84,67,17,00,0F,85,
8311708,18FF0A00,true,Rx,0,8,EF,FF,FF,FF,FF,FF,FF,FF,
8317896,0CF00400,true,Rx,0,8,40,7D,84,71,17,00,0F,85,
8321524,18F00100,true,Rx,0,8,FF,FF,FF,FF,00,FF,FF,FF,
8331326,18F00F52,true,Rx,0,8,FF,FF,FF,FF,FF,7F,1F,1F,
8331872,0CF00300,true,Rx,0,8,D1,00,0D,FF,FF,FF,6B,FF,
8337059,18FDE500,true,Rx,0,8,FF,FF,FF,FF,FF,FF,FF,FB,
8338163,0CF00400,true,Rx,0,8,30,7D,84,7F,17,00,0F,84,
8341485,0CFE6CEE,true,Rx,0,8,00,3F,FF,C5,00,00,00,00,
8342037,18F00029,true,Rx,0,8,F0,7D,7D,FF,29,FF,FF,FF,
8351668,18FEF000,true,Rx,0,8,FF,FF,FF,90,1A,F0,CC,FF,
8356562,18FE5600,true,Rx,0,8,A1,3E,FF,FF,1F,FF,FF,FF,
8357883,0CF00400,true,Rx,0,8,30,7D,84,72,17,00,0F,84,
8376987,18FEF100,true,Rx,0,8,F4,00,00,50,00,00,00,00,
8378349,0CF00400,true,Rx,0,8,40,7D,84,6A,17,00,0F,85,
8381211,18F00F52,true,Rx,0,8,FF,FF,FF,FF,FF,7F,1F,1F,
8381757,0CF00300,true,Rx,0,8,D1,00,0D,FF,FF,FF,6B,FF,
8382315,18ECFF00,true,Rx,0,8,20,32,00,08,FF,CA,FE,00,
8391515,0CFE6CEE,true,Rx,0,8,00,3F,FF,C5,00,00,00,00,
8396710,18FEF200,true,Rx,0,8,27,00,00,00,15,03,FF,FF,
8397767,0CF00400,true,Rx,0,8,40,7D,84,6F,17,00,0F,85,
8401671,18FEC100,true,Rx,0,8,C9,0E,42,04,1B,20,42,04,
8417467,18FFC33D,true,Rx,0,8,00,00,00,00,31,00,00,C2,
8418019,0CF00400,true,Rx,0,8,40,7D,84,74,17,00,0F,85,
8421649,18F00100,true,Rx,0,8,FF,FF,FF,FF,00,FF,FF,FF,
8431328,18F00F52,true,Rx,0,8,FF,FF,FF,FF,FF,7F,1F,1F,
8431874,0CF00300,true,Rx,0,8,D1,00,0D,FF,FF,FF,6B,FF,
8436141,18EBFF00,true,Rx,0,8,01,47,FF,61,00,03,7E,64,
8437979,0CF00400,true,Rx,0,8,30,7D,84,79,17,00,0F,84,
8441476,0CFE6CEE,true,Rx,0,8,00,3F,FF,C5,00,00,00,00,
8442146,18F00029,true,Rx,0,8,F0,7D,7D,FF,29,FF,FF,FF,
8451666,18FEF000,true,Rx,0,8,FF,FF,FF,90,1A,F0,CC,FF,
8457845,0CF00400,true,Rx,0,8,30,7D,84,6D,17,00,0F,85,
8477014,18FEF100,true,Rx,0,8,F4,00,00,50,00,00,00,00,
8478369,0CF00400,true,Rx,0,8,30,7D,84,75,17,00,0F,85,
8481226,18F00F52,true,Rx,0,8,FF,FF,FF,FF,FF,7F,1F,1F,
8481772,0CF00300,true,Rx,0,8,D1,00,0D,FF,FF,FF,6B,FF,
8487473,18FEDF00,true,Rx,0,8,85,80,25,7D,FB,FF,FF,F3,
8487478,18FFC400,true,Rx,0,8,00,00,00,00,00,F1,FF,FF,
8488686,18EBFF00,true,Rx,0,8,02,00,02,04,33,04,03,7E,
8491542,0CFE6CEE,true,Rx,0,8,00,3F,FF,C5,00,00,00,00,
8496725,18FEF200,true,Rx,0,8,27,00,00,00,16,03,FF,FF,
8497788,0CF00400,true,Rx,0,8,30,7D,84,80,17,00,0F,84,
8517919,0CF00400,true,Rx,0,8,30,7D,84,73,17,00,0F,84,
8521536,18F00100,true,Rx,0,8,FF,FF,FF,FF,00,FF,FF,FF,
8531250,18F00F52,true,Rx,0,8,FF,FF,FF,FF,FF,7F,1F,1F,
8531796,0CF00300,true,Rx,0,8,D1,00,0D,FF,FF,FF,6B,FF,
8538018,0CF00400,true,Rx,0,8,30,7D,84,6B,17,00,0F,85,
8541644,0CFE6CEE,true,Rx,0,8,00,3F,FF,C5,00,00,00,00,
8542190,18F00029,true,Rx,0,8,F0,7D,7D,FF,29,FF,FF,FF,
8542743,18EBFF00,true,Rx,0,8,03,08,11,03,7E,0B,11,03,
8551708,18FEF000,true,Rx,0,8,FF,FF,FF,90,1A,F0,CC,FF,
8557833,0CF00400,true,Rx,0,8,30,7D,84,70,17,00,0F,84,
8577068,18FEF100,true,Rx,0,8,F4,00,00,50,00,00,00,00,
8578406,0CF00400,true,Rx,0,8,30,7D,84,76,17,00,0F,84,
8581263,18F00F52,true,Rx,0,8,FF,FF,FF,FF,FF,7F,1F,1F,
8581808,0CF00300,true,Rx,0,8,D1,00,0D,FF,FF,FF,6B,FF,
8591469,0CFE6CEE,true,Rx,0,8,00,3F,FF,C5,00,00,00,00,
8596635,18FEF200,true,Rx,0,8,1D,00,00,00,15,03,FF,FF,
8597958,0CF00400,true,Rx,0,8,30,7D,84,7C,17,00,0F,84,
8598512,18EBFF00,true,Rx,0,8,04,7E,A1,0D,04,7E,BA,12,
8611768,18FEEF00,true,Rx,0,8,FF,FF,FF,FE,FF,FF,FF,FA,
8617967,0CF00400,true,Rx,0,8,30,7D,84,6F,17,00,0F,85,
8618517,18FFC33D,true,Rx,0,8,00,00,00,00,31,00,00,C2,
8621633,18F00100,true,Rx,0,8,FF,FF,FF,FF,00,FF,FF,FF,
8631151,18F00F52,true,Rx,0,8,FF,FF,FF,FF,FF,7F,1F,1F,
8631702,0CF00300,true,Rx,0,8,D1,00,0D,FF,FF,FF,6B,FF,
8632509,18FEF600,true,Rx,0,8,FF,00,55,FF,FF,FF,FF,FF,
8638217,0CF00400,true,Rx,0,8,30,7D,84,75,17,00,0F,85,
8641660,0CFE6CEE,true,Rx,0,8,00,3F,FF,C5,00,00,00,00,
8642214,18F00029,true,Rx,0,8,F0,7D,7D,FF,29,FF,FF,FF,
8642759,18FEC1EE,true,Rx,0,8,E4,31,A2,06,E8,3E,01,00,
8651804,18FEF000,true,Rx,0,8,FF,FF,FF,90,1A,F0,CC,FF,
8656263,18EBFF00,true,Rx,0,8,05,1F,02,9A,0C,0F,28,9A,
8656809,18FD3E00,true,Rx,0,8,FF,FE,FF,FF,FE,FF,FF,FF,
8657873,0CF00400,true,Rx,0,8,30,7D,84,7F,17,00,0F,84,
8677020,18FEF100,true,Rx,0,8,F4,00,00,50,00,00,00,00,
8678355,0CF00400,true,Rx,0,8,20,7D,84,71,17,00,0F,84,
8681213,18F00F52,true,Rx,0,8,FF,FF,FF,FF,FF,7F,1F,1F,
8681759,0CF00300,true,Rx,0,8,D1,00,0D,FF,FF,FF,6B,FF,
8688684,18FFC400,true,Rx,0,8,00,00,00,00,00,F1,FF,FF,
8691435,0CFE6CEE,true,Rx,0,8,00,3F,FF,C5,00,00,00,00,
8691987,18FEE6EE,true,Rx,0,8,E8,35,0F,07,57,27,70,7A,
8696886,18FEF200,true,Rx,0,8,26,00,00,00,15,03,FF,FF,
8697962,0CF00400,true,Rx,0,8,30,7D,84,67,17,00,0F,85,
8708783,18EBFF00,true,Rx,0,8,06,0C,04,02,54,00,09,08,
8717762,0CF00400,true,Rx,0,8,30,7D,84,6B,17,00,0F,84,
8721659,18F00100,true,Rx,0,8,FF,FF,FF,FF,00,FF,FF,FF,
8731283,18F00F52,true,Rx,0,8,FF,FF,FF,FF,FF,7F,1F,1F,
8731828,0CF00300,true,Rx,0,8,D1,00,0D,FF,FF,FF,6B,FF,
8738042,0CF00400,true,Rx,0,8,30,7D,84,70,17,00,0F,84,
8741676,0CFE6CEE,true,Rx,0,8,00,3F,FF,C5,00,00,00,00,
8742254,18F00029,true,Rx,0,8,F0,7D,7D,FF,29,FF,FF,FF,
8750917,18FEDF00,true,Rx,0,8,85,80,25,7D,FB,FF,FF,F3,
8751758,18FEF000,true,Rx,0,8,FF,FF,FF,90,1A,F0,CC,FF,
8757822,0CF00400,true,Rx,0,8,30,7D,84,75,17,00,0F,84,
8762248,18EBFF00,true,Rx,0,8,07,57,06,09,08,54,00,02,
8777039,18FEF100,true,Rx,0,8,F4,00,00,50,00,00,00,00,
8778368,0CF00400,true,Rx,0,8,30,7D,84,66,17,00,0F,85,
8781227,18F00F52,true,Rx,0,8,FF,FF,FF,FF,FF,7F,1F,1F,
8781773,0CF00300,true,Rx,0,8,D1,00,0D,FF,FF,FF,6B,FF,
8791694,0CFE6CEE,true,Rx,0,8,00,3F,FF,C5,00,00,00,00,
8796587,18FEF200,true,Rx,0,8,26,00,00,00,15,03,FF,FF,
8797909,0CF00400,true,Rx,0,8,30,7D,84,6E,17,00,0F,85,
8817813,0CF00400,true,Rx,0,8,30,7D,84,79,17,00,0F,84,
8818377,18EBFF00,true,Rx,0,8,08,0E,FF,FF,FF,FF,FF,FF,
8819447,18FFC33D,true,Rx,0,8,00,00,00,00,31,00,00,C2,
8821774,18F00100,true,Rx,0,8,FF,FF,FF,FF,00,FF,FF,FF,
8831180,18F00F52,true,Rx,0,8,FF,FF,FF,FF,FF,7F,1F,1F,
8831724,0CF00300,true,Rx,0,8,D1,00,0D,FF,FF,FF,6B,FF,
8837963,0CF00400,true,Rx,0,8,30,7D,84,6B,17,00,0F,84,
8841645,0CFE6CEE,true,Rx,0,8,00,3F,FF,C5,00,00,00,00,
8842194,18F00029,true,Rx,0,8,F0,7D,7D,FF,29,FF,FF,FF,
8852006,18FEF000,true,Rx,0,8,FF,FF,FF,90,1A,F0,CC,FF,
8857708,0CF00400,true,Rx,0,8,30,7D,84,62,17,00,0F,85,
8871736,1CDEEE17,true,Rx,0,8,0F,FF,03,00,00,00,00,00,
8877136,18E8FF00,true,Rx,0,8,00,FF,FF,FF,FF,00,DE,00,
8877694,18FEF100,true,Rx,0,8,F4,00,00,50,00,00,00,00,
8878497,0CF00400,true,Rx,0,8,30,7D,84,66,17,00,0F,85,
8881076,18F00F52,true,Rx,0,8,FF,FF,FF,FF,FF,7F,1F,1F,
8881654,0CF00300,true,Rx,0,8,D1,00,0D,FF,FF,FF,6B,FF,
8882347,1CE8FFEE,true,Rx,0,8,00,FF,FF,FF,FF,00,DE,00,
8886914,18FFC400,true,Rx,0,8,00,00,00,00,00,F1,FF,FF,
8891679,0CFE6CEE,true,Rx,0,8,00,3F,FF,C5,00,00,00,00,
8896818,18FEF200,true,Rx,0,8,26,00,00,00,16,03,FF,FF,
8897967,0CF00400,true,Rx,0,8,30,7D,84,6A,17,00,0F,85,
8917799,0CF00400,true,Rx,0,8,30,7D,84,6E,17,00,0F,84,
8921686,18F00100,true,Rx,0,8,FF,FF,FF,FF,00,FF,FF,FF,
8931347,0CFD0F52,true,Rx,0,8,00,00,CB,03,7D,FF,FF,FF,
8931893,18F00F52,true,Rx,0,8,FF,FF,FF,FF,FF,7F,1F,1F,
8932459,0CF00300,true,Rx,0,8,D1,00,0D,FF,FF,FF,6B,FF,
8938172,0CF00400,true,Rx,0,8,30,7D,84,64,17,00,0F,85,
8941538,0CFE6CEE,true,Rx,0,8,00,3F,FF,C5,00,00,00,00,
8942088,18F00029,true,Rx,0,8,F0,7D,7D,FF,29,FF,FF,FF,
8951859,18FEF000,true,Rx,0,8,FF,FF,FF,90,1A,F0,CC,FF,
8957909,0CF00400,true,Rx,0,8,30,7D,84,70,17,00,0F,85,
8977282,18FEF100,true,Rx,0,8,F4,00,00,50,00,00,00,00,
8978358,0CF00400,true,Rx,0,8,30,7D,84,7F,17,00,0F,84,
8981213,18F00F52,true,Rx,0,8,FF,FF,FF,FF,FF,7F,1F,1F,
8981759,0CF00300,true,Rx,0,8,D1,00,0D,FF,FF,FF,6B,FF,
8991657,0CFE6CEE,true,Rx,0,8,00,3F,FF,C5,00,00,00,00,
8996798,18FEF200,true,Rx,0,8,1D,00,00,00,15,03,FF,FF,
8997858,0CF00400,true,Rx,0,8,30,7D,84,76,17,00,0F,84,
9006854,18FEDF00,true,Rx,0,8,85,80,25,7D,FB,FF,FF,F3,
9017815,0CF00400,true,Rx,0,8,30,7D,84,6F,17,00,0F,85,
9020436,18FFC33D,true,Rx,0,8,00,00,00,00,31,00,00,C2,
9021745,18F00100,true,Rx,0,8,FF,FF,FF,FF,00,FF,FF,FF,
9031175,18F00F52,true,Rx,0,8,FF,FF,FF,FF,FF,7F,1F,1F,
9031738,0CF00300,true,Rx,0,8,D1,00,0D,FF,FF,FF,6B,FF,
9037967,0CF00400,true,Rx,0,8,30,7D,84,75,17,00,0F,84,
9041579,0CFE6CEE,true,Rx,0,8,00,3F,FF,C5,00,00,00,00,
9042134,18F00029,true,Rx,0,8,F0,7D,7D,FF,29,FF,FF,FF,
9051814,18FEF000,true,Rx,0,8,FF,FF,FF,90,1A,F0,CC,FF,
9057905,0CF00400,true,Rx,0,8,30,7D,84,7B,17,00,0F,84,
9077128,18FEF100,true,Rx,0,8,F4,00,00,50,00,00,00,00,
9078459,0CF00400,true,Rx,0,8,20,7D,84,80,17,00,0F,84,
9081306,18F00F52,true,Rx,0,8,FF,FF,FF,FF,FF,7F,1F,1F,
9081852,0CF00300,true,Rx,0,8,D1,00,0D,FF,FF,FF,6B,FF,
9086777,18FFC400,true,Rx,0,8,00,00,00,00,00,F1,FF,FF,
9091752,0CFE6CEE,true,Rx,0,8,00,3F,FF,C5,00,00,00,00,
9096666,18FEF200,true,Rx,0,8,27,00,00,00,15,03,FF,FF,
9097983,0CF00400,true,Rx,0,8,30,7D,84,73,17,00,0F,85,
9111794,18FEEF00,true,Rx,0,8,FF,FF,FF,FE,FF,FF,FF,FA,
9117725,0CF00400,true,Rx,0,8,30,7D,84,7A,17,00,0F,84,
9121843,18F00100,true,Rx,0,8,FF,FF,FF,FF,00,FF,FF,FF,
9131152,18F00F52,true,Rx,0,8,FF,FF,FF,FF,FF,7F,1F,1F,
9131784,0CF00300,true,Rx,0,8,D1,00,0D,FF,FF,FF,6B,FF,
9132345,18FEF600,true,Rx,0,8,FF,00,55,FF,FF,FF,FF,FF,
9138269,0CF00400,true,Rx,0,8,20,7D,84,83,17,00,0F,84,
9141640,0CFE6CEE,true,Rx,0,8,00,3F,FF,C5,00,00,00,00,
9142193,18F00029,true,Rx,0,8,F0,7D,7D,FF,29,FF,FF,FF,
9151847,18FEF000,true,Rx,0,8,FF,FF,FF,90,1A,F0,CC,FF,
9156648,18FEF700,true,Rx,0,8,FF,FF,FF,FF,28,02,FF,FF,
9157197,18FD3E00,true,Rx,0,8,FF,FE,FF,FF,FE,FF,FF,FF,
9158162,0CF00400,true,Rx,0,8,20,7D,84,76,17,00,0F,84,
9177157,18FEF100,true,Rx,0,8,F4,00,00,50,00,00,00,00,
9177710,18FEEE00,true,Rx,0,8,73,FF,FF,FF,FF,FF,FF,FF,
9178271,0CF00400,true,Rx,0,8,30,7D,84,6C,17,00,0F,85,
9181115,18F00F52,true,Rx,0,8,FF,FF,FF,FF,FF,7F,1F,1F,
9181674,0CF00300,true,Rx,0,8,D1,00,0D,FF,FF,FF,6B,FF,
9191616,0CFE6CEE,true,Rx,0,8,00,3F,FF,C5,00,00,00,00,
9196852,18FEF200,true,Rx,0,8,26,00,00,00,15,03,FF,FF,
9197922,0CF00400,true,Rx,0,8,30,7D,84,70,17,00,0F,84,
9201792,18FEE400,true,Rx,0,8,FF,3F,FD,FC,FF,3F,FF,FF,
9218009,0CF00400,true,Rx,0,8,30,7D,84,75,17,00,0F,84,
9221396,18FFC33D,true,Rx,0,8,00,00,00,00,31,00,00,C2,
9221942,18F00100,true,Rx,0,8,FF,FF,FF,FF,00,FF,FF,FF,
9222752,18FEBD00,true,Rx,0,8,00,F0,FF,FF,FF,FF,FF,FF,
9231997,18F00F52,true,Rx,0,8,FF,FF,FF,FF,FF,7F,1F,1F,
9232002,0CF00300,true,Rx,0,8,D1,00,0D,FF,FF,FF,6B,FF,
9238088,0CF00400,true,Rx,0,8,20,7D,84,79,17,00,0F,84,
9240178,18FFC13D,true,Rx,0,8,46,FF,FF,FF,FF,FF,FF,FF,
9241496,0CFE6CEE,true,Rx,0,8,00,3F,FF,C5,00,00,00,00,
9242307,18F00029,true,Rx,0,8,F0,7D,7D,FF,29,FF,FF,FF,
9246707,18E0FF00,true,Rx,0,8,00,FF,FF,FF,FF,FF,FF,FF,
9252423,18FEF000,true,Rx,0,8,FF,FF,FF,90,1A,F0,CC,FF,
9257997,0CF00400,true,Rx,0,8,30,7D,84,6B,17,00,0F,85,
9266638,18FEDF00,true,Rx,0,8,85,80,25,7D,FB,FF,FF,F3,
9272831,18FEF500,true,Rx,0,8,BF,FF,FF,FF,FF,FF,FF,FF,
9277225,18FEF100,true,Rx,0,8,F4,00,00,50,00,00,00,00,
9278551,0CF00400,true,Rx,0,8,30,7D,84,71,17,00,0F,84,
9281253,18F00F52,true,Rx,0,8,FF,FF,FF,FF,FF,7F,1F,1F,
9281799,0CF00300,true,Rx,0,8,D1,00,0D,FF,FF,FF,6B,FF,
9286884,18FFC400,true,Rx,0,8,00,00,00,00,00,F1,FF,FF,
