Time Stamp,ID,Extended,Dir,Bus,LEN,D1,D2,D3,D4,D5,D6,D7,D8
28351198,18FF3117,true,Rx,0,8,04,00,00,00,00,00,AE,80,
28351232,0CF00400,true,Rx,0,8,00,7D,7D,00,00,FF,F0,FF,
28351237,18FEC1EE,true,Rx,0,8,C4,B1,BD,00,64,A8,01,00,
28351242,18FF3B21,true,Rx,0,8,04,00,00,00,4B,00,00,FF,
28351247,18FFAA21,true,Rx,0,8,E9,00,15,59,FF,15,00,FF,
28351253,18FFAB21,true,Rx,0,8,E9,00,00,00,00,00,00,01,
28351258,18FFAC21,true,Rx,0,8,E9,00,00,00,00,00,00,00,
28351263,18FEBF0B,true,Rx,0,8,00,00,7D,7D,7D,7D,7D,7D,
28351269,0CF00400,true,Rx,0,8,00,7D,7D,00,00,FF,F0,FF,
28351274,0CFE6CEE,true,Rx,0,8,38,0F,7F,C0,00,00,00,00,
28351279,18FF3521,true,Rx,0,8,00,11,00,01,00,10,FF,00,
28351285,18FF3621,true,Rx,0,8,00,04,00,00,00,00,00,00,
28351290,18FF3117,true,Rx,0,8,04,00,00,00,00,00,AE,80,
28351295,0CF00400,true,Rx,0,8,00,7D,7D,00,00,FF,F0,FF,
28355139,18EBFFEE,true,Rx,0,8,03,31,31,37,2A,FF,FF,FF,
28355144,18FEBF0B,true,Rx,0,8,00,00,7D,7D,7D,7D,7D,7D,
28360697,0CF00400,true,Rx,0,8,00,7D,7D,00,00,FF,F0,FF,
28361727,0CFE6CEE,true,Rx,0,8,38,0F,7F,C0,00,00,00,00,
28363172,18FF3521,true,Rx,0,8,00,11,00,01,00,10,FF,00,
28363742,18FF3621,true,Rx,0,8,00,04,00,00,00,00,00,00,
28365832,18FF3117,true,Rx,0,8,04,00,00,00,00,00,AE,80,
28374639,0CF00400,true,Rx,0,8,00,7D,7D,00,00,FF,F0,FF,
28375005,18FEBF0B,true,Rx,0,8,00,00,7D,7D,7D,7D,7D,7D,
28379331,0CF00400,true,Rx,0,8,00,7D,7D,00,00,FF,F0,FF,
28381443,0CFE6CEE,true,Rx,0,8,38,0F,7F,C0,00,00,00,00,
28383055,18FDA521,true,Rx,0,4,FF,FF,FF,FF,00,00,00,00,
28383608,18FF3321,true,Rx,0,8,CD,17,88,13,00,00,00,00,
28384169,18FF3521,true,Rx,0,8,00,11,00,01,00,10,FF,00,
28384723,18FF3621,true,Rx,0,8,00,04,00,00,00,00,00,00,
28385268,18FF3821,true,Rx,0,8,FF,FF,FF,FF,F3,04,FF,FC,
28385831,18FF3117,true,Rx,0,8,14,00,00,00,00,00,A8,80,
28386446,18FF3921,true,Rx,0,8,30,5E,9E,66,4E,20,20,20,
28387090,18FFC017,true,Rx,0,8,00,FD,FF,FF,FF,FF,FF,FF,
28387763,18FF3A21,true,Rx,0,8,16,7C,09,00,38,15,00,00,
28388337,18FF3B21,true,Rx,0,8,04,00,00,00,4B,00,00,FF,
28388892,18FF3C21,true,Rx,0,8,FF,FF,38,00,00,C0,01,00,
28389445,18FF3D21,true,Rx,0,8,05,00,00,E0,FF,FF,FF,FF,
28390031,18FFAA21,true,Rx,0,8,E9,00,15,59,FF,15,00,FF,
28390579,18FFAB21,true,Rx,0,8,E9,00,00,00,00,00,00,01,
28391145,0CF00400,true,Rx,0,8,00,7D,7D,00,00,FF,F0,FF,
28391703,18FEE6EE,true,Rx,0,8,34,1B,10,07,57,27,7D,7A,
28394836,18FFAC21,true,Rx,0,8,E9,00,00,00,00,00,00,00,
28396573,18FEBF0B,true,Rx,0,8,00,00,7D,7D,7D,7D,7D,7D,
28399805,0CF00400,true,Rx,0,8,00,7D,7D,00,00,FF,F0,FF,
28401635,0CFE6CEE,true,Rx,0,8,38,0F,7F,C0,00,00,00,00,
28403203,18FF3521,true,Rx,0,8,00,11,00,01,00,10,FF,00,
28403783,18FF3621,true,Rx,0,8,00,04,00,00,00,00,00,00,
28405929,18FF3117,true,Rx,0,8,14,00,00,00,00,00,B4,80,
28409978,0CF00400,true,Rx,0,8,00,7D,7D,00,00,FF,F0,FF,
28415326,18FEBF0B,true,Rx,0,8,00,00,7D,7D,7D,7D,7D,7D,
28421492,0CFE6CEE,true,Rx,0,8,38,0F,7F,C0,00,00,00,00,
28422068,0CF00400,true,Rx,0,8,00,7D,7D,00,00,FF,F0,FF,
28423137,18FF3521,true,Rx,0,8,00,11,00,01,00,10,FF,00,
28423695,18FF3621,true,Rx,0,8,00,04,00,00,00,00,00,00,
28425910,18FF3117,true,Rx,0,8,14,00,00,00,00,00,AE,80,
28429653,0CF00400,true,Rx,0,8,00,7D,7D,00,00,FF,F0,FF,
28431513,18FECAEE,true,Rx,0,8,00,FF,00,00,00,00,FF,FF,
28435263,18FF3B21,true,Rx,0,8,04,00,00,00,4B,00,00,FF,
28435269,18FFAA21,true,Rx,0,8,E9,00,15,59,FF,15,00,FF,
28435274,18FFAB21,true,Rx,0,8,E9,00,00,00,00,00,00,01,
28435279,18FFAC21,true,Rx,0,8,E9,00,00,00,00,00,00,00,
28435632,18FEBF0B,true,Rx,0,8,00,00,7D,7D,7D,7D,7D,7D,
28440509,0CF00400,true,Rx,0,8,00,7D,7D,00,00,FF,F0,FF,
28441580,0CFE6CEE,true,Rx,0,8,38,0F,7F,C0,00,00,00,00,
28443169,18FF3521,true,Rx,0,8,00,11,00,01,00,10,FF,00,
28443723,18FF3621,true,Rx,0,8,00,04,00,00,00,00,00,00,
28445808,18FF3117,true,Rx,0,8,14,00,00,00,00,00,AE,80,
28446354,18FF50FB,true,Rx,0,8,58,00,00,00,00,00,00,01,
28449471,0CF00400,true,Rx,0,8,00,7D,7D,00,00,FF,F0,FF,
28454823,18FEBF0B,true,Rx,0,8,00,00,7D,7D,7D,7D,7D,7D,
28459981,0CF00400,true,Rx,0,8,00,7D,7D,00,00,FF,F0,FF,
28461557,0CFE6CEE,true,Rx,0,8,38,0F,7F,C0,00,00,00,00,
28463288,18FF3521,true,Rx,0,8,00,11,00,01,00,10,FF,00,
28463649,18FF3621,true,Rx,0,8,00,04,00,00,00,00,00,00,
28465896,18FF3117,true,Rx,0,8,14,00,00,00,00,00,AE,80,
28475446,0CF00400,true,Rx,0,8,00,7D,7D,00,00,FF,F0,FF,
28475451,18FEBF0B,true,Rx,0,8,00,00,7D,7D,7D,7D,7D,7D,
28480382,0CF00400,true,Rx,0,8,00,7D,7D,00,00,FF,F0,FF,
28481449,0CFE6CEE,true,Rx,0,8,38,0F,7F,C0,00,00,00,00,
28483267,18D0FF17,true,Rx,0,8,FA,00,00,00,00,00,00,00,
28483567,18FDA521,true,Rx,0,4,FF,FF,FF,FF,00,00,00,00,
28484122,18FF3321,true,Rx,0,8,CC,17,88,13,00,00,00,00,
28484688,18FF3521,true,Rx,0,8,00,11,00,01,00,10,FF,00,
28485495,18FF3621,true,Rx,0,8,00,04,00,00,00,00,00,00,
28486044,18FF3117,true,Rx,0,8,14,00,00,00,00,00,A8,80,
28486597,18FF3821,true,Rx,0,8,FF,FF,FF,FF,F3,04,FF,FC,
28487151,18FFC017,true,Rx,0,8,00,FD,FF,FF,FF,FF,FF,FF,
28487702,18FF3921,true,Rx,0,8,31,5E,9E,66,4E,20,20,20,
28488248,18FF3A21,true,Rx,0,8,16,7C,09,00,38,15,00,00,
28488807,18FF3B21,true,Rx,0,8,04,00,00,00,4B,00,00,FF,
28489353,18FF3C21,true,Rx,0,8,FF,FF,38,00,00,C0,01,00,
28489910,18FF3D21,true,Rx,0,8,05,00,00,E0,FF,FF,FF,FF,
28490718,18FF4090,true,Rx,0,8,00,00,00,00,00,00,00,00,
28491264,0CF00400,true,Rx,0,8,00,7D,7D,00,00,FF,F0,FF,
28491834,18FF4190,true,Rx,0,8,00,00,00,00,00,00,00,00,
28492380,18FFAA21,true,Rx,0,8,E9,00,15,59,FF,15,00,FF,
28495301,18FFAB21,true,Rx,0,8,E9,00,00,00,00,00,00,01,
28495307,18FFAC21,true,Rx,0,8,E9,00,00,00,00,00,00,00,
28495312,1CDEEE17,true,Rx,0,8,FF,FF,FF,FF,FF,FF,FF,FF,
28496435,18FEBF0B,true,Rx,0,8,00,00,7D,7D,7D,7D,7D,7D,
28499920,0CF00400,true,Rx,0,8,00,7D,7D,00,00,FF,F0,FF,
28501495,0CFE6CEE,true,Rx,0,8,38,0F,7F,C0,00,00,00,00,
28503087,18FF3521,true,Rx,0,8,00,11,00,01,00,10,FF,00,
28503639,18FF3621,true,Rx,0,8,00,04,00,00,00,00,00,00,
28505791,18FF3117,true,Rx,0,8,04,00,00,00,00,00,AE,80,
28509420,0CF00400,true,Rx,0,8,00,7D,7D,00,00,FF,F0,FF,
28516230,18FEBF0B,true,Rx,0,8,00,00,7D,7D,7D,7D,7D,7D,
28521410,0CFE6CEE,true,Rx,0,8,38,0F,7F,C0,00,00,00,00,
28522237,0CF00400,true,Rx,0,8,00,7D,7D,00,00,FF,F0,FF,
28523297,18FF3521,true,Rx,0,8,00,11,00,01,00,10,FF,00,
28523862,18FF3621,true,Rx,0,8,00,04,00,00,00,00,00,00,
28525947,18FF3117,true,Rx,0,8,00,00,00,00,00,00,A8,80,
28529558,0CF00400,true,Rx,0,8,00,7D,7D,00,00,FF,F0,FF,
28535601,18FF3B21,true,Rx,0,8,04,00,00,00,4B,00,00,FF,
28535606,18FFAA21,true,Rx,0,8,E9,00,15,59,FF,15,00,FF,
28535612,18FFAB21,true,Rx,0,8,E9,00,00,00,00,00,00,01,
28535617,18FFAC21,true,Rx,0,8,E9,00,00,00,00,00,00,00,
28535622,18FEBF0B,true,Rx,0,8,00,00,7D,7D,7D,7D,7D,7D,
28540529,0CF00400,true,Rx,0,8,00,7D,7D,00,00,FF,F0,FF,
28541858,0CFE6CEE,true,Rx,0,8,38,0F,7F,C0,00,00,00,00,
28543192,18FF3521,true,Rx,0,8,00,11,00,01,00,10,FF,00,
28543748,18FF3621,true,Rx,0,8,00,04,00,00,00,00,00,00,
28545965,18FF3117,true,Rx,0,8,00,00,00,00,00,00,AE,80,
28549589,0CF00400,true,Rx,0,8,00,7D,7D,00,00,FF,F0,FF,
28555961,18FEBF0B,true,Rx,0,8,00,00,7D,7D,7D,7D,7D,7D,
28560392,0CF00400,true,Rx,0,8,00,7D,7D,00,00,FF,F0,FF,
28561716,0CFE6CEE,true,Rx,0,8,38,0F,7F,C0,00,00,00,00,
28563292,18FF3521,true,Rx,0,8,00,11,00,01,00,10,FF,00,
28563863,18FF3621,true,Rx,0,8,00,04,00,00,00,00,00,00,
28565951,18FF3117,true,Rx,0,8,00,00,00,00,00,00,AE,80,
28571905,0CF00400,true,Rx,0,8,00,7D,7D,00,00,FF,F0,FF,
28575719,18FEBF0B,true,Rx,0,8,00,00,7D,7D,7D,7D,7D,7D,
28579297,0CF00400,true,Rx,0,8,00,7D,7D,00,00,FF,F0,FF,
28581946,0CFE6CEE,true,Rx,0,8,38,0F,7F,C0,00,00,00,00,
28583213,18FDA521,true,Rx,0,4,FF,FF,FF,FF,00,00,00,00,
28583577,18FF3321,true,Rx,0,8,CC,17,88,13,00,00,00,00,
28584237,18FF3521,true,Rx,0,8,00,11,00,01,00,10,FF,00,
28584898,18FF3621,true,Rx,0,8,00,04,00,00,00,00,00,00,
28585551,18FF3821,true,Rx,0,8,FF,FF,FF,FF,F3,04,FF,FC,
28585904,18FF3117,true,Rx,0,8,00,00,00,00,00,00,B4,80,
28586587,18FF3921,true,Rx,0,8,31,5E,9E,66,4E,20,20,20,
28587182,18FFC017,true,Rx,0,8,00,FD,FF,FF,FF,FF,FF,FF,
28587752,18FF3A21,true,Rx,0,8,16,7C,09,00,38,15,00,00,
28588297,18FF3B21,true,Rx,0,8,04,00,00,00,4B,00,00,FF,
28588863,18FF3C21,true,Rx,0,8,FF,FF,38,00,00,C0,01,00,
28589415,18FF3D21,true,Rx,0,8,05,00,00,E0,FF,FF,FF,FF,
28590007,18FFAA21,true,Rx,0,8,E9,00,15,59,FF,15,00,FF,
28590646,18FFAB21,true,Rx,0,8,E9,00,00,00,00,00,00,01,
28591197,0CF00400,true,Rx,0,8,00,7D,7D,00,00,FF,F0,FF,
28591756,18FFAC21,true,Rx,0,8,E9,00,00,00,00,00,00,00,
28596344,18FEBF0B,true,Rx,0,8,00,00,7D,7D,7D,7D,7D,7D,
28599604,0CF00400,true,Rx,0,8,00,7D,7D,00,00,FF,F0,FF,
28601823,0CFE6CEE,true,Rx,0,8,38,0F,7F,C0,00,00,00,00,
28603146,18FF3521,true,Rx,0,8,00,11,00,01,00,10,FF,00,
28603708,18FF3621,true,Rx,0,8,00,04,00,00,00,00,00,00,
28605797,18FF3117,true,Rx,0,8,00,00,00,00,00,00,AE,80,
28609953,0CF00400,true,Rx,0,8,00,7D,7D,00,00,FF,F0,FF,
28618262,18FEBF0B,true,Rx,0,8,00,00,7D,7D,7D,7D,7D,7D,
28620558,0CF00400,true,Rx,0,8,00,7D,7D,00,00,FF,F0,FF,
28621891,0CFE6CEE,true,Rx,0,8,38,0F,7F,C0,00,00,00,00,
28623309,18FF3521,true,Rx,0,8,00,11,00,01,00,10,FF,00,
28623876,18FF3621,true,Rx,0,8,00,04,00,00,00,00,00,00,
28625724,18FF3117,true,Rx,0,8,00,00,00,00,00,00,AE,80,
28629535,0CF00400,true,Rx,0,8,00,7D,7D,00,00,FF,F0,FF,
28633226,18FF3B21,true,Rx,0,8,04,00,00,00,4B,00,00,FF,
28636491,18FFAA21,true,Rx,0,8,E9,00,15,59,FF,15,00,FF,
28636496,18FFAB21,true,Rx,0,8,E9,00,00,00,00,00,00,01,
28636502,18FFAC21,true,Rx,0,8,E9,00,00,00,00,00,00,00,
28636508,18FEBF0B,true,Rx,0,8,00,00,7D,7D,7D,7D,7D,7D,
28640398,0CF00400,true,Rx,0,8,00,7D,7D,00,00,FF,F0,FF,
28641715,0CFE6CEE,true,Rx,0,8,38,0F,7F,C0,00,00,00,00,
28643289,18FF3521,true,Rx,0,8,00,11,00,01,00,10,FF,00,
28643857,18FF3621,true,Rx,0,8,00,04,00,00,00,00,00,00,
28645949,18FF3117,true,Rx,0,8,10,00,00,00,00,00,AE,80,
28649564,0CF00400,true,Rx,0,8,00,7D,7D,00,00,FF,F0,FF,
28651410,18FF50FB,true,Rx,0,8,58,00,00,00,00,00,00,01,
28656234,18FEBF0B,true,Rx,0,8,00,00,7D,7D,7D,7D,7D,7D,
28660519,0CF00400,true,Rx,0,8,00,7D,7D,00,00,FF,F0,FF,
28661905,0CFE6CEE,true,Rx,0,8,38,0F,7F,C0,00,00,00,00,
28663219,18FF3521,true,Rx,0,8,00,11,00,01,00,10,FF,00,
28663780,18FF3621,true,Rx,0,8,00,04,00,00,00,00,00,00,
28665826,18FF3117,true,Rx,0,8,10,00,00,00,00,00,AE,80,
28671718,0CF00400,true,Rx,0,8,00,7D,7D,00,00,FF,F0,FF,
28676687,18FEBF0B,true,Rx,0,8,00,00,7D,7D,7D,7D,7D,7D,
28679530,0CF00400,true,Rx,0,8,00,7D,7D,00,00,FF,F0,FF,
28681889,0CFE6CEE,true,Rx,0,8,38,0F,7F,C0,00,00,00,00,
28682966,18FDA521,true,Rx,0,4,FF,FF,FF,FF,00,00,00,00,
28683516,18FF3321,true,Rx,0,8,CB,17,88,13,00,00,00,00,
28684328,18FF3521,true,Rx,0,8,00,11,00,01,00,10,FF,00,
28684884,18FF3621,true,Rx,0,8,00,04,00,00,00,00,00,00,
28685437,18FF3821,true,Rx,0,8,FF,FF,FF,FF,F3,04,FF,FC,
28685990,18FF3117,true,Rx,0,8,10,00,00,00,00,00,AE,80,
28686543,18FF3921,true,Rx,0,8,31,5E,9E,66,4E,20,20,20,
28687102,18FFC017,true,Rx,0,8,00,FD,FF,FF,FF,FF,FF,FF,
28687654,18FF3A21,true,Rx,0,8,16,7C,09,00,38,15,00,00,
28688204,18FF3B21,true,Rx,0,8,04,00,00,00,4B,00,00,FF,
28688761,18FF3C21,true,Rx,0,8,FF,FF,38,00,00,C0,01,00,
28689306,18FF3D21,true,Rx,0,8,05,00,00,E0,FF,FF,FF,FF,
28690124,18FF4090,true,Rx,0,8,00,00,00,00,00,00,00,00,
28690683,18FF4190,true,Rx,0,8,00,00,00,00,00,00,00,00,
28691230,0CF00400,true,Rx,0,8,00,7D,7D,00,00,FF,F0,FF,
28691796,18FFAA21,true,Rx,0,8,E9,00,15,59,FF,15,00,FF,
28692341,18FFAB21,true,Rx,0,8,E9,00,00,00,00,00,00,01,
28692905,18FFAC21,true,Rx,0,8,E9,00,00,00,00,00,00,00,
28696471,18FEBF0B,true,Rx,0,8,00,00,7D,7D,7D,7D,7D,7D,
28699553,0CF00400,true,Rx,0,8,00,7D,7D,00,00,FF,F0,FF,
28701646,0CFE6CEE,true,Rx,0,8,38,0F,7F,C0,00,00,00,00,
28703211,18FF3521,true,Rx,0,8,00,11,00,01,00,10,FF,00,
28703829,18FF3621,true,Rx,0,8,00,04,00,00,00,00,00,00,
28705956,18FF3117,true,Rx,0,8,10,00,00,00,00,00,B4,80,
28709572,0CF00400,true,Rx,0,8,00,7D,7D,00,00,FF,F0,FF,
28719055,18FEBF0B,true,Rx,0,8,00,00,7D,7D,7D,7D,7D,7D,
28720495,0CF00400,true,Rx,0,8,00,7D,7D,00,00,FF,F0,FF,
28721863,0CFE6CEE,true,Rx,0,8,38,0F,7F,C0,00,00,00,00,
28723199,18FF3521,true,Rx,0,8,00,11,00,01,00,10,FF,00,
28723762,18FF3621,true,Rx,0,8,00,04,00,00,00,00,00,00,
28725950,18FF3117,true,Rx,0,8,10,00,00,00,00,00,AE,80,
28729571,0CF00400,true,Rx,0,8,00,7D,7D,00,00,FF,F0,FF,
28733216,18FF3B21,true,Rx,0,8,04,00,00,00,4B,00,00,FF,
28733782,18FFAA21,true,Rx,0,8,E9,00,15,59,FF,15,00,FF,
28737407,18FFAB21,true,Rx,0,8,E9,00,00,00,00,00,00,01,
28737412,18FFAC21,true,Rx,0,8,E9,00,00,00,00,00,00,00,
28737418,18FEBF0B,true,Rx,0,8,00,00,7D,7D,7D,7D,7D,7D,
28740628,0CF00400,true,Rx,0,8,00,7D,7D,00,00,FF,F0,FF,
28741781,0CFE6CEE,true,Rx,0,8,38,0F,7F,C0,00,00,00,00,
28743148,18FF3521,true,Rx,0,8,00,11,00,01,00,10,FF,00,
28743706,18FF56FB,true,Rx,0,8,00,00,00,00,00,00,00,00,
28744542,18FF3621,true,Rx,0,8,00,04,00,00,00,00,00,00,
28745880,18FF3117,true,Rx,0,8,10,00,00,00,00,00,B4,80,
28749610,0CF00400,true,Rx,0,8,00,7D,7D,00,00,FF,F0,FF,
28757062,18FEBF0B,true,Rx,0,8,00,00,7D,7D,7D,7D,7D,7D,
28759865,0CF00400,true,Rx,0,8,00,7D,7D,00,00,FF,F0,FF,
28761820,0CFE6CEE,true,Rx,0,8,38,0F,7F,C0,00,00,00,00,
28763115,18FF3521,true,Rx,0,8,00,11,00,01,00,10,FF,00,
28763788,18FF3621,true,Rx,0,8,00,04,00,00,00,00,00,00,
28765903,18FF3117,true,Rx,0,8,00,00,00,00,00,00,B4,80,
28771844,0CF00400,true,Rx,0,8,00,7D,7D,00,00,FF,F0,FF,
28777601,18FEBF0B,true,Rx,0,8,00,00,7D,7D,7D,7D,7D,7D,
28779420,0CF00400,true,Rx,0,8,00,7D,7D,00,00,FF,F0,FF,
28781842,0CFE6CEE,true,Rx,0,8,38,0F,7F,C0,00,00,00,00,
28783158,18FDA521,true,Rx,0,4,FF,FF,FF,FF,00,00,00,00,
28783710,18FF3321,true,Rx,0,8,CB,17,88,13,00,00,00,00,
28784332,18FF3521,true,Rx,0,8,00,11,00,01,00,10,FF,00,
28784688,18FF3621,true,Rx,0,8,00,04,00,00,00,00,00,00,
28785345,18FF3821,true,Rx,0,8,FF,FF,FF,FF,F3,04,FF,FC,
28786024,18FEDA17,true,Rx,0,8,30,33,2E,31,38,2E,32,33,
28786575,18FF3921,true,Rx,0,8,31,5E,9E,66,4E,20,20,20,
28787135,18FF3117,true,Rx,0,8,05,00,00,00,00,00,B4,80,
28787698,18FF3A21,true,Rx,0,8,16,7C,09,00,38,15,00,00,
28788244,18FFC017,true,Rx,0,8,00,FD,FF,FF,FF,FF,FF,FF,
28788807,18FF3B21,true,Rx,0,8,04,00,00,00,4B,00,00,FF,
28789352,18FF3C21,true,Rx,0,8,FF,FF,38,00,00,C0,01,00,
28789907,18FF3D21,true,Rx,0,8,05,00,00,E0,FF,FF,FF,FF,
28790458,18FFAA21,true,Rx,0,8,E9,00,15,59,FF,15,00,FF,
28791005,0CF00400,true,Rx,0,8,00,7D,7D,00,00,FF,F0,FF,
28791555,18FFAB21,true,Rx,0,8,E9,00,00,00,00,00,00,01,
28792367,18FFAC21,true,Rx,0,8,E9,00,00,00,00,00,00,00,
28797853,18FEBF0B,true,Rx,0,8,00,00,7D,7D,7D,7D,7D,7D,
28800004,0CF00400,true,Rx,0,8,00,7D,7D,00,00,FF,F0,FF,
28801976,0CFE6CEE,true,Rx,0,8,38,0F,7F,C0,00,00,00,00,
28803101,18FF3521,true,Rx,0,8,00,11,00,01,00,10,FF,00,
28803651,18FF3621,true,Rx,0,8,00,04,00,00,00,00,00,00,
28805750,18FF3117,true,Rx,0,8,05,00,00,00,00,00,AE,80,
28809462,0CF00400,true,Rx,0,8,00,7D,7D,00,00,FF,F0,FF,
28814633,18FEBF0B,true,Rx,0,8,00,00,7D,7D,7D,7D,7D,7D,
28821024,0CF00400,true,Rx,0,8,00,7D,7D,00,00,FF,F0,FF,
28821959,0CFE6CEE,true,Rx,0,8,38,0F,7F,C0,00,00,00,00,
28823128,18FF3521,true,Rx,0,8,00,11,00,01,00,10,FF,00,
28823935,18FF3621,true,Rx,0,8,00,04,00,00,00,00,00,00,
28825767,18FF3117,true,Rx,0,8,05,00,00,00,00,00,AE,80,
28829614,0CF00400,true,Rx,0,8,00,7D,7D,00,00,FF,F0,FF,
28833258,18FF3B21,true,Rx,0,8,04,00,00,00,4B,00,00,FF,
28833821,18FFAA21,true,Rx,0,8,E9,00,15,59,FF,15,00,FF,
28834367,18FFAB21,true,Rx,0,8,E9,00,00,00,00,00,00,01,
28834925,18FFAC21,true,Rx,0,8,E9,00,00,00,00,00,00,00,
28838387,18FEBF0B,true,Rx,0,8,00,00,7D,7D,7D,7D,7D,7D,
28840551,0CF00400,true,Rx,0,8,00,7D,7D,00,00,FF,F0,FF,
28842139,0CFE6CEE,true,Rx,0,8,38,0F,7F,C0,00,00,00,00,
28843204,18FF3521,true,Rx,0,8,00,11,00,01,00,10,FF,00,
28843776,18FF3621,true,Rx,0,8,00,04,00,00,00,00,00,00,
28845870,18FF3117,true,Rx,0,8,05,00,00,00,00,00,AE,80,
28849493,0CF00400,true,Rx,0,8,00,7D,7D,00,00,FF,F0,FF,
28855049,18FEBF0B,true,Rx,0,8,00,00,7D,7D,7D,7D,7D,7D,
28857520,18FF50FB,true,Rx,0,8,58,00,00,00,00,00,00,01,
28859952,0CF00400,true,Rx,0,8,00,7D,7D,00,00,FF,F0,FF,
28862109,0CFE6CEE,true,Rx,0,8,38,0F,7F,C0,00,00,00,00,
28863257,18FF3521,true,Rx,0,8,00,11,00,01,00,10,FF,00,
28863852,18FF3621,true,Rx,0,8,00,04,00,00,00,00,00,00,
28865772,18FF3117,true,Rx,0,8,05,00,00,00,00,00,A8,80,
28871855,0CF00400,true,Rx,0,8,00,7D,7D,00,00,FF,F0,FF,
28874821,18FEBF0B,true,Rx,0,8,00,00,7D,7D,7D,7D,7D,7D,
28879831,0CF00400,true,Rx,0,8,00,7D,7D,00,00,FF,F0,FF,
28882051,0CFE6CEE,true,Rx,0,8,38,0F,7F,C0,00,00,00,00,
28883120,18FDA521,true,Rx,0,4,FF,FF,FF,FF,00,00,00,00,
28883679,18FF3321,true,Rx,0,8,CA,17,88,13,00,00,00,00,
28884224,18FF3521,true,Rx,0,8,00,11,00,01,00,10,FF,00,
28884783,18FF3621,true,Rx,0,8,00,04,00,00,00,00,00,00,
28885325,18FF3821,true,Rx,0,8,FF,FF,FF,FF,F3,04,FF,FC,
28885892,18FF3117,true,Rx,0,8,05,00,00,00,00,00,B4,80,
28886437,18FF3921,true,Rx,0,8,31,5E,9E,66,4E,20,20,20,
28887256,18FFC017,true,Rx,0,8,00,FD,FF,FF,FF,FF,FF,FF,
28887821,18FF3A21,true,Rx,0,8,16,7C,09,00,38,15,00,00,
28888364,18FF3B21,true,Rx,0,8,04,00,00,00,4B,00,00,FF,
28888924,18FF3C21,true,Rx,0,8,FF,FF,38,00,00,C0,01,00,
28889478,18FF3D21,true,Rx,0,8,05,00,00,E0,FF,FF,FF,FF,
28890033,18FF4090,true,Rx,0,8,00,00,00,00,00,00,00,00,
28890584,18FF4190,true,Rx,0,8,00,00,00,00,00,00,00,00,
28891139,0CF00400,true,Rx,0,8,00,7D,7D,00,00,FF,F0,FF,
28891700,18FFAA21,true,Rx,0,8,E9,00,15,59,FF,15,00,FF,
28892245,18FFAB21,true,Rx,0,8,E9,00,00,00,00,00,00,01,
28892804,18FFAC21,true,Rx,0,8,E9,00,00,00,00,00,00,00,
28897942,18FEBF0B,true,Rx,0,8,00,00,7D,7D,7D,7D,7D,7D,
28899561,0CF00400,true,Rx,0,8,00,7D,7D,00,00,FF,F0,FF,
28901925,0CFE6CEE,true,Rx,0,8,38,0F,7F,C0,00,00,00,00,
28903244,18FF3521,true,Rx,0,8,00,11,00,01,00,10,FF,00,
28903811,18FF3621,true,Rx,0,8,00,04,00,00,00,00,00,00,
28905902,18FF3117,true,Rx,0,8,15,00,00,00,00,00,B4,80,
28910024,0CF00400,true,Rx,0,8,00,7D,7D,00,00,FF,F0,FF,
28914708,18FEBF0B,true,Rx,0,8,00,00,7D,7D,7D,7D,7D,7D,
28921185,0CF00400,true,Rx,0,8,00,7D,7D,00,00,FF,F0,FF,
28922178,0CFE6CEE,true,Rx,0,8,38,0F,7F,C0,00,00,00,00,
28923141,18FF3521,true,Rx,0,8,00,11,00,01,00,10,FF,00,
28923799,18FF3621,true,Rx,0,8,00,04,00,00,00,00,00,00,
28925754,18FF3117,true,Rx,0,8,15,00,00,00,00,00,B4,80,
28929597,0CF00400,true,Rx,0,8,00,7D,7D,00,00,FF,F0,FF,
28932992,18EAEE21,true,Rx,0,3,6B,FE,00,00,00,00,00,00,
28933545,18FF3B21,true,Rx,0,8,04,00,00,00,4B,00,00,FF,
28934105,18FFAA21,true,Rx,0,8,E9,00,15,59,FF,15,00,FF,
28934657,18FFAB21,true,Rx,0,8,E9,00,00,00,00,00,00,01,
28935202,18FFAC21,true,Rx,0,8,E9,00,00,00,00,00,00,00,
28938863,18FEBF0B,true,Rx,0,8,00,00,7D,7D,7D,7D,7D,7D,
28940379,0CF00400,true,Rx,0,8,00,7D,7D,00,00,FF,F0,FF,
28941984,0CFE6CEE,true,Rx,0,8,38,0F,7F,C0,00,00,00,00,
28943299,18FF3521,true,Rx,0,8,00,11,00,01,00,10,FF,00,
28943862,18FF3621,true,Rx,0,8,00,04,00,00,00,00,00,00,
28945948,18FF3117,true,Rx,0,8,15,00,00,00,00,00,AE,80,
28949571,0CF00400,true,Rx,0,8,00,7D,7D,00,00,FF,F0,FF,
28954759,18FEBF0B,true,Rx,0,8,00,00,7D,7D,7D,7D,7D,7D,
28960643,0CF00400,true,Rx,0,8,00,7D,7D,00,00,FF,F0,FF,
28962000,0CFE6CEE,true,Rx,0,8,38,0F,7F,C0,00,00,00,00,
28963319,18FF3521,true,Rx,0,8,00,11,00,01,00,10,FF,00,
28963902,18FF3621,true,Rx,0,8,00,04,00,00,00,00,00,00,
28965880,18FF3117,true,Rx,0,8,15,00,00,00,00,00,AE,80,
28971718,0CF00400,true,Rx,0,8,00,7D,7D,00,00,FF,F0,FF,
28974840,18FEBF0B,true,Rx,0,8,00,00,7D,7D,7D,7D,7D,7D,
28979414,0CF00400,true,Rx,0,8,00,7D,7D,00,00,FF,F0,FF,
28982068,0CFE6CEE,true,Rx,0,8,38,0F,7F,C0,00,00,00,00,
28983141,18D0FF17,true,Rx,0,8,FA,00,00,00,00,00,00,00,
28983730,18FDA521,true,Rx,0,4,FF,FF,FF,FF,00,00,00,00,
28984292,18FF3321,true,Rx,0,8,CA,17,88,13,00,00,00,00,
28984856,18FF3521,true,Rx,0,8,00,11,00,01,00,10,FF,00,
28985409,18FF3621,true,Rx,0,8,00,04,00,00,00,00,00,00,
28985955,18FF3117,true,Rx,0,8,15,00,00,00,00,00,AE,80,
28986506,18FF3821,true,Rx,0,8,FF,FF,FF,FF,F3,04,FF,FC,
28987056,18FFC017,true,Rx,0,8,00,FD,FF,FF,FF,FF,FF,FF,
28987608,18FF3921,true,Rx,0,8,31,5E,9E,66,4E,20,20,20,
28988178,18FF3A21,true,Rx,0,8,16,7C,09,00,38,15,00,00,
28988841,18FF3B21,true,Rx,0,8,04,00,00,00,4B,00,00,FF,
28989522,18FF3C21,true,Rx,0,8,FF,FF,38,00,00,C0,01,00,
28989891,18FF3D21,true,Rx,0,8,05,00,00,E0,FF,FF,FF,FF,
28990476,18FFAA21,true,Rx,0,8,E9,00,15,59,FF,15,00,FF,
28991036,0CF00400,true,Rx,0,8,00,7D,7D,00,00,FF,F0,FF,
28991851,18FFAB21,true,Rx,0,8,E9,00,00,00,00,00,00,01,
28992393,18FFAC21,true,Rx,0,8,E9,00,00,00,00,00,00,00,
28992954,1CDEEE17,true,Rx,0,8,FF,FF,FF,FF,FF,FF,FF,FF,
28998893,18FEBF0B,true,Rx,0,8,00,00,7D,7D,7D,7D,7D,7D,
29000035,0CF00400,true,Rx,0,8,00,7D,7D,00,00,FF,F0,FF,
29001875,0CFE6CEE,true,Rx,0,8,38,0F,7F,C0,00,00,00,00,
29003195,18FF3521,true,Rx,0,8,00,11,00,01,00,10,FF,00,
29003762,18FF3621,true,Rx,0,8,00,04,00,00,00,00,00,00,
29005872,18FF3117,true,Rx,0,8,15,00,00,00,00,00,A8,80,
29010133,0CF00400,true,Rx,0,8,00,7D,7D,00,00,FF,F0,FF,
29014620,18FEBF0B,true,Rx,0,8,00,00,7D,7D,7D,7D,7D,7D,
29021007,0CF00400,true,Rx,0,8,00,7D,7D,00,00,FF,F0,FF,
29022102,0CFE6CEE,true,Rx,0,8,38,0F,7F,C0,00,00,00,00,
29023165,18FF3521,true,Rx,0,8,00,11,00,01,00,10,FF,00,
29023797,18FF3621,true,Rx,0,8,00,04,00,00,00,00,00,00,
29025703,18FF3117,true,Rx,0,8,01,00,00,00,00,00,B4,80,
29029507,0CF00400,true,Rx,0,8,00,7D,7D,00,00,FF,F0,FF,
29033184,18FF3B21,true,Rx,0,8,04,00,00,00,4B,00,00,FF,
29033749,18FFAA21,true,Rx,0,8,E9,00,15,59,FF,15,00,FF,
29034295,18FFAB21,true,Rx,0,8,E9,00,00,00,00,00,00,01,
29034861,18FFAC21,true,Rx,0,8,E9,00,00,00,00,00,00,00,
29035669,18FEBF0B,true,Rx,0,8,00,00,7D,7D,7D,7D,7D,7D,
29039444,18FCBD00,true,Rx,0,8,1A,0B,00,00,00,00,00,00,
29039450,18FD7C00,true,Rx,0,8,FF,80,F3,FD,C3,CF,03,FC,
29040410,0CF00400,true,Rx,0,8,00,7D,7D,00,00,FF,F0,FF,
29042101,0CFE6CEE,true,Rx,0,8,38,0F,7F,C0,00,00,00,00,
29043173,18FF3521,true,Rx,0,8,00,11,00,01,00,10,FF,00,
29043740,18FF3621,true,Rx,0,8,00,04,00,00,00,00,00,00,
29045832,18FF3117,true,Rx,0,8,01,00,00,00,00,00,AE,80,
29049462,0CF00400,true,Rx,0,8,00,7D,7D,00,00,FF,F0,FF,
29052059,18ECFFEE,true,Rx,0,8,20,14,00,03,FF,6B,FE,00,
29052613,18FF0C00,true,Rx,0,8,00,00,0C,FF,FF,FF,FF,00,
29055017,18FEBF0B,true,Rx,0,8,00,00,7D,7D,7D,7D,7D,7D,
29059951,0CF00400,true,Rx,0,8,00,7D,7D,00,00,FF,F0,FF,
29061559,18FF50FB,true,Rx,0,8,58,00,00,00,00,00,00,01,
29062116,0CFE6CEE,true,Rx,0,8,38,0F,7F,C0,00,00,00,00,
29063232,18FF3521,true,Rx,0,8,00,11,00,01,00,10,FF,00,
29063796,18FF3621,true,Rx,0,8,00,04,00,00,00,00,00,00,
29065895,18FF3117,true,Rx,0,8,01,00,00,00,00,00,AE,80,
29071951,0CF00400,true,Rx,0,8,00,7D,7D,00,00,FF,F0,FF,
29074818,18FEBF0B,true,Rx,0,8,00,00,7D,7D,7D,7D,7D,7D,
29079954,0CF00400,true,Rx,0,8,00,7D,7D,00,00,FF,F0,FF,
29081895,0CFE6CEE,true,Rx,0,8,38,0F,7F,C0,00,00,00,00,
29083206,18FDA521,true,Rx,0,4,FF,FF,FF,FF,00,00,00,00,
29083759,18FF3321,true,Rx,0,8,C8,17,88,13,00,00,00,00,
29084304,18FF3521,true,Rx,0,8,00,11,00,01,00,10,FF,00,
29084870,18FF3621,true,Rx,0,8,00,04,00,00,00,00,00,00,
29085423,18FF3821,true,Rx,0,8,FF,FF,FF,FF,F3,04,FF,FC,
29085998,18FF3117,true,Rx,0,8,01,00,00,00,00,00,AE,80,
29086543,18FF3921,true,Rx,0,8,31,5E,9E,66,4E,20,20,20,
29087114,18FFC017,true,Rx,0,8,00,FD,FF,FF,FF,FF,FF,FF,
29087662,18FF3A21,true,Rx,0,8,16,7C,09,00,38,15,00,00,
29088209,18FF3B21,true,Rx,0,8,04,00,00,00,4B,00,00,FF,
29088763,18FF3C21,true,Rx,0,8,FF,FF,38,00,00,C0,01,00,
29089308,18FF3D21,true,Rx,0,8,05,00,00,E0,FF,FF,FF,FF,
29090123,18FF4090,true,Rx,0,8,00,00,00,00,00,00,00,00,
29090682,18FF4190,true,Rx,0,8,00,00,00,00,00,00,00,00,
29091228,0CF00400,true,Rx,0,8,00,7D,7D,00,00,FF,F0,FF,
29091796,18FFAA21,true,Rx,0,8,E9,00,15,59,FF,15,00,FF,
29092342,18FFAB21,true,Rx,0,8,E9,00,00,00,00,00,00,01,
29092942,18FFAC21,true,Rx,0,8,E9,00,00,00,00,00,00,00,
29098952,18FEBF0B,true,Rx,0,8,00,00,7D,7D,7D,7D,7D,7D,
29099557,0CF00400,true,Rx,0,8,00,7D,7D,00,00,FF,F0,FF,
29101930,0CFE6CEE,true,Rx,0,8,38,0F,7F,C0,00,00,00,00,
29103248,18FF3521,true,Rx,0,8,00,11,00,01,00,10,FF,00,
29103811,18FF3621,true,Rx,0,8,00,04,00,00,00,00,00,00,
29105903,18FF3117,true,Rx,0,8,01,00,00,00,00,00,AE,80,
29109515,0CF00400,true,Rx,0,8,00,7D,7D,00,00,FF,F0,FF,
29114708,18FEBF0B,true,Rx,0,8,00,00,7D,7D,7D,7D,7D,7D,
29121181,0CF00400,true,Rx,0,8,00,7D,7D,00,00,FF,F0,FF,
29121999,0CFE6CEE,true,Rx,0,8,38,0F,7F,C0,00,00,00,00,
29123347,18FF3521,true,Rx,0,8,00,11,00,01,00,10,FF,00,
29123710,18FF3621,true,Rx,0,8,00,04,00,00,00,00,00,00,
29125809,18FF3117,true,Rx,0,8,01,00,00,00,00,00,AE,80,
29129575,0CF00400,true,Rx,0,8,00,7D,7D,00,00,FF,F0,FF,
29133101,18FF3B21,true,Rx,0,8,04,00,00,00,4B,00,00,FF,
29133659,18FFAA21,true,Rx,0,8,E9,00,15,59,FF,15,00,FF,
29134227,18FFAB21,true,Rx,0,8,E9,00,00,00,00,00,00,01,
29134858,18FFAC21,true,Rx,0,8,E9,00,00,00,00,00,00,00,
29135657,18FEBF0B,true,Rx,0,8,00,00,7D,7D,7D,7D,7D,7D,
29140560,0CF00400,true,Rx,0,8,00,7D,7D,00,00,FF,F0,FF,
29141921,0CFE6CEE,true,Rx,0,8,38,0F,7F,C0,00,00,00,00,
29143132,18FF3521,true,Rx,0,8,00,11,00,01,00,10,FF,00,
29143950,18FF3621,true,Rx,0,8,00,04,00,00,00,00,00,00,
29145788,18FF3117,true,Rx,0,8,01,00,00,00,00,00,AE,80,
29149683,0CF00400,true,Rx,0,8,00,7D,7D,00,00,FF,F0,FF,
29152024,18EBFFEE,true,Rx,0,8,01,3F,3F,3F,3F,3F,3F,3F,
29154631,18FEBF0B,true,Rx,0,8,00,00,7D,7D,7D,7D,7D,7D,
29159980,0CF00400,true,Rx,0,8,00,7D,7D,00,00,FF,F0,FF,
29161898,0CFE6CEE,true,Rx,0,8,38,0F,7F,C0,00,00,00,00,
29163228,18FF3521,true,Rx,0,8,00,11,00,01,00,10,FF,00,
