Time Stamp,ID,Extended,Dir,Bus,LEN,D1,D2,D3,D4,D5,D6,D7,D8
150940991,08FF2D3F,true,Rx,0,8,04,DE,00,00,00,00,FF,FF,
218046505,0CFF2029,true,Rx,0,8,30,FF,FF,FF,FF,FF,FF,FF,
352257597,14FF063D,true,Rx,0,8,E8,28,FF,FF,FF,FF,FF,FF,
150940991,08FF2D3F,true,Rx,0,8,04,E0,00,00,00,00,FF,FF,
218038401,0CFF0081,true,Rx,0,8,00,00,10,00,00,FF,FE,11,
218038657,0CFF0181,true,Rx,0,8,00,00,F4,F1,FF,FF,FF,FF,
150940991,08FF2D3F,true,Rx,0,8,04,E1,00,00,00,00,FF,FF,
218046505,0CFF2029,true,Rx,0,8,30,FF,FF,FF,FF,FF,FF,FF,
150940991,08FF2D3F,true,Rx,0,8,04,E0,00,00,00,00,FF,FF,
218038401,0CFF0081,true,Rx,0,8,00,00,10,00,00,FF,EE,11,
218038657,0CFF0181,true,Rx,0,8,00,00,F4,F1,FF,FF,FF,FF,
150940991,08FF2D3F,true,Rx,0,8,04,E1,00,00,00,00,FF,FF,
218046505,0CFF2029,true,Rx,0,8,30,FF,FF,FF,FF,FF,FF,FF,
150940991,08FF2D3F,true,Rx,0,8,04,E1,00,00,00,00,FF,FF,
218038401,0CFF0081,true,Rx,0,8,00,00,10,00,00,FF,E0,11,
218038657,0CFF0181,true,Rx,0,8,00,00,F4,F1,FF,FF,FF,FF,
150940991,08FF2D3F,true,Rx,0,8,04,E0,00,00,00,00,FF,FF,
218046505,0CFF2029,true,Rx,0,8,30,FF,FF,FF,FF,FF,FF,FF,
150940991,08FF2D3F,true,Rx,0,8,04,E0,00,00,00,00,FF,FF,
218038401,0CFF0081,true,Rx,0,8,00,00,10,00,00,FF,CC,11,
150940991,08FF2D3F,true,Rx,0,8,04,DE,00,00,00,00,FF,FF,
150940991,08FF2D3F,true,Rx,0,8,04,DC,00,00,00,00,FF,FF,
150940991,08FF2D3F,true,Rx,0,8,04,E0,00,00,00,00,FF,FF,
150940991,08FF2D3F,true,Rx,0,8,04,E0,00,00,00,00,FF,FF,
218038401,0CFF0081,true,Rx,0,8,00,00,10,00,00,FF,AE,11,
150940991,08FF2D3F,true,Rx,0,8,04,E1,00,00,00,00,FF,FF,
150940991,08FF2D3F,true,Rx,0,8,04,E1,00,00,00,00,FF,FF,
218046505,0CFF2029,true,Rx,0,8,30,FF,FF,FF,FF,FF,FF,FF,
218038401,0CFF0081,true,Rx,0,8,00,00,10,00,00,FF,8A,11,
218038657,0CFF0181,true,Rx,0,8,00,00,F4,F1,FF,FF,FF,FF,
218046505,0CFF2029,true,Rx,0,8,30,FF,FF,FF,FF,FF,FF,FF,
218038401,0CFF0081,true,Rx,0,8,00,00,10,00,00,FF,7C,11,
352256829,14FF033D,true,Rx,0,8,00,00,9A,9A,3C,C3,F0,F0,
150940991,08FF2D3F,true,Rx,0,8,04,E0,00,00,00,00,FF,FF,
352256129,14FF0081,true,Rx,0,8,19,D0,1A,FF,1B,D0,1C,D1,
150940991,08FF2D3F,true,Rx,0,8,04,E1,00,00,00,00,FF,FF,
150940991,08FF2D3F,true,Rx,0,8,04,E1,00,00,00,00,FF,FF,
150940991,08FF2D3F,true,Rx,0,8,04,E0,00,00,00,00,FF,FF,
218038401,0CFF0081,true,Rx,0,8,00,00,10,00,00,FF,48,11,
150940991,08FF2D3F,true,Rx,0,8,04,DE,00,00,00,00,FF,FF,
150940991,08FF2D3F,true,Rx,0,8,04,E1,00,00,00,00,FF,FF,
150940991,08FF2D3F,true,Rx,0,8,04,E3,00,00,00,00,FF,FF,
150940991,08FF2D3F,true,Rx,0,8,04,E0,00,00,00,00,FF,FF,
218038401,0CFF0081,true,Rx,0,8,00,00,10,00,00,FF,24,11,
150940991,08FF2D3F,true,Rx,0,8,04,DE,00,00,00,00,FF,FF,
150940991,08FF2D3F,true,Rx,0,8,04,E0,00,00,00,00,FF,FF,
150940991,08FF2D3F,true,Rx,0,8,04,E0,00,00,00,00,FF,FF,
218038401,0CFF0081,true,Rx,0,8,00,00,10,00,00,FF,00,11,
218038657,0CFF0181,true,Rx,0,8,00,00,F4,F1,FF,FF,FF,FF,
218046505,0CFF2029,true,Rx,0,8,30,FF,FF,FF,FF,FF,FF,FF,
218038401,0CFF0081,true,Rx,0,8,00,00,10,00,00,FF,F2,10,
218046505,0CFF2029,true,Rx,0,8,30,FF,FF,FF,FF,FF,FF,FF,
218038401,0CFF0081,true,Rx,0,8,00,00,10,00,00,FF,E0,10,
218038657,0CFF0181,true,Rx,0,8,00,00,F4,F1,FF,FF,FF,FF,
150940991,08FF2D3F,true,Rx,0,8,04,DE,00,00,00,00,FF,FF,
150940991,08FF2D3F,true,Rx,0,8,04,E0,00,00,00,00,FF,FF,
150940991,08FF2D3F,true,Rx,0,8,04,DE,00,00,00,00,FF,FF,
218038401,0CFF0081,true,Rx,0,8,00,00,10,00,00,FF,C2,10,
150940991,08FF2D3F,true,Rx,0,8,04,E1,00,00,00,00,FF,FF,
150940991,08FF2D3F,true,Rx,0,8,04,E1,00,00,00,00,FF,FF,
150940991,08FF2D3F,true,Rx,0,8,04,E1,00,00,00,00,FF,FF,
150940991,08FF2D3F,true,Rx,0,8,04,DE,00,00,00,00,FF,FF,
218038401,0CFF0081,true,Rx,0,8,00,00,10,00,00,FF,A2,10,
150940991,08FF2D3F,true,Rx,0,8,04,DE,00,00,00,00,FF,FF,
150940991,08FF2D3F,true,Rx,0,8,04,E1,00,00,00,00,FF,FF,
150940991,08FF2D3F,true,Rx,0,8,04,DE,00,00,00,00,FF,FF,
150940991,08FF2D3F,true,Rx,0,8,04,E0,00,00,00,00,FF,FF,
218038401,0CFF0081,true,Rx,0,8,00,00,10,00,00,FF,84,10,
218046505,0CFF2029,true,Rx,0,8,30,FF,FF,FF,FF,FF,FF,FF,
218038401,0CFF0081,true,Rx,0,8,00,00,10,00,00,FF,76,10,
218046505,0CFF2029,true,Rx,0,8,30,FF,FF,FF,FF,FF,FF,FF,
218038401,0CFF0081,true,Rx,0,8,00,00,10,00,00,FF,66,10,
218038657,0CFF0181,true,Rx,0,8,00,00,F4,F1,FF,FF,FF,FF,
150940991,08FF2D3F,true,Rx,0,8,04,E1,00,00,00,00,FF,FF,
218038657,0CFF0181,true,Rx,0,8,00,00,F4,F1,FF,FF,FF,FF,
150940991,08FF2D3F,true,Rx,0,8,04,DE,00,00,00,00,FF,FF,
150940991,08FF2D3F,true,Rx,0,8,04,DE,00,00,00,00,FF,FF,
218046505,0CFF2029,true,Rx,0,8,30,FF,FF,FF,FF,FF,FF,FF,
150940991,08FF2D3F,true,Rx,0,8,04,E1,00,00,00,00,FF,FF,
150940991,08FF2D3F,true,Rx,0,8,04,DE,00,00,00,00,FF,FF,
150940991,08FF2D3F,true,Rx,0,8,04,E1,00,00,00,00,FF,FF,
150940991,08FF2D3F,true,Rx,0,8,04,DE,00,00,00,00,FF,FF,
218046505,0CFF2029,true,Rx,0,8,30,FF,FF,FF,FF,FF,FF,FF,
150940991,08FF2D3F,true,Rx,0,8,04,E1,00,00,00,00,FF,FF,
150940991,08FF2D3F,true,Rx,0,8,04,E0,00,00,00,00,FF,FF,
150940991,08FF2D3F,true,Rx,0,8,04,E0,00,00,00,00,FF,FF,
218038401,0CFF0081,true,Rx,0,8,00,00,10,00,00,FF,0A,10,
150940991,08FF2D3F,true,Rx,0,8,04,E1,00,00,00,00,FF,FF,
218038401,0CFF0081,true,Rx,0,8,00,00,10,00,00,FF,FC,0F,
218046505,0CFF2029,true,Rx,0,8,30,FF,FF,FF,FF,FF,FF,FF,
218038401,0CFF0081,true,Rx,0,8,00,00,10,00,00,FF,EC,0F,
218038657,0CFF0181,true,Rx,0,8,00,00,F4,F1,FF,FF,FF,FF,
218046505,0CFF2029,true,Rx,0,8,30,FF,FF,FF,FF,FF,FF,FF,
218038401,0CFF0081,true,Rx,0,8,00,00,10,00,00,FF,DC,0F,
150940991,08FF2D3F,true,Rx,0,8,04,E0,00,00,00,00,FF,FF,
150940991,08FF2D3F,true,Rx,0,8,04,E0,00,00,00,00,FF,FF,
218046505,0CFF2029,true,Rx,0,8,30,FF,FF,FF,FF,FF,FF,FF,
150940991,08FF2D3F,true,Rx,0,8,04,E0,00,00,00,00,FF,FF,
150940991,08FF2D3F,true,Rx,0,8,04,DE,00,00,00,00,FF,FF,
150940991,08FF2D3F,true,Rx,0,8,04,E0,00,00,00,00,FF,FF,
150940991,08FF2D3F,true,Rx,0,8,04,E0,00,00,00,00,FF,FF,
218046505,0CFF2029,true,Rx,0,8,30,FF,FF,FF,FF,FF,FF,FF,
150940991,08FF2D3F,true,Rx,0,8,04,E1,00,00,00,00,FF,FF,
150940991,08FF2D3F,true,Rx,0,8,04,DE,00,00,00,00,FF,FF,
150940991,08FF2D3F,true,Rx,0,8,04,DC,00,00,00,00,FF,FF,
150940991,08FF2D3F,true,Rx,0,8,04,E0,00,00,00,00,FF,FF,
218046505,0CFF2029,true,Rx,0,8,30,FF,FF,FF,FF,FF,FF,FF,
150940991,08FF2D3F,true,Rx,0,8,04,E0,00,00,00,00,FF,FF,
150940991,08FF2D3F,true,Rx,0,8,04,E0,00,00,00,00,FF,FF,
218038401,0CFF0081,true,Rx,0,8,00,00,10,00,00,FF,7C,0F,
218046505,0CFF2029,true,Rx,0,8,30,FF,FF,FF,FF,FF,FF,FF,
150940991,08FF2D3F,true,Rx,0,8,04,E0,00,00,00,00,FF,FF,
218038401,0CFF0081,true,Rx,0,8,00,00,10,00,00,FF,6E,0F,
150940991,08FF2D3F,true,Rx,0,8,04,E0,00,00,00,00,FF,FF,
218038657,0CFF0181,true,Rx,0,8,00,00,F4,F1,FF,FF,FF,FF,
150940991,08FF2D3F,true,Rx,0,8,04,E1,00,00,00,00,FF,FF,
150940991,08FF2D3F,true,Rx,0,8,04,E0,00,00,00,00,FF,FF,
352256385,14FF0181,true,Rx,0,8,03,35,34,30,30,31,30,31,
150940991,08FF2D3F,true,Rx,0,8,04,E0,00,00,00,00,FF,FF,
150940991,08FF2D3F,true,Rx,0,8,04,E0,00,00,00,00,FF,FF,
218046505,0CFF2029,true,Rx,0,8,30,FF,FF,FF,FF,FF,FF,FF,
150940991,08FF2D3F,true,Rx,0,8,04,DE,00,00,00,00,FF,FF,
150940991,08FF2D3F,true,Rx,0,8,04,DE,00,00,00,00,FF,FF,
150940991,08FF2D3F,true,Rx,0,8,04,E0,00,00,00,00,FF,FF,
150940991,08FF2D3F,true,Rx,0,8,04,DC,00,00,00,00,FF,FF,
218046505,0CFF2029,true,Rx,0,8,30,FF,FF,FF,FF,FF,FF,FF,
150940991,08FF2D3F,true,Rx,0,8,04,DE,00,00,00,00,FF,FF,
150940991,08FF2D3F,true,Rx,0,8,04,E1,00,00,00,00,FF,FF,
150940991,08FF2D3F,true,Rx,0,8,04,E1,00,00,00,00,FF,FF,
218046505,0CFF2029,true,Rx,0,8,30,FF,FF,FF,FF,FF,FF,FF,
352257597,14FF063D,true,Rx,0,8,E8,28,FF,FF,FF,FF,FF,FF,
218038401,0CFF0081,true,Rx,0,8,00,00,10,00,00,FF,04,0F,
218046505,0CFF2029,true,Rx,0,8,30,FF,FF,FF,FF,FF,FF,FF,
218038401,0CFF0081,true,Rx,0,8,00,00,10,00,00,FF,F6,0E,
150940991,08FF2D3F,true,Rx,0,8,04,E1,00,00,00,00,FF,FF,
218038401,0CFF0081,true,Rx,0,8,00,00,10,00,00,FF,E8,0E,
150940991,08FF2D3F,true,Rx,0,8,04,E0,00,00,00,00,FF,FF,
150940991,08FF2D3F,true,Rx,0,8,04,E1,00,00,00,00,FF,FF,
150940991,08FF2D3F,true,Rx,0,8,04,E0,00,00,00,00,FF,FF,
150940991,08FF2D3F,true,Rx,0,8,04,E0,00,00,00,00,FF,FF,
218038401,0CFF0081,true,Rx,0,8,00,00,10,00,00,FF,D0,0E,
150940991,08FF2D3F,true,Rx,0,8,04,DE,00,00,00,00,FF,FF,
150940991,08FF2D3F,true,Rx,0,8,04,DE,00,00,00,00,FF,FF,
150940991,08FF2D3F,true,Rx,0,8,04,E0,00,00,00,00,FF,FF,
218046505,0CFF2029,true,Rx,0,8,30,FF,FF,FF,FF,FF,FF,FF,
150940991,08FF2D3F,true,Rx,0,8,04,E0,00,00,00,00,FF,FF,
150940991,08FF2D3F,true,Rx,0,8,04,E0,00,00,00,00,FF,FF,
150940991,08FF2D3F,true,Rx,0,8,04,DE,00,00,00,00,FF,FF,
150940991,08FF2D3F,true,Rx,0,8,04,E1,00,00,00,00,FF,FF,
218046505,0CFF2029,true,Rx,0,8,30,FF,FF,FF,FF,FF,FF,FF,
218038401,0CFF0081,true,Rx,0,8,00,00,10,00,00,FF,9C,0E,
218046505,0CFF2029,true,Rx,0,8,30,FF,FF,FF,FF,FF,FF,FF,
218038401,0CFF0081,true,Rx,0,8,00,00,10,00,00,FF,90,0E,
218046505,0CFF2029,true,Rx,0,8,30,FF,FF,FF,FF,FF,FF,FF,
352257597,14FF063D,true,Rx,0,8,E8,28,FF,FF,FF,FF,FF,FF,
218038657,0CFF0181,true,Rx,0,8,00,00,F4,F1,FF,FF,FF,FF,
150940991,08FF2D3F,true,Rx,0,8,04,E0,00,00,00,00,FF,FF,
150940991,08FF2D3F,true,Rx,0,8,04,E3,00,00,00,00,FF,FF,
150940991,08FF2D3F,true,Rx,0,8,04,E0,00,00,00,00,FF,FF,
218038401,0CFF0081,true,Rx,0,8,00,00,10,00,00,FF,68,0E,
150940991,08FF2D3F,true,Rx,0,8,04,E1,00,00,00,00,FF,FF,
150940991,08FF2D3F,true,Rx,0,8,04,E1,00,00,00,00,FF,FF,
150940991,08FF2D3F,true,Rx,0,8,04,E0,00,00,00,00,FF,FF,
150940991,08FF2D3F,true,Rx,0,8,04,E1,00,00,00,00,FF,FF,
218038401,0CFF0081,true,Rx,0,8,00,00,10,00,00,FF,4E,0E,
150940991,08FF2D3F,true,Rx,0,8,04,E1,00,00,00,00,FF,FF,
150940991,08FF2D3F,true,Rx,0,8,04,DE,00,00,00,00,FF,FF,
150940991,08FF2D3F,true,Rx,0,8,04,DE,00,00,00,00,FF,FF,
150940991,08FF2D3F,true,Rx,0,8,04,E0,00,00,00,00,FF,FF,
218038401,0CFF0081,true,Rx,0,8,00,00,10,00,00,FF,36,0E,
218046505,0CFF2029,true,Rx,0,8,30,FF,FF,FF,FF,FF,FF,FF,
218038401,0CFF0081,true,Rx,0,8,00,00,10,00,00,FF,26,0E,
218046505,0CFF2029,true,Rx,0,8,30,FF,FF,FF,FF,FF,FF,FF,
150940991,08FF2D3F,true,Rx,0,8,04,E1,00,00,00,00,FF,FF,
218038401,0CFF0081,true,Rx,0,8,00,00,10,00,00,FF,1A,0E,
352256829,14FF033D,true,Rx,0,8,00,00,9A,9A,3C,C3,F0,F0,
218038657,0CFF0181,true,Rx,0,8,00,00,F4,F1,FF,FF,FF,FF,
150940991,08FF2D3F,true,Rx,0,8,04,E0,00,00,00,00,FF,FF,
218038401,0CFF0081,true,Rx,0,8,00,00,10,00,00,FF,04,0E,
150940991,08FF2D3F,true,Rx,0,8,04,E0,00,00,00,00,FF,FF,
150940991,08FF2D3F,true,Rx,0,8,04,DE,00,00,00,00,FF,FF,
150940991,08FF2D3F,true,Rx,0,8,04,E1,00,00,00,00,FF,FF,
150940991,08FF2D3F,true,Rx,0,8,04,DE,00,00,00,00,FF,FF,
218038401,0CFF0081,true,Rx,0,8,00,00,10,00,00,FF,EE,0D,
150940991,08FF2D3F,true,Rx,0,8,04,E0,00,00,00,00,FF,FF,
150940991,08FF2D3F,true,Rx,0,8,04,DE,00,00,00,00,FF,FF,
150940991,08FF2D3F,true,Rx,0,8,04,DE,00,00,00,00,FF,FF,
150940991,08FF2D3F,true,Rx,0,8,04,E0,00,00,00,00,FF,FF,
218038401,0CFF0081,true,Rx,0,8,00,00,10,00,00,FF,D8,0D,
150940991,08FF2D3F,true,Rx,0,8,04,E0,00,00,00,00,FF,FF,
150940991,08FF2D3F,true,Rx,0,8,04,E0,00,00,00,00,FF,FF,
218046505,0CFF2029,true,Rx,0,8,30,FF,FF,FF,FF,FF,FF,FF,
218038401,0CFF0081,true,Rx,0,8,00,00,10,00,00,FF,C0,0D,
218038657,0CFF0181,true,Rx,0,8,00,00,F4,F1,FF,FF,FF,FF,
218046505,0CFF2029,true,Rx,0,8,30,FF,FF,FF,FF,FF,FF,FF,
218038401,0CFF0081,true,Rx,0,8,00,00,10,00,00,FF,B6,0D,
150940991,08FF2D3F,true,Rx,0,8,04,E1,00,00,00,00,FF,FF,
150940991,08FF2D3F,true,Rx,0,8,04,E1,00,00,00,00,FF,FF,
218046505,0CFF2029,true,Rx,0,8,30,FF,FF,FF,FF,FF,FF,FF,
150940991,08FF2D3F,true,Rx,0,8,04,E0,00,00,00,00,FF,FF,
150940991,08FF2D3F,true,Rx,0,8,04,E0,00,00,00,00,FF,FF,
150940991,08FF2D3F,true,Rx,0,8,04,E1,00,00,00,00,FF,FF,
218038401,0CFF0081,true,Rx,0,8,00,00,10,00,00,FF,92,0D,
150940991,08FF2D3F,true,Rx,0,8,04,E0,00,00,00,00,FF,FF,
150940991,08FF2D3F,true,Rx,0,8,04,E1,00,00,00,00,FF,FF,
150940991,08FF2D3F,true,Rx,0,8,04,E0,00,00,00,00,FF,FF,
150940991,08FF2D3F,true,Rx,0,8,04,E0,00,00,00,00,FF,FF,
218038401,0CFF0081,true,Rx,0,8,00,00,10,00,00,FF,7A,0D,
150940991,08FF2D3F,true,Rx,0,8,04,DE,00,00,00,00,FF,FF,
150940991,08FF2D3F,true,Rx,0,8,04,DE,00,00,00,00,FF,FF,
150940991,08FF2D3F,true,Rx,0,8,04,E1,00,00,00,00,FF,FF,
218038401,0CFF0081,true,Rx,0,8,00,00,10,00,00,FF,64,0D,
218038657,0CFF0181,true,Rx,0,8,00,00,F4,F1,FF,FF,FF,FF,
218046505,0CFF2029,true,Rx,0,8,30,FF,FF,FF,FF,FF,FF,FF,
218038401,0CFF0081,true,Rx,0,8,00,00,10,00,00,FF,5C,0D,
218046505,0CFF2029,true,Rx,0,8,30,FF,FF,FF,FF,FF,FF,FF,
218038657,0CFF0181,true,Rx,0,8,00,00,F4,F1,FF,FF,FF,FF,
150940991,08FF2D3F,true,Rx,0,8,04,E0,00,00,00,00,FF,FF,
150940991,08FF2D3F,true,Rx,0,8,04,DE,00,00,00,00,FF,FF,
150940991,08FF2D3F,true,Rx,0,8,04,E0,00,00,00,00,FF,FF,
150940991,08FF2D3F,true,Rx,0,8,04,DE,00,00,00,00,FF,FF,
150940991,08FF2D3F,true,Rx,0,8,04,E1,00,00,00,00,FF,FF,
218046505,0CFF2029,true,Rx,0,8,30,FF,FF,FF,FF,FF,FF,FF,
150940991,08FF2D3F,true,Rx,0,8,04,E1,00,00,00,00,FF,FF,
150940991,08FF2D3F,true,Rx,0,8,04,E1,00,00,00,00,FF,FF,
150940991,08FF2D3F,true,Rx,0,8,04,E0,00,00,00,00,FF,FF,
150940991,08FF2D3F,true,Rx,0,8,04,E0,00,00,00,00,FF,FF,
218046505,0CFF2029,true,Rx,0,8,30,FF,FF,FF,FF,FF,FF,FF,
150940991,08FF2D3F,true,Rx,0,8,04,DE,00,00,00,00,FF,FF,
150940991,08FF2D3F,true,Rx,0,8,04,E0,00,00,00,00,FF,FF,
150940991,08FF2D3F,true,Rx,0,8,04,E1,00,00,00,00,FF,FF,
218038401,0CFF0081,true,Rx,0,8,00,00,10,00,00,FF,12,0D,
218046505,0CFF2029,true,Rx,0,8,30,FF,FF,FF,FF,FF,FF,FF,
218038401,0CFF0081,true,Rx,0,8,00,00,10,00,00,FF,08,0D,
218046505,0CFF2029,true,Rx,0,8,30,FF,FF,FF,FF,FF,FF,FF,
218038401,0CFF0081,true,Rx,0,8,00,00,10,00,00,FF,FC,0C,
218038657,0CFF0181,true,Rx,0,8,00,00,F4,F1,FF,FF,FF,FF,
352257597,14FF063D,true,Rx,0,8,E8,28,FF,FF,FF,FF,FF,FF,
150940991,08FF2D3F,true,Rx,0,8,04,E0,00,00,00,00,FF,FF,
150940991,08FF2D3F,true,Rx,0,8,04,E0,00,00,00,00,FF,FF,
150940991,08FF2D3F,true,Rx,0,8,04,E0,00,00,00,00,FF,FF,
218046505,0CFF2029,true,Rx,0,8,30,FF,FF,FF,FF,FF,FF,FF,
150940991,08FF2D3F,true,Rx,0,8,04,E0,00,00,00,00,FF,FF,
150940991,08FF2D3F,true,Rx,0,8,04,E0,00,00,00,00,FF,FF,
150940991,08FF2D3F,true,Rx,0,8,04,E0,00,00,00,00,FF,FF,
150940991,08FF2D3F,true,Rx,0,8,04,E0,00,00,00,00,FF,FF,
218046505,0CFF2029,true,Rx,0,8,30,FF,FF,FF,FF,FF,FF,FF,
150940991,08FF2D3F,true,Rx,0,8,04,DE,00,00,00,00,FF,FF,
150940991,08FF2D3F,true,Rx,0,8,04,DE,00,00,00,00,FF,FF,
150940991,08FF2D3F,true,Rx,0,8,04,E1,00,00,00,00,FF,FF,
150940991,08FF2D3F,true,Rx,0,8,04,E0,00,00,00,00,FF,FF,
218046505,0CFF2029,true,Rx,0,8,30,FF,FF,FF,FF,FF,FF,FF,
218038401,0CFF0081,true,Rx,0,8,00,00,10,00,00,FF,B2,0C,
218046505,0CFF2029,true,Rx,0,8,30,FF,FF,FF,FF,FF,FF,FF,
218038401,0CFF0081,true,Rx,0,8,00,00,10,00,00,FF,A6,0C,
218046505,0CFF2029,true,Rx,0,8,30,FF,FF,FF,FF,FF,FF,FF,
150940991,08FF2D3F,true,Rx,0,8,04,E1,00,00,00,00,FF,FF,
218038401,0CFF0081,true,Rx,0,8,00,00,10,00,00,FF,9C,0C,
150940991,08FF2D3F,true,Rx,0,8,04,E0,00,00,00,00,FF,FF,
352256129,14FF0081,true,Rx,0,8,15,FF,16,D1,17,D1,18,D0,
352256385,14FF0181,true,Rx,0,8,02,31,30,34,34,38,37,30,
150940991,08FF2D3F,true,Rx,0,8,04,DE,00,00,00,00,FF,FF,
150940991,08FF2D3F,true,Rx,0,8,04,E0,00,00,00,00,FF,FF,
150940991,08FF2D3F,true,Rx,0,8,04,E0,00,00,00,00,FF,FF,
150940991,08FF2D3F,true,Rx,0,8,04,E3,00,00,00,00,FF,FF,
218046505,0CFF2029,true,Rx,0,8,30,FF,FF,FF,FF,FF,FF,FF,
150940991,08FF2D3F,true,Rx,0,8,04,E0,00,00,00,00,FF,FF,
150940991,08FF2D3F,true,Rx,0,8,04,E0,00,00,00,00,FF,FF,
150940991,08FF2D3F,true,Rx,0,8,04,E0,00,00,00,00,FF,FF,
150940991,08FF2D3F,true,Rx,0,8,04,E0,00,00,00,00,FF,FF,
218046505,0CFF2029,true,Rx,0,8,30,FF,FF,FF,FF,FF,FF,FF,
150940991,08FF2D3F,true,Rx,0,8,04,E0,00,00,00,00,FF,FF,
218046505,0CFF2029,true,Rx,0,8,30,FF,FF,FF,FF,FF,FF,FF,
218038401,0CFF0081,true,Rx,0,8,00,00,10,00,00,FF,56,0C,
218046505,0CFF2029,true,Rx,0,8,30,FF,FF,FF,FF,FF,FF,FF,
150940991,08FF2D3F,true,Rx,0,8,04,E3,00,00,00,00,FF,FF,
218038401,0CFF0081,true,Rx,0,8,00,00,10,00,00,FF,4C,0C,
218046505,0CFF2029,true,Rx,0,8,30,FF,FF,FF,FF,FF,FF,FF,
218038657,0CFF0181,true,Rx,0,8,00,00,F4,F1,FF,FF,FF,FF,
150940991,08FF2D3F,true,Rx,0,8,04,DE,00,00,00,00,FF,FF,
218038401,0CFF0081,true,Rx,0,8,00,00,10,00,00,FF,3C,0C,
150940991,08FF2D3F,true,Rx,0,8,04,E0,00,00,00,00,FF,FF,
150940991,08FF2D3F,true,Rx,0,8,04,E0,00,00,00,00,FF,FF,
150940991,08FF2D3F,true,Rx,0,8,04,DE,00,00,00,00,FF,FF,
150940991,08FF2D3F,true,Rx,0,8,04,DE,00,00,00,00,FF,FF,
218038401,0CFF0081,true,Rx,0,8,00,00,10,00,00,FF,28,0C,
150940991,08FF2D3F,true,Rx,0,8,04,E0,00,00,00,00,FF,FF,
150940991,08FF2D3F,true,Rx,0,8,04,DE,00,00,00,00,FF,FF,
150940991,08FF2D3F,true,Rx,0,8,04,E0,00,00,00,00,FF,FF,
218046505,0CFF2029,true,Rx,0,8,30,FF,FF,FF,FF,FF,FF,FF,
150940991,08FF2D3F,true,Rx,0,8,04,DE,00,00,00,00,FF,FF,
150940991,08FF2D3F,true,Rx,0,8,04,E1,00,00,00,00,FF,FF,
150940991,08FF2D3F,true,Rx,0,8,04,DE,00,00,00,00,FF,FF,
218046505,0CFF2029,true,Rx,0,8,30,FF,FF,FF,FF,FF,FF,FF,
352256829,14FF033D,true,Rx,0,8,00,00,9A,9A,3C,C3,F0,F0,
218038401,0CFF0081,true,Rx,0,8,00,00,10,00,00,FF,04,0C,
218046505,0CFF2029,true,Rx,0,8,30,FF,FF,FF,FF,FF,FF,FF,
218038401,0CFF0081,true,Rx,0,8,00,00,10,00,00,FF,FC,0B,
150940991,08FF2D3F,true,Rx,0,8,04,DE,00,00,00,00,FF,FF,
218038401,0CFF0081,true,Rx,0,8,00,00,10,00,00,FF,F2,0B,
150940991,08FF2D3F,true,Rx,0,8,04,DE,00,00,00,00,FF,FF,
150940991,08FF2D3F,true,Rx,0,8,04,E0,00,00,00,00,FF,FF,
150940991,08FF2D3F,true,Rx,0,8,04,E0,00,00,00,00,FF,FF,
150940991,08FF2D3F,true,Rx,0,8,04,DC,00,00,00,00,FF,FF,
218038401,0CFF0081,true,Rx,0,8,00,00,10,00,00,FF,DE,0B,
150940991,08FF2D3F,true,Rx,0,8,04,E0,00,00,00,00,FF,FF,
150940991,08FF2D3F,true,Rx,0,8,04,E0,00,00,00,00,FF,FF,
150940991,08FF2D3F,true,Rx,0,8,04,E0,00,00,00,00,FF,FF,
150940991,08FF2D3F,true,Rx,0,8,04,DE,00,00,00,00,FF,FF,
218038401,0CFF0081,true,Rx,0,8,00,00,10,00,00,FF,CC,0B,
150940991,08FF2D3F,true,Rx,0,8,04,E0,00,00,00,00,FF,FF,
150940991,08FF2D3F,true,Rx,0,8,04,DE,00,00,00,00,FF,FF,
150940991,08FF2D3F,true,Rx,0,8,04,E0,00,00,00,00,FF,FF,
218038401,0CFF0081,true,Rx,0,8,00,00,10,00,00,FF,BA,0B,
218038657,0CFF0181,true,Rx,0,8,00,00,F4,F1,FF,FF,FF,FF,
218046505,0CFF2029,true,Rx,0,8,30,FF,FF,FF,FF,FF,FF,FF,
218038401,0CFF0081,true,Rx,0,8,00,00,10,00,00,FF,B0,0B,
218046505,0CFF2029,true,Rx,0,8,30,FF,FF,FF,FF,FF,FF,FF,
352256829,14FF033D,true,Rx,0,8,00,00,9A,9A,3C,C3,F0,F0,
218038657,0CFF0181,true,Rx,0,8,00,00,F4,F1,FF,FF,FF,FF,
150940991,08FF2D3F,true,Rx,0,8,04,E0,00,00,00,00,FF,FF,
150940991,08FF2D3F,true,Rx,0,8,04,E1,00,00,00,00,FF,FF,
150940991,08FF2D3F,true,Rx,0,8,04,E0,00,00,00,00,FF,FF,
218038401,0CFF0081,true,Rx,0,8,00,00,10,00,00,FF,94,0B,
150940991,08FF2D3F,true,Rx,0,8,04,DE,00,00,00,00,FF,FF,
150940991,08FF2D3F,true,Rx,0,8,04,E0,00,00,00,00,FF,FF,
150940991,08FF2D3F,true,Rx,0,8,04,E0,00,00,00,00,FF,FF,
150940991,08FF2D3F,true,Rx,0,8,04,E0,00,00,00,00,FF,FF,
218038401,0CFF0081,true,Rx,0,8,00,00,10,00,00,FF,80,0B,
150940991,08FF2D3F,true,Rx,0,8,04,DE,00,00,00,00,FF,FF,
150940991,08FF2D3F,true,Rx,0,8,04,E0,00,00,00,00,FF,FF,
150940991,08FF2D3F,true,Rx,0,8,04,E0,00,00,00,00,FF,FF,
150940991,08FF2D3F,true,Rx,0,8,04,DC,00,00,00,00,FF,FF,
218038401,0CFF0081,true,Rx,0,8,00,00,10,00,00,FF,70,0B,
218046505,0CFF2029,true,Rx,0,8,30,FF,FF,FF,FF,FF,FF,FF,
218038401,0CFF0081,true,Rx,0,8,00,00,10,00,00,FF,68,0B,
218046505,0CFF2029,true,Rx,0,8,30,FF,FF,FF,FF,FF,FF,FF,
218038401,0CFF0081,true,Rx,0,8,00,00,10,00,00,FF,60,0B,
218038657,0CFF0181,true,Rx,0,8,00,00,F4,F1,FF,FF,FF,FF,
150940991,08FF2D3F,true,Rx,0,8,04,E0,00,00,00,00,FF,FF,
218038657,0CFF0181,true,Rx,0,8,00,00,F4,F1,FF,FF,FF,FF,
150940991,08FF2D3F,true,Rx,0,8,04,E0,00,00,00,00,FF,FF,
352256385,14FF0181,true,Rx,0,8,09,01,00,9E,13,04,08,01,
150940991,08FF2D3F,true,Rx,0,8,04,DE,00,00,00,00,FF,FF,
150940991,08FF2D3F,true,Rx,0,8,04,DE,00,00,00,00,FF,FF,
150940991,08FF2D3F,true,Rx,0,8,04,E0,00,00,00,00,FF,FF,
150940991,08FF2D3F,true,Rx,0,8,04,E0,00,00,00,00,FF,FF,
218038401,0CFF0081,true,Rx,0,8,00,00,10,00,00,FF,3A,0B,
150940991,08FF2D3F,true,Rx,0,8,04,E1,00,00,00,00,FF,FF,
150940991,08FF2D3F,true,Rx,0,8,04,E1,00,00,00,00,FF,FF,
150940991,08FF2D3F,true,Rx,0,8,04,E1,00,00,00,00,FF,FF,
150940991,08FF2D3F,true,Rx,0,8,04,E0,00,00,00,00,FF,FF,
218038401,0CFF0081,true,Rx,0,8,00,00,10,00,00,FF,2C,0B,
150940991,08FF2D3F,true,Rx,0,8,04,E0,00,00,00,00,FF,FF,
218038401,0CFF0081,true,Rx,0,8,00,00,10,00,00,FF,22,0B,
218046505,0CFF2029,true,Rx,0,8,30,FF,FF,FF,FF,FF,FF,FF,
218038401,0CFF0081,true,Rx,0,8,00,00,10,00,00,FF,1C,0B,
218038657,0CFF0181,true,Rx,0,8,00,00,F4,F1,FF,FF,FF,FF,
218046505,0CFF2029,true,Rx,0,8,30,FF,FF,FF,FF,FF,FF,FF,
218038401,0CFF0081,true,Rx,0,8,00,00,10,00,00,FF,12,0B,
150940991,08FF2D3F,true,Rx,0,8,04,E0,00,00,00,00,FF,FF,
150940991,08FF2D3F,true,Rx,0,8,04,DE,00,00,00,00,FF,FF,
218046505,0CFF2029,true,Rx,0,8,30,FF,FF,FF,FF,FF,FF,FF,
150940991,08FF2D3F,true,Rx,0,8,04,E1,00,00,00,00,FF,FF,
150940991,08FF2D3F,true,Rx,0,8,04,E1,00,00,00,00,FF,FF,
150940991,08FF2D3F,true,Rx,0,8,04,E0,00,00,00,00,FF,FF,
150940991,08FF2D3F,true,Rx,0,8,04,E0,00,00,00,00,FF,FF,
218046505,0CFF2029,true,Rx,0,8,30,FF,FF,FF,FF,FF,FF,FF,
150940991,08FF2D3F,true,Rx,0,8,04,E0,00,00,00,00,FF,FF,
150940991,08FF2D3F,true,Rx,0,8,04,E0,00,00,00,00,FF,FF,
150940991,08FF2D3F,true,Rx,0,8,04,E0,00,00,00,00,FF,FF,
150940991,08FF2D3F,true,Rx,0,8,04,E1,00,00,00,00,FF,FF,
218046505,0CFF2029,true,Rx,0,8,30,FF,FF,FF,FF,FF,FF,FF,
150940991,08FF2D3F,true,Rx,0,8,04,DE,00,00,00,00,FF,FF,
150940991,08FF2D3F,true,Rx,0,8,04,E0,00,00,00,00,FF,FF,
218038401,0CFF0081,true,Rx,0,8,00,00,10,00,00,FF,D4,0A,
218038657,0CFF0181,true,Rx,0,8,00,00,F4,F1,FF,FF,FF,FF,
218046505,0CFF2029,true,Rx,0,8,30,FF,FF,FF,FF,FF,FF,FF,
218038401,0CFF0081,true,Rx,0,8,00,00,10,00,00,FF,CC,0A,
218046505,0CFF2029,true,Rx,0,8,30,FF,FF,FF,FF,FF,FF,FF,
218038657,0CFF0181,true,Rx,0,8,00,00,F4,F1,FF,FF,FF,FF,
150940991,08FF2D3F,true,Rx,0,8,04,E1,00,00,00,00,FF,FF,
150940991,08FF2D3F,true,Rx,0,8,04,E1,00,00,00,00,FF,FF,
150940991,08FF2D3F,true,Rx,0,8,04,E3,00,00,00,00,FF,FF,
150940991,08FF2D3F,true,Rx,0,8,04,E1,00,00,00,00,FF,FF,
150940991,08FF2D3F,true,Rx,0,8,04,E0,00,00,00,00,FF,FF,
218046505,0CFF2029,true,Rx,0,8,30,FF,FF,FF,FF,FF,FF,FF,
150940991,08FF2D3F,true,Rx,0,8,04,E0,00,00,00,00,FF,FF,
150940991,08FF2D3F,true,Rx,0,8,04,DE,00,00,00,00,FF,FF,
150940991,08FF2D3F,true,Rx,0,8,04,E1,00,00,00,00,FF,FF,
150940991,08FF2D3F,true,Rx,0,8,04,E0,00,00,00,00,FF,FF,
218046505,0CFF2029,true,Rx,0,8,30,FF,FF,FF,FF,FF,FF,FF,
150940991,08FF2D3F,true,Rx,0,8,04,E0,00,00,00,00,FF,FF,
150940991,08FF2D3F,true,Rx,0,8,04,E1,00,00,00,00,FF,FF,
150940991,08FF2D3F,true,Rx,0,8,04,E0,00,00,00,00,FF,FF,
218046505,0CFF2029,true,Rx,0,8,30,FF,FF,FF,FF,FF,FF,FF,
150940991,08FF2D3F,true,Rx,0,8,04,E0,00,00,00,00,FF,FF,
218038401,0CFF0081,true,Rx,0,8,00,00,10,00,00,FF,8E,0A,
218046505,0CFF2029,true,Rx,0,8,30,FF,FF,FF,FF,FF,FF,FF,
218038401,0CFF0081,true,Rx,0,8,00,00,10,00,00,FF,86,0A,
352256829,14FF033D,true,Rx,0,8,00,00,9A,9A,3C,C3,F0,F0,
150940991,08FF2D3F,true,Rx,0,8,04,E1,00,00,00,00,FF,FF,
352256129,14FF0081,true,Rx,0,8,1D,C0,1E,C0,1F,C0,20,D0,
150940991,08FF2D3F,true,Rx,0,8,04,DE,00,00,00,00,FF,FF,
150940991,08FF2D3F,true,Rx,0,8,04,E0,00,00,00,00,FF,FF,
218046505,0CFF2029,true,Rx,0,8,30,FF,FF,FF,FF,FF,FF,FF,
150940991,08FF2D3F,true,Rx,0,8,04,E0,00,00,00,00,FF,FF,
150940991,08FF2D3F,true,Rx,0,8,04,E1,00,00,00,00,FF,FF,
150940991,08FF2D3F,true,Rx,0,8,04,E0,00,00,00,00,FF,FF,
150940991,08FF2D3F,true,Rx,0,8,04,E1,00,00,00,00,FF,FF,
218046505,0CFF2029,true,Rx,0,8,30,FF,FF,FF,FF,FF,FF,FF,
150940991,08FF2D3F,true,Rx,0,8,04,E0,00,00,00,00,FF,FF,
150940991,08FF2D3F,true,Rx,0,8,04,DE,00,00,00,00,FF,FF,
150940991,08FF2D3F,true,Rx,0,8,04,E0,00,00,00,00,FF,FF,
150940991,08FF2D3F,true,Rx,0,8,04,E0,00,00,00,00,FF,FF,
218046505,0CFF2029,true,Rx,0,8,30,FF,FF,FF,FF,FF,FF,FF,
218038401,0CFF0081,true,Rx,0,8,00,00,10,00,00,FF,4E,0A,
218046505,0CFF2029,true,Rx,0,8,30,FF,FF,FF,FF,FF,FF,FF,
218038401,0CFF0081,true,Rx,0,8,00,00,10,00,00,FF,46,0A,
218046505,0CFF2029,true,Rx,0,8,30,FF,FF,FF,FF,FF,FF,FF,
150940991,08FF2D3F,true,Rx,0,8,04,DE,00,00,00,00,FF,FF,
218038657,0CFF0181,true,Rx,0,8,00,00,F4,F1,FF,FF,FF,FF,
150940991,08FF2D3F,true,Rx,0,8,04,E1,00,00,00,00,FF,FF,
150940991,08FF2D3F,true,Rx,0,8,04,DC,00,00,00,00,FF,FF,
150940991,08FF2D3F,true,Rx,0,8,04,E1,00,00,00,00,FF,FF,
218038401,0CFF0081,true,Rx,0,8,00,00,10,00,00,FF,32,0A,
150940991,08FF2D3F,true,Rx,0,8,04,DE,00,00,00,00,FF,FF,
150940991,08FF2D3F,true,Rx,0,8,04,E1,00,00,00,00,FF,FF,
150940991,08FF2D3F,true,Rx,0,8,04,E0,00,00,00,00,FF,FF,
150940991,08FF2D3F,true,Rx,0,8,04,DE,00,00,00,00,FF,FF,
218038401,0CFF0081,true,Rx,0,8,00,00,10,00,00,FF,24,0A,
150940991,08FF2D3F,true,Rx,0,8,04,E1,00,00,00,00,FF,FF,
150940991,08FF2D3F,true,Rx,0,8,04,E1,00,00,00,00,FF,FF,
150940991,08FF2D3F,true,Rx,0,8,04,E0,00,00,00,00,FF,FF,
218046505,0CFF2029,true,Rx,0,8,30,FF,FF,FF,FF,FF,FF,FF,
150940991,08FF2D3F,true,Rx,0,8,04,E1,00,00,00,00,FF,FF,
218046505,0CFF2029,true,Rx,0,8,30,FF,FF,FF,FF,FF,FF,FF,
218038401,0CFF0081,true,Rx,0,8,00,00,10,00,00,FF,10,0A,
218046505,0CFF2029,true,Rx,0,8,30,FF,FF,FF,FF,FF,FF,FF,
352257597,14FF063D,true,Rx,0,8,E8,28,FF,FF,FF,FF,FF,FF,
218038401,0CFF0081,true,Rx,0,8,00,00,10,00,00,FF,08,0A,
150940991,08FF2D3F,true,Rx,0,8,04,E0,00,00,00,00,FF,FF,
218038657,0CFF0181,true,Rx,0,8,00,00,F4,F1,FF,FF,FF,FF,
150940991,08FF2D3F,true,Rx,0,8,04,DE,00,00,00,00,FF,FF,
218038401,0CFF0081,true,Rx,0,8,00,00,10,00,00,FF,F6,09,
150940991,08FF2D3F,true,Rx,0,8,04,DE,00,00,00,00,FF,FF,
150940991,08FF2D3F,true,Rx,0,8,04,E1,00,00,00,00,FF,FF,
150940991,08FF2D3F,true,Rx,0,8,04,E0,00,00,00,00,FF,FF,
150940991,08FF2D3F,true,Rx,0,8,04,E3,00,00,00,00,FF,FF,
218038401,0CFF0081,true,Rx,0,8,00,00,10,00,00,FF,E8,09,
150940991,08FF2D3F,true,Rx,0,8,04,E1,00,00,00,00,FF,FF,
150940991,08FF2D3F,true,Rx,0,8,04,E0,00,00,00,00,FF,FF,
150940991,08FF2D3F,true,Rx,0,8,04,E1,00,00,00,00,FF,FF,
150940991,08FF2D3F,true,Rx,0,8,04,E0,00,00,00,00,FF,FF,
218038401,0CFF0081,true,Rx,0,8,00,00,10,00,00,FF,DC,09,
150940991,08FF2D3F,true,Rx,0,8,04,DE,00,00,00,00,FF,FF,
218038401,0CFF0081,true,Rx,0,8,00,00,10,00,00,FF,D6,09,
218046505,0CFF2029,true,Rx,0,8,30,FF,FF,FF,FF,FF,FF,FF,
218038401,0CFF0081,true,Rx,0,8,00,00,10,00,00,FF,D0,09,
218038657,0CFF0181,true,Rx,0,8,00,00,F4,F1,FF,FF,FF,FF,
218046505,0CFF2029,true,Rx,0,8,30,FF,FF,FF,FF,FF,FF,FF,
218038401,0CFF0081,true,Rx,0,8,00,00,10,00,00,FF,CA,09,
150940991,08FF2D3F,true,Rx,0,8,04,E0,00,00,00,00,FF,FF,
218038401,0CFF0081,true,Rx,0,8,00,00,10,00,00,FF,C2,09,
150940991,08FF2D3F,true,Rx,0,8,04,E3,00,00,00,00,FF,FF,
150940991,08FF2D3F,true,Rx,0,8,04,DE,00,00,00,00,FF,FF,
150940991,08FF2D3F,true,Rx,0,8,04,DE,00,00,00,00,FF,FF,
150940991,08FF2D3F,true,Rx,0,8,04,E0,00,00,00,00,FF,FF,
218038401,0CFF0081,true,Rx,0,8,00,00,10,00,00,FF,B2,09,
150940991,08FF2D3F,true,Rx,0,8,04,E0,00,00,00,00,FF,FF,
150940991,08FF2D3F,true,Rx,0,8,04,E1,00,00,00,00,FF,FF,
150940991,08FF2D3F,true,Rx,0,8,04,E0,00,00,00,00,FF,FF,
150940991,08FF2D3F,true,Rx,0,8,04,DE,00,00,00,00,FF,FF,
218038401,0CFF0081,true,Rx,0,8,00,00,10,00,00,FF,A2,09,
150940991,08FF2D3F,true,Rx,0,8,04,DE,00,00,00,00,FF,FF,
150940991,08FF2D3F,true,Rx,0,8,04,E0,00,00,00,00,FF,FF,
218046505,0CFF2029,true,Rx,0,8,30,FF,FF,FF,FF,FF,FF,FF,
218038401,0CFF0081,true,Rx,0,8,00,00,10,00,00,FF,94,09,
218038657,0CFF0181,true,Rx,0,8,00,00,F4,F1,FF,FF,FF,FF,
218046505,0CFF2029,true,Rx,0,8,30,FF,FF,FF,FF,FF,FF,FF,
218038401,0CFF0081,true,Rx,0,8,00,00,10,00,00,FF,8E,09,
218046505,0CFF2029,true,Rx,0,8,30,FF,FF,FF,FF,FF,FF,FF,
218038657,0CFF0181,true,Rx,0,8,00,00,F4,F1,FF,FF,FF,FF,
150940991,08FF2D3F,true,Rx,0,8,04,E0,00,00,00,00,FF,FF,
150940991,08FF2D3F,true,Rx,0,8,04,DE,00,00,00,00,FF,FF,
352256385,14FF0181,true,Rx,0,8,08,0F,09,01,00,02,00,01,
150940991,08FF2D3F,true,Rx,0,8,04,E0,00,00,00,00,FF,FF,
150940991,08FF2D3F,true,Rx,0,8,04,E0,00,00,00,00,FF,FF,
218046505,0CFF2029,true,Rx,0,8,30,FF,FF,FF,FF,FF,FF,FF,
150940991,08FF2D3F,true,Rx,0,8,04,E1,00,00,00,00,FF,FF,
150940991,08FF2D3F,true,Rx,0,8,04,E0,00,00,00,00,FF,FF,
150940991,08FF2D3F,true,Rx,0,8,04,DE,00,00,00,00,FF,FF,
218038401,0CFF0081,true,Rx,0,8,00,00,10,00,00,FF,6C,09,
150940991,08FF2D3F,true,Rx,0,8,04,DE,00,00,00,00,FF,FF,
150940991,08FF2D3F,true,Rx,0,8,04,E0,00,00,00,00,FF,FF,
150940991,08FF2D3F,true,Rx,0,8,04,E0,00,00,00,00,FF,FF,
150940991,08FF2D3F,true,Rx,0,8,04,DE,00,00,00,00,FF,FF,
218038401,0CFF0081,true,Rx,0,8,00,00,10,00,00,FF,60,09,
218046505,0CFF2029,true,Rx,0,8,30,FF,FF,FF,FF,FF,FF,FF,
218038401,0CFF0081,true,Rx,0,8,00,00,10,00,00,FF,58,09,
218046505,0CFF2029,true,Rx,0,8,30,FF,FF,FF,FF,FF,FF,FF,
218038401,0CFF0081,true,Rx,0,8,00,00,10,00,00,FF,50,09,
218038657,0CFF0181,true,Rx,0,8,00,00,F4,F1,FF,FF,FF,FF,
150940991,08FF2D3F,true,Rx,0,8,04,E0,00,00,00,00,FF,FF,
150940991,08FF2D3F,true,Rx,0,8,04,E1,00,00,00,00,FF,FF,
150940991,08FF2D3F,true,Rx,0,8,04,DC,00,00,00,00,FF,FF,
150940991,08FF2D3F,true,Rx,0,8,04,DE,00,00,00,00,FF,FF,
218046505,0CFF2029,true,Rx,0,8,30,FF,FF,FF,FF,FF,FF,FF,
150940991,08FF2D3F,true,Rx,0,8,04,E1,00,00,00,00,FF,FF,
150940991,08FF2D3F,true,Rx,0,8,04,E0,00,00,00,00,FF,FF,
150940991,08FF2D3F,true,Rx,0,8,04,E0,00,00,00,00,FF,FF,
150940991,08FF2D3F,true,Rx,0,8,04,DE,00,00,00,00,FF,FF,
218046505,0CFF2029,true,Rx,0,8,30,FF,FF,FF,FF,FF,FF,FF,
150940991,08FF2D3F,true,Rx,0,8,04,DE,00,00,00,00,FF,FF,
150940991,08FF2D3F,true,Rx,0,8,04,E0,00,00,00,00,FF,FF,
150940991,08FF2D3F,true,Rx,0,8,04,E0,00,00,00,00,FF,FF,
218038401,0CFF0081,true,Rx,0,8,00,00,10,00,00,FF,2A,09,
218046505,0CFF2029,true,Rx,0,8,30,FF,FF,FF,FF,FF,FF,FF,
218038401,0CFF0081,true,Rx,0,8,00,00,10,00,00,FF,22,09,
218046505,0CFF2029,true,Rx,0,8,30,FF,FF,FF,FF,FF,FF,FF,
218038401,0CFF0081,true,Rx,0,8,00,00,10,00,00,FF,1E,09,
218038657,0CFF0181,true,Rx,0,8,00,00,F4,F1,FF,FF,FF,FF,
218046505,0CFF2029,true,Rx,0,8,30,FF,FF,FF,FF,FF,FF,FF,
218038657,0CFF0181,true,Rx,0,8,00,00,F4,F1,FF,FF,FF,FF,
150940991,08FF2D3F,true,Rx,0,8,04,E0,00,00,00,00,FF,FF,
150940991,08FF2D3F,true,Rx,0,8,04,DE,00,00,00,00,FF,FF,
218046505,0CFF2029,true,Rx,0,8,30,FF,FF,FF,FF,FF,FF,FF,
150940991,08FF2D3F,true,Rx,0,8,04,E0,00,00,00,00,FF,FF,
150940991,08FF2D3F,true,Rx,0,8,04,E1,00,00,00,00,FF,FF,
150940991,08FF2D3F,true,Rx,0,8,04,E0,00,00,00,00,FF,FF,
150940991,08FF2D3F,true,Rx,0,8,04,E0,00,00,00,00,FF,FF,
218046505,0CFF2029,true,Rx,0,8,30,FF,FF,FF,FF,FF,FF,FF,
150940991,08FF2D3F,true,Rx,0,8,04,E1,00,00,00,00,FF,FF,
150940991,08FF2D3F,true,Rx,0,8,04,E1,00,00,00,00,FF,FF,
150940991,08FF2D3F,true,Rx,0,8,04,E0,00,00,00,00,FF,FF,
150940991,08FF2D3F,true,Rx,0,8,04,E0,00,00,00,00,FF,FF,
218046505,0CFF2029,true,Rx,0,8,30,FF,FF,FF,FF,FF,FF,FF,
150940991,08FF2D3F,true,Rx,0,8,04,E0,00,00,00,00,FF,FF,
218046505,0CFF2029,true,Rx,0,8,30,FF,FF,FF,FF,FF,FF,FF,
218038401,0CFF0081,true,Rx,0,8,00,00,10,00,00,FF,F0,08,
218046505,0CFF2029,true,Rx,0,8,30,FF,FF,FF,FF,FF,FF,FF,
150940991,08FF2D3F,true,Rx,0,8,04,E3,00,00,00,00,FF,FF,
218038401,0CFF0081,true,Rx,0,8,00,00,10,00,00,FF,E8,08,
352256829,14FF033D,true,Rx,0,8,00,00,9A,9A,3C,C3,F0,F0,
352256129,14FF0081,true,Rx,0,8,25,D1,26,D1,FF,FF,FF,FF,
352256385,14FF0181,true,Rx,0,8,00,30,30,30,31,34,30,35,
150940991,08FF2D3F,true,Rx,0,8,04,E1,00,00,00,00,FF,FF,
150940991,08FF2D3F,true,Rx,0,8,04,E1,00,00,00,00,FF,FF,
150940991,08FF2D3F,true,Rx,0,8,04,E3,00,00,00,00,FF,FF,
150940991,08FF2D3F,true,Rx,0,8,04,E1,00,00,00,00,FF,FF,
218046505,0CFF2029,true,Rx,0,8,30,FF,FF,FF,FF,FF,FF,FF,
150940991,08FF2D3F,true,Rx,0,8,04,E1,00,00,00,00,FF,FF,
150940991,08FF2D3F,true,Rx,0,8,04,E1,00,00,00,00,FF,FF,
150940991,08FF2D3F,true,Rx,0,8,04,E3,00,00,00,00,FF,FF,
150940991,08FF2D3F,true,Rx,0,8,04,E1,00,00,00,00,FF,FF,
218046505,0CFF2029,true,Rx,0,8,30,FF,FF,FF,FF,FF,FF,FF,
150940991,08FF2D3F,true,Rx,0,8,04,E3,00,00,00,00,FF,FF,
150940991,08FF2D3F,true,Rx,0,8,04,E1,00,00,00,00,FF,FF,
218038401,0CFF0081,true,Rx,0,8,00,00,10,00,00,FF,9C,08,
218046505,0CFF2029,true,Rx,0,8,30,FF,FF,FF,FF,FF,FF,FF,
150940991,08FF2D3F,true,Rx,0,8,04,E0,00,00,00,00,FF,FF,
218038401,0CFF0081,true,Rx,0,8,00,00,10,00,00,FF,94,08,
218046505,0CFF2029,true,Rx,0,8,30,FF,FF,FF,FF,FF,FF,FF,
218038657,0CFF0181,true,Rx,0,8,00,00,F4,F1,FF,FF,FF,FF,
150940991,08FF2D3F,true,Rx,0,8,04,E3,00,00,00,00,FF,FF,
218038401,0CFF0081,true,Rx,0,8,00,00,10,00,00,FF,90,08,
150940991,08FF2D3F,true,Rx,0,8,04,E3,00,00,00,00,FF,FF,
150940991,08FF2D3F,true,Rx,0,8,04,E1,00,00,00,00,FF,FF,
150940991,08FF2D3F,true,Rx,0,8,04,E3,00,00,00,00,FF,FF,
150940991,08FF2D3F,true,Rx,0,8,04,E1,00,00,00,00,FF,FF,
218038401,0CFF0081,true,Rx,0,8,00,00,10,00,00,FF,82,08,
150940991,08FF2D3F,true,Rx,0,8,04,E4,00,00,00,00,FF,FF,
150940991,08FF2D3F,true,Rx,0,8,04,E3,00,00,00,00,FF,FF,
150940991,08FF2D3F,true,Rx,0,8,04,E1,00,00,00,00,FF,FF,
218046505,0CFF2029,true,Rx,0,8,30,FF,FF,FF,FF,FF,FF,FF,
150940991,08FF2D3F,true,Rx,0,8,04,E3,00,00,00,00,FF,FF,
150940991,08FF2D3F,true,Rx,0,8,04,E1,00,00,00,00,FF,FF,
150940991,08FF2D3F,true,Rx,0,8,04,E1,00,00,00,00,FF,FF,
218046505,0CFF2029,true,Rx,0,8,30,FF,FF,FF,FF,FF,FF,FF,
352256829,14FF033D,true,Rx,0,8,00,00,9A,9A,3C,C3,F0,F0,
218038401,0CFF0081,true,Rx,0,8,00,00,10,00,00,FF,74,08,
218046505,0CFF2029,true,Rx,0,8,30,FF,FF,FF,FF,FF,FF,FF,
218038401,0CFF0081,true,Rx,0,8,00,00,10,00,00,FF,62,08,
218046505,0CFF2029,true,Rx,0,8,30,FF,FF,FF,FF,FF,FF,FF,
150940991,08FF2D3F,true,Rx,0,8,04,E3,00,00,00,00,FF,FF,
150940991,08FF2D3F,true,Rx,0,8,04,E3,00,00,00,00,FF,FF,
150940991,08FF2D3F,true,Rx,0,8,04,E1,00,00,00,00,FF,FF,
150940991,08FF2D3F,true,Rx,0,8,04,E1,00,00,00,00,FF,FF,
150940991,08FF2D3F,true,Rx,0,8,04,E0,00,00,00,00,FF,FF,
218038401,0CFF0081,true,Rx,0,8,00,00,10,00,00,FF,4C,08,
150940991,08FF2D3F,true,Rx,0,8,04,E0,00,00,00,00,FF,FF,
150940991,08FF2D3F,true,Rx,0,8,04,E1,00,00,00,00,FF,FF,
150940991,08FF2D3F,true,Rx,0,8,04,E0,00,00,00,00,FF,FF,
150940991,08FF2D3F,true,Rx,0,8,04,E1,00,00,00,00,FF,FF,
218038401,0CFF0081,true,Rx,0,8,00,00,10,00,00,FF,4C,08,
150940991,08FF2D3F,true,Rx,0,8,04,E1,00,00,00,00,FF,FF,
150940991,08FF2D3F,true,Rx,0,8,04,E1,00,00,00,00,FF,FF,
150940991,08FF2D3F,true,Rx,0,8,04,E0,00,00,00,00,FF,FF,
150940991,08FF2D3F,true,Rx,0,8,04,DE,00,00,00,00,FF,FF,
218038401,0CFF0081,true,Rx,0,8,00,00,10,00,00,FF,46,08,
218046505,0CFF2029,true,Rx,0,8,30,FF,FF,FF,FF,FF,FF,FF,
218038401,0CFF0081,true,Rx,0,8,00,00,10,00,00,FF,40,08,
218046505,0CFF2029,true,Rx,0,8,30,FF,FF,FF,FF,FF,FF,FF,
352256829,14FF033D,true,Rx,0,8,00,00,9A,9A,3C,C3,F0,F2,
218038401,0CFF0081,true,Rx,0,8,00,00,10,00,00,FF,34,08,
150940991,08FF2D3F,true,Rx,0,8,04,E0,00,00,00,00,FF,FF,
150940991,08FF2D3F,true,Rx,0,8,04,E1,00,00,00,00,FF,FF,
150940991,08FF2D3F,true,Rx,0,8,04,E0,00,00,00,00,FF,FF,
218038401,0CFF0081,true,Rx,0,8,00,00,10,00,00,FF,2C,08,
150940991,08FF2D3F,true,Rx,0,8,04,E0,00,00,00,00,FF,FF,
150940991,08FF2D3F,true,Rx,0,8,04,E0,00,00,00,00,FF,FF,
150940991,08FF2D3F,true,Rx,0,8,04,DE,00,00,00,00,FF,FF,
150940991,08FF2D3F,true,Rx,0,8,04,E0,00,00,00,00,FF,FF,
218038401,0CFF0081,true,Rx,0,8,00,00,10,00,00,FF,28,08,
150940991,08FF2D3F,true,Rx,0,8,04,E0,00,00,00,00,FF,FF,
150940991,08FF2D3F,true,Rx,0,8,04,E0,00,00,00,00,FF,FF,
150940991,08FF2D3F,true,Rx,0,8,04,E1,00,00,00,00,FF,FF,
150940991,08FF2D3F,true,Rx,0,8,04,E0,00,00,00,00,FF,FF,
218038401,0CFF0081,true,Rx,0,8,00,00,10,00,00,FF,24,08,
218046505,0CFF2029,true,Rx,0,8,30,FF,FF,FF,FF,FF,FF,FF,
218038401,0CFF0081,true,Rx,0,8,00,00,10,00,00,FF,22,08,
218046505,0CFF2029,true,Rx,0,8,30,FF,FF,FF,FF,FF,FF,FF,
218038401,0CFF0081,true,Rx,0,8,00,00,10,00,00,FF,20,08,
218038657,0CFF0181,true,Rx,0,8,00,00,F4,F1,FF,FF,FF,FF,
218046505,0CFF2029,true,Rx,0,8,30,FF,FF,FF,FF,FF,FF,FF,
218038657,0CFF0181,true,Rx,0,8,00,00,F4,F1,FF,FF,FF,FF,
150940991,08FF2D3F,true,Rx,0,8,04,DE,00,00,00,00,FF,FF,
352256385,14FF0181,true,Rx,0,8,07,44,06,21,9C,0E,1F,01,
150940991,08FF2D3F,true,Rx,0,8,04,E0,00,00,00,00,FF,FF,
150940991,08FF2D3F,true,Rx,0,8,04,DC,00,00,00,00,FF,FF,
150940991,08FF2D3F,true,Rx,0,8,04,DE,00,00,00,00,FF,FF,
150940991,08FF2D3F,true,Rx,0,8,04,DE,00,00,00,00,FF,FF,
218038401,0CFF0081,true,Rx,0,8,00,00,10,00,00,FF,10,08,
150940991,08FF2D3F,true,Rx,0,8,04,DE,00,00,00,00,FF,FF,
150940991,08FF2D3F,true,Rx,0,8,04,DE,00,00,00,00,FF,FF,
150940991,08FF2D3F,true,Rx,0,8,04,DE,00,00,00,00,FF,FF,
150940991,08FF2D3F,true,Rx,0,8,04,E0,00,00,00,00,FF,FF,
218038401,0CFF0081,true,Rx,0,8,00,00,10,00,00,FF,0A,08,
150940991,08FF2D3F,true,Rx,0,8,04,DE,00,00,00,00,FF,FF,
150940991,08FF2D3F,true,Rx,0,8,04,E0,00,00,00,00,FF,FF,
218046505,0CFF2029,true,Rx,0,8,30,FF,FF,FF,FF,FF,FF,FF,
218038401,0CFF0081,true,Rx,0,8,00,00,10,00,00,FF,04,08,
218038657,0CFF0181,true,Rx,0,8,00,00,F4,F1,FF,FF,FF,FF,
218046505,0CFF2029,true,Rx,0,8,30,FF,FF,FF,FF,FF,FF,FF,
218038401,0CFF0081,true,Rx,0,8,00,00,10,00,00,FF,F8,07,
150940991,08FF2D3F,true,Rx,0,8,04,DC,00,00,00,00,FF,FF,
150940991,08FF2D3F,true,Rx,0,8,04,DC,00,00,00,00,FF,FF,
218046505,0CFF2029,true,Rx,0,8,30,FF,FF,FF,FF,FF,FF,FF,
150940991,08FF2D3F,true,Rx,0,8,04,DE,00,00,00,00,FF,FF,
150940991,08FF2D3F,true,Rx,0,8,04,DB,00,00,00,00,FF,FF,
150940991,08FF2D3F,true,Rx,0,8,04,DC,00,00,00,00,FF,FF,
150940991,08FF2D3F,true,Rx,0,8,04,DE,00,00,00,00,FF,FF,
218046505,0CFF2029,true,Rx,0,8,30,FF,FF,FF,FF,FF,FF,FF,
150940991,08FF2D3F,true,Rx,0,8,04,DC,00,00,00,00,FF,FF,
150940991,08FF2D3F,true,Rx,0,8,04,DE,00,00,00,00,FF,FF,
150940991,08FF2D3F,true,Rx,0,8,04,DE,00,00,00,00,FF,FF,
150940991,08FF2D3F,true,Rx,0,8,04,DE,00,00,00,00,FF,FF,
218046505,0CFF2029,true,Rx,0,8,30,FF,FF,FF,FF,FF,FF,FF,
150940991,08FF2D3F,true,Rx,0,8,04,DE,00,00,00,00,FF,FF,
150940991,08FF2D3F,true,Rx,0,8,04,DC,00,00,00,00,FF,FF,
218038401,0CFF0081,true,Rx,0,8,00,00,10,00,00,FF,F0,07,
218038657,0CFF0181,true,Rx,0,8,00,00,F4,F1,FF,FF,FF,FF,
218046505,0CFF2029,true,Rx,0,8,30,FF,FF,FF,FF,FF,FF,FF,
218038401,0CFF0081,true,Rx,0,8,00,00,10,00,00,FF,DC,07,
218046505,0CFF2029,true,Rx,0,8,30,FF,FF,FF,FF,FF,FF,FF,
218038401,0CFF0081,true,Rx,0,8,00,00,10,00,00,FF,DE,07,
218038657,0CFF0181,true,Rx,0,8,00,00,F4,F1,FF,FF,FF,FF,
150940991,08FF2D3F,true,Rx,0,8,04,DE,00,00,00,00,FF,FF,
150940991,08FF2D3F,true,Rx,0,8,04,DE,00,00,00,00,FF,FF,
150940991,08FF2D3F,true,Rx,0,8,04,DE,00,00,00,00,FF,FF,
150940991,08FF2D3F,true,Rx,0,8,04,DC,00,00,00,00,FF,FF,
218046505,0CFF2029,true,Rx,0,8,30,FF,FF,FF,FF,FF,FF,FF,
150940991,08FF2D3F,true,Rx,0,8,04,DB,00,00,00,00,FF,FF,
150940991,08FF2D3F,true,Rx,0,8,04,DE,00,00,00,00,FF,FF,
150940991,08FF2D3F,true,Rx,0,8,04,DC,00,00,00,00,FF,FF,
150940991,08FF2D3F,true,Rx,0,8,04,DC,00,00,00,00,FF,FF,
218046505,0CFF2029,true,Rx,0,8,30,FF,FF,FF,FF,FF,FF,FF,
150940991,08FF2D3F,true,Rx,0,8,04,DC,00,00,00,00,FF,FF,
150940991,08FF2D3F,true,Rx,0,8,04,DC,00,00,00,00,FF,FF,
150940991,08FF2D3F,true,Rx,0,8,04,DC,00,00,00,00,FF,FF,
218046505,0CFF2029,true,Rx,0,8,30,FF,FF,FF,FF,FF,FF,FF,
150940991,08FF2D3F,true,Rx,0,8,04,DC,00,00,00,00,FF,FF,
218038401,0CFF0081,true,Rx,0,8,00,00,10,00,00,FF,BC,07,
218046505,0CFF2029,true,Rx,0,8,30,FF,FF,FF,FF,FF,FF,FF,
218038401,0CFF0081,true,Rx,0,8,00,00,10,00,00,FF,BC,07,
218046505,0CFF2029,true,Rx,0,8,30,FF,FF,FF,FF,FF,FF,FF,
352256829,14FF033D,true,Rx,0,8,00,00,9A,9A,3C,C3,F0,F4,
218038657,0CFF0181,true,Rx,0,8,00,00,F4,F1,FF,FF,FF,FF,
150940991,08FF2D3F,true,Rx,0,8,04,DE,00,00,00,00,FF,FF,
150940991,08FF2D3F,true,Rx,0,8,04,DC,00,00,00,00,FF,FF,
218046505,0CFF2029,true,Rx,0,8,30,FF,FF,FF,FF,FF,FF,FF,
150940991,08FF2D3F,true,Rx,0,8,04,DC,00,00,00,00,FF,FF,
150940991,08FF2D3F,true,Rx,0,8,04,DC,00,00,00,00,FF,FF,
150940991,08FF2D3F,true,Rx,0,8,04,DC,00,00,00,00,FF,FF,
150940991,08FF2D3F,true,Rx,0,8,04,DC,00,00,00,00,FF,FF,
218046505,0CFF2029,true,Rx,0,8,30,FF,FF,FF,FF,FF,FF,FF,
150940991,08FF2D3F,true,Rx,0,8,04,DE,00,00,00,00,FF,FF,
150940991,08FF2D3F,true,Rx,0,8,04,E0,00,00,00,00,FF,FF,
150940991,08FF2D3F,true,Rx,0,8,04,DE,00,00,00,00,FF,FF,
150940991,08FF2D3F,true,Rx,0,8,04,DE,00,00,00,00,FF,FF,
218046505,0CFF2029,true,Rx,0,8,30,FF,FF,FF,FF,FF,FF,FF,
218038401,0CFF0081,true,Rx,0,8,00,00,10,00,00,FF,96,07,
218046505,0CFF2029,true,Rx,0,8,30,FF,FF,FF,FF,FF,FF,FF,
218038401,0CFF0081,true,Rx,0,8,00,00,10,00,00,FF,94,07,
218046505,0CFF2029,true,Rx,0,8,30,FF,FF,FF,FF,FF,FF,FF,
150940991,08FF2D3F,true,Rx,0,8,04,DE,00,00,00,00,FF,FF,
218038401,0CFF0081,true,Rx,0,8,00,00,10,00,00,FF,92,07,
150940991,08FF2D3F,true,Rx,0,8,04,E0,00,00,00,00,FF,FF,
150940991,08FF2D3F,true,Rx,0,8,04,DE,00,00,00,00,FF,FF,
150940991,08FF2D3F,true,Rx,0,8,04,DC,00,00,00,00,FF,FF,
218038401,0CFF0081,true,Rx,0,8,00,00,10,00,00,FF,86,07,
150940991,08FF2D3F,true,Rx,0,8,04,E0,00,00,00,00,FF,FF,
150940991,08FF2D3F,true,Rx,0,8,04,DE,00,00,00,00,FF,FF,
150940991,08FF2D3F,true,Rx,0,8,04,DE,00,00,00,00,FF,FF,
150940991,08FF2D3F,true,Rx,0,8,04,DE,00,00,00,00,FF,FF,
218038401,0CFF0081,true,Rx,0,8,00,00,10,00,00,FF,7C,07,
150940991,08FF2D3F,true,Rx,0,8,04,E0,00,00,00,00,FF,FF,
150940991,08FF2D3F,true,Rx,0,8,04,E1,00,00,00,00,FF,FF,
150940991,08FF2D3F,true,Rx,0,8,04,E0,00,00,00,00,FF,FF,
218046505,0CFF2029,true,Rx,0,8,30,FF,FF,FF,FF,FF,FF,FF,
150940991,08FF2D3F,true,Rx,0,8,04,DE,00,00,00,00,FF,FF,
150940991,08FF2D3F,true,Rx,0,8,04,DC,00,00,00,00,FF,FF,
218038401,0CFF0081,true,Rx,0,8,00,00,10,00,00,FF,70,07,
218046505,0CFF2029,true,Rx,0,8,30,FF,FF,FF,FF,FF,FF,FF,
352257597,14FF063D,true,Rx,0,8,E8,28,FF,FF,FF,FF,FF,FF,
218038401,0CFF0081,true,Rx,0,8,00,00,10,00,00,FF,6E,07,
218046505,0CFF2029,true,Rx,0,8,30,FF,FF,FF,FF,FF,FF,FF,
218038657,0CFF0181,true,Rx,0,8,00,00,F4,F1,FF,FF,FF,FF,
150940991,08FF2D3F,true,Rx,0,8,04,E0,00,00,00,00,FF,FF,
218038401,0CFF0081,true,Rx,0,8,00,00,10,00,00,FF,64,07,
150940991,08FF2D3F,true,Rx,0,8,04,DE,00,00,00,00,FF,FF,
150940991,08FF2D3F,true,Rx,0,8,04,E1,00,00,00,00,FF,FF,
150940991,08FF2D3F,true,Rx,0,8,04,E1,00,00,00,00,FF,FF,
150940991,08FF2D3F,true,Rx,0,8,04,E0,00,00,00,00,FF,FF,
218038401,0CFF0081,true,Rx,0,8,00,00,10,00,00,FF,58,07,
150940991,08FF2D3F,true,Rx,0,8,04,E0,00,00,00,00,FF,FF,
150940991,08FF2D3F,true,Rx,0,8,04,E0,00,00,00,00,FF,FF,
150940991,08FF2D3F,true,Rx,0,8,04,E0,00,00,00,00,FF,FF,
150940991,08FF2D3F,true,Rx,0,8,04,E0,00,00,00,00,FF,FF,
218038401,0CFF0081,true,Rx,0,8,00,00,10,00,00,FF,4E,07,
150940991,08FF2D3F,true,Rx,0,8,04,E1,00,00,00,00,FF,FF,
150940991,08FF2D3F,true,Rx,0,8,04,E0,00,00,00,00,FF,FF,
218046505,0CFF2029,true,Rx,0,8,30,FF,FF,FF,FF,FF,FF,FF,
218038401,0CFF0081,true,Rx,0,8,00,00,10,00,00,FF,4A,07,
218038657,0CFF0181,true,Rx,0,8,00,00,F4,F1,FF,FF,FF,FF,
218046505,0CFF2029,true,Rx,0,8,30,FF,FF,FF,FF,FF,FF,FF,
218038401,0CFF0081,true,Rx,0,8,00,00,10,00,00,FF,44,07,
352257597,14FF063D,true,Rx,0,8,E8,28,FF,FF,FF,FF,FF,FF,
150940991,08FF2D3F,true,Rx,0,8,04,E1,00,00,00,00,FF,FF,
150940991,08FF2D3F,true,Rx,0,8,04,E1,00,00,00,00,FF,FF,
150940991,08FF2D3F,true,Rx,0,8,04,E1,00,00,00,00,FF,FF,
150940991,08FF2D3F,true,Rx,0,8,04,E1,00,00,00,00,FF,FF,
150940991,08FF2D3F,true,Rx,0,8,04,E0,00,00,00,00,FF,FF,
218038401,0CFF0081,true,Rx,0,8,00,00,10,00,41,FF,38,07,
150940991,08FF2D3F,true,Rx,0,8,04,E0,00,00,00,00,FF,FF,
150940991,08FF2D3F,true,Rx,0,8,04,E0,00,00,00,00,FF,FF,
150940991,08FF2D3F,true,Rx,0,8,04,E0,00,00,00,00,FF,FF,
150940991,08FF2D3F,true,Rx,0,8,04,E3,00,00,00,00,FF,FF,
218038401,0CFF0081,true,Rx,0,8,00,00,10,00,41,FF,2E,07,
150940991,08FF2D3F,true,Rx,0,8,04,E0,00,00,00,00,FF,FF,
150940991,08FF2D3F,true,Rx,0,8,04,E0,00,00,00,00,FF,FF,
150940991,08FF2D3F,true,Rx,0,8,04,E1,00,00,00,00,FF,FF,
218038401,0CFF0081,true,Rx,0,8,00,00,10,00,41,FF,26,07,
218038657,0CFF0181,true,Rx,0,8,00,00,F4,00,FF,FF,FF,FF,
218046505,0CFF2029,true,Rx,0,8,30,FF,FF,FF,FF,FF,FF,FF,
218038401,0CFF0081,true,Rx,0,8,00,00,10,00,41,FF,2A,07,
218046505,0CFF2029,true,Rx,0,8,30,FF,FF,FF,FF,FF,FF,FF,
218038401,0CFF0081,true,Rx,0,8,00,00,10,00,41,FF,22,07,
218038657,0CFF0181,true,Rx,0,8,00,00,F4,00,FF,FF,FF,FF,
150940991,08FF2D3F,true,Rx,0,8,04,E3,00,00,00,00,FF,FF,
352256129,14FF0081,true,Rx,0,8,21,D1,22,D1,23,D1,24,D1,
150940991,08FF2D3F,true,Rx,0,8,04,E1,00,00,00,00,FF,FF,
150940991,08FF2D3F,true,Rx,0,8,04,E0,00,00,00,00,FF,FF,
218046505,0CFF2029,true,Rx,0,8,30,FF,FF,FF,FF,FF,FF,FF,
150940991,08FF2D3F,true,Rx,0,8,04,DC,00,00,00,00,FF,FF,
150940991,08FF2D3F,true,Rx,0,8,04,DE,00,00,00,00,FF,FF,
150940991,08FF2D3F,true,Rx,0,8,04,E1,00,00,00,00,FF,FF,
218038401,0CFF0081,true,Rx,0,8,00,00,10,00,41,FF,18,07,
150940991,08FF2D3F,true,Rx,0,8,04,E1,00,00,00,00,FF,FF,
150940991,08FF2D3F,true,Rx,0,8,04,E3,00,00,00,00,FF,FF,
150940991,08FF2D3F,true,Rx,0,8,04,E1,00,00,00,00,FF,FF,
150940991,08FF2D3F,true,Rx,0,8,04,E1,00,00,00,00,FF,FF,
218038401,0CFF0081,true,Rx,0,8,00,00,10,00,41,FF,0E,07,
218046505,0CFF2029,true,Rx,0,8,30,FF,FF,FF,FF,FF,FF,FF,
218038401,0CFF0081,true,Rx,0,8,00,00,10,00,41,FF,0C,07,
218046505,0CFF2029,true,Rx,0,8,30,FF,FF,FF,FF,FF,FF,FF,
218038401,0CFF0081,true,Rx,0,8,00,00,10,00,41,FF,02,07,
218038657,0CFF0181,true,Rx,0,8,00,00,F4,00,FF,FF,FF,FF,
218046505,0CFF2029,true,Rx,0,8,30,FF,FF,FF,FF,FF,FF,FF,
218038657,0CFF0181,true,Rx,0,8,00,00,F4,00,FF,FF,FF,FF,
150940991,08FF2D3F,true,Rx,0,8,04,E1,00,00,00,00,FF,FF,
150940991,08FF2D3F,true,Rx,0,8,04,E0,00,00,00,00,FF,FF,
218046505,0CFF2029,true,Rx,0,8,30,FF,FF,FF,FF,FF,FF,FF,
150940991,08FF2D3F,true,Rx,0,8,04,E0,00,00,00,00,FF,FF,
150940991,08FF2D3F,true,Rx,0,8,04,E0,00,00,00,00,FF,FF,
150940991,08FF2D3F,true,Rx,0,8,04,E0,00,00,00,00,FF,FF,
150940991,08FF2D3F,true,Rx,0,8,04,E0,00,00,00,00,FF,FF,
218046505,0CFF2029,true,Rx,0,8,30,FF,FF,FF,FF,FF,FF,FF,
150940991,08FF2D3F,true,Rx,0,8,04,E0,00,00,00,00,FF,FF,
150940991,08FF2D3F,true,Rx,0,8,04,DE,00,00,00,00,FF,FF,
150940991,08FF2D3F,true,Rx,0,8,04,E0,00,00,00,00,FF,FF,
150940991,08FF2D3F,true,Rx,0,8,04,E1,00,00,00,00,FF,FF,
218046505,0CFF2029,true,Rx,0,8,30,FF,FF,FF,FF,FF,FF,FF,
150940991,08FF2D3F,true,Rx,0,8,04,E0,00,00,00,00,FF,FF,
218046505,0CFF2029,true,Rx,0,8,30,FF,FF,FF,FF,FF,FF,FF,
218038401,0CFF0081,true,Rx,0,8,00,00,10,00,41,FF,20,07,
218038657,0CFF0181,true,Rx,0,8,03,00,F4,00,FF,FF,FF,FF,
218046505,0CFF2029,true,Rx,0,8,30,FF,FF,FF,FF,FF,FF,FF,
218038401,0CFF0081,true,Rx,0,8,00,00,10,00,41,FF,24,07,
150940991,08FF2D3F,true,Rx,0,8,04,DE,00,00,00,00,FF,FF,
150940991,08FF2D3F,true,Rx,0,8,04,E0,00,00,00,00,FF,FF,
218046505,0CFF2029,true,Rx,0,8,30,FF,FF,FF,FF,FF,FF,FF,
150940991,08FF2D3F,true,Rx,0,8,04,E0,00,00,00,00,FF,FF,
150940991,08FF2D3F,true,Rx,0,8,04,E0,00,00,00,00,FF,FF,
150940991,08FF2D3F,true,Rx,0,8,04,E0,00,00,00,00,FF,FF,
150940991,08FF2D3F,true,Rx,0,8,04,E0,00,00,00,00,FF,FF,
218046505,0CFF2029,true,Rx,0,8,30,FF,FF,FF,FF,FF,FF,FF,
150940991,08FF2D3F,true,Rx,0,8,04,E0,00,00,00,00,FF,FF,
150940991,08FF2D3F,true,Rx,0,8,04,E0,00,00,00,00,FF,FF,
150940991,08FF2D3F,true,Rx,0,8,04,E0,00,00,00,00,FF,FF,
150940991,08FF2D3F,true,Rx,0,8,04,E1,00,00,00,00,FF,FF,
218046505,0CFF2029,true,Rx,0,8,30,FF,FF,FF,FF,FF,FF,FF,
150940991,08FF2D3F,true,Rx,0,8,04,DE,00,00,00,00,FF,FF,
150940991,08FF2D3F,true,Rx,0,8,04,E0,00,00,00,00,FF,FF,
218038401,0CFF0081,true,Rx,0,8,00,00,10,00,41,FF,F8,07,
218046505,0CFF2029,true,Rx,0,8,30,FF,FF,FF,FF,FF,FF,FF,
150940991,08FF2D3F,true,Rx,0,8,04,DE,00,00,00,00,FF,FF,
218038401,0CFF0081,true,Rx,0,8,00,00,10,00,41,FF,0C,08,
218046505,0CFF2029,true,Rx,0,8,30,FF,FF,FF,FF,FF,FF,FF,
218038657,0CFF0181,true,Rx,0,8,CF,05,00,00,FF,FF,FF,FF,
150940991,08FF2D3F,true,Rx,0,8,04,E0,00,00,00,00,FF,FF,
218038401,0CFF0081,true,Rx,0,8,00,00,10,00,41,FF,64,08,
150940991,08FF2D3F,true,Rx,0,8,04,E1,00,00,00,00,FF,FF,
150940991,08FF2D3F,true,Rx,0,8,04,E0,00,00,00,00,FF,FF,
150940991,08FF2D3F,true,Rx,0,8,04,DE,00,00,00,00,FF,FF,
218046505,0CFF2029,true,Rx,0,8,30,FF,FF,FF,FF,FF,FF,FF,
150940991,08FF2D3F,true,Rx,0,8,04,E0,00,00,00,00,FF,FF,
150940991,08FF2D3F,true,Rx,0,8,04,E0,00,00,00,00,FF,FF,
150940991,08FF2D3F,true,Rx,0,8,04,DE,00,00,00,00,FF,FF,
150940991,08FF2D3F,true,Rx,0,8,04,E0,00,00,00,00,FF,FF,
218046505,0CFF2029,true,Rx,0,8,30,FF,FF,FF,FF,FF,FF,FF,
150940991,08FF2D3F,true,Rx,0,8,04,DE,00,00,00,00,FF,FF,
150940991,08FF2D3F,true,Rx,0,8,04,DE,00,00,00,00,FF,FF,
150940991,08FF2D3F,true,Rx,0,8,04,DE,00,00,00,00,FF,FF,
218046505,0CFF2029,true,Rx,0,8,30,FF,FF,FF,FF,FF,FF,FF,
150940991,08FF2D3F,true,Rx,0,8,04,E1,00,00,00,00,FF,FF,
218038401,0CFF0081,true,Rx,0,8,00,00,10,00,41,FF,68,09,
218046505,0CFF2029,true,Rx,0,8,30,FF,FF,FF,FF,FF,FF,FF,
218038401,0CFF0081,true,Rx,0,8,00,00,10,00,41,FF,9A,09,
218046505,0CFF2029,true,Rx,0,8,30,FF,FF,FF,FF,FF,FF,FF,
150940991,08FF2D3F,true,Rx,0,8,04,E0,00,00,00,00,FF,FF,
150940991,08FF2D3F,true,Rx,0,8,04,E0,00,00,00,00,FF,FF,
150940991,08FF2D3F,true,Rx,0,8,04,E0,00,00,00,00,FF,FF,
352256385,14FF0181,true,Rx,0,8,00,30,30,30,31,34,30,35,
150940991,08FF2D3F,true,Rx,0,8,04,E0,00,00,00,00,FF,FF,
218038401,0CFF0081,true,Rx,0,8,00,00,10,00,41,FF,24,0A,
150940991,08FF2D3F,true,Rx,0,8,04,E0,00,00,00,00,FF,FF,
150940991,08FF2D3F,true,Rx,0,8,04,DE,00,00,00,00,FF,FF,
150940991,08FF2D3F,true,Rx,0,8,04,E1,00,00,00,00,FF,FF,
150940991,08FF2D3F,true,Rx,0,8,04,DE,00,00,00,00,FF,FF,
218038401,0CFF0081,true,Rx,0,8,00,00,10,00,41,FF,88,0A,
150940991,08FF2D3F,true,Rx,0,8,04,DE,00,00,00,00,FF,FF,
150940991,08FF2D3F,true,Rx,0,8,04,E0,00,00,00,00,FF,FF,
150940991,08FF2D3F,true,Rx,0,8,04,DE,00,00,00,00,FF,FF,
218046505,0CFF2029,true,Rx,0,8,30,FF,FF,FF,FF,FF,FF,FF,
218038401,0CFF0081,true,Rx,0,8,00,00,10,00,41,FF,F0,0A,
218046505,0CFF2029,true,Rx,0,8,30,FF,FF,FF,FF,FF,FF,FF,
218038401,0CFF0081,true,Rx,0,8,00,00,10,00,41,FF,18,0B,
218046505,0CFF2029,true,Rx,0,8,30,FF,FF,FF,FF,FF,FF,FF,
150940991,08FF2D3F,true,Rx,0,8,04,DE,00,00,00,00,FF,FF,
218038657,0CFF0181,true,Rx,0,8,4F,09,00,00,FF,FF,FF,FF,
150940991,08FF2D3F,true,Rx,0,8,04,E0,00,00,00,00,FF,FF,
150940991,08FF2D3F,true,Rx,0,8,04,DE,00,00,00,00,FF,FF,
150940991,08FF2D3F,true,Rx,0,8,04,E0,00,00,00,00,FF,FF,
218038401,0CFF0081,true,Rx,0,8,00,00,10,00,41,FF,A4,0B,
150940991,08FF2D3F,true,Rx,0,8,04,E1,00,00,00,00,FF,FF,
150940991,08FF2D3F,true,Rx,0,8,04,E0,00,00,00,00,FF,FF,
150940991,08FF2D3F,true,Rx,0,8,04,E0,00,00,00,00,FF,FF,
150940991,08FF2D3F,true,Rx,0,8,04,E0,00,00,00,00,FF,FF,
218038401,0CFF0081,true,Rx,0,8,00,00,10,00,41,FF,06,0C,
150940991,08FF2D3F,true,Rx,0,8,04,DE,00,00,00,00,FF,FF,
150940991,08FF2D3F,true,Rx,0,8,04,E0,00,00,00,00,FF,FF,
150940991,08FF2D3F,true,Rx,0,8,04,DE,00,00,00,00,FF,FF,
150940991,08FF2D3F,true,Rx,0,8,04,E0,00,00,00,00,FF,FF,
218038401,0CFF0081,true,Rx,0,8,00,00,10,00,41,FF,66,0C,
218046505,0CFF2029,true,Rx,0,8,30,FF,FF,FF,FF,FF,FF,FF,
218038401,0CFF0081,true,Rx,0,8,00,00,10,00,41,FF,88,0C,
218046505,0CFF2029,true,Rx,0,8,30,FF,FF,FF,FF,FF,FF,FF,
218038401,0CFF0081,true,Rx,0,8,00,00,10,00,41,FF,C0,0C,
218038657,0CFF0181,true,Rx,0,8,9E,09,00,00,FF,FF,FF,FF,
218046505,0CFF2029,true,Rx,0,8,30,FF,FF,FF,FF,FF,FF,FF,
218038657,0CFF0181,true,Rx,0,8,A3,09,00,00,FF,FF,FF,FF,
150940991,08FF2D3F,true,Rx,0,8,04,E1,00,00,00,00,FF,FF,
218038401,0CFF0081,true,Rx,0,8,00,00,10,00,41,FF,16,0D,
150940991,08FF2D3F,true,Rx,0,8,04,E0,00,00,00,00,FF,FF,
150940991,08FF2D3F,true,Rx,0,8,04,DE,00,00,00,00,FF,FF,
150940991,08FF2D3F,true,Rx,0,8,04,E0,00,00,00,00,FF,FF,
150940991,08FF2D3F,true,Rx,0,8,04,E3,00,00,00,00,FF,FF,
218038401,0CFF0081,true,Rx,0,8,00,00,10,00,41,FF,72,0D,
150940991,08FF2D3F,true,Rx,0,8,04,E0,00,00,00,00,FF,FF,
150940991,08FF2D3F,true,Rx,0,8,04,E0,00,00,00,00,FF,FF,
150940991,08FF2D3F,true,Rx,0,8,04,E1,00,00,00,00,FF,FF,
150940991,08FF2D3F,true,Rx,0,8,04,E0,00,00,00,00,FF,FF,
218038401,0CFF0081,true,Rx,0,8,00,00,10,00,41,FF,D8,0D,
150940991,08FF2D3F,true,Rx,0,8,04,E0,00,00,00,00,FF,FF,
150940991,08FF2D3F,true,Rx,0,8,04,E1,00,00,00,00,FF,FF,
218046505,0CFF2029,true,Rx,0,8,30,FF,FF,FF,FF,FF,FF,FF,
218038401,0CFF0081,true,Rx,0,8,00,00,10,00,41,FF,3C,0E,
218038657,0CFF0181,true,Rx,0,8,B1,09,00,00,FF,FF,FF,FF,
218046505,0CFF2029,true,Rx,0,8,30,FF,FF,FF,FF,FF,FF,FF,
218038401,0CFF0081,true,Rx,0,8,00,00,10,00,41,FF,62,0E,
352256829,14FF033D,true,Rx,0,8,00,00,9A,9A,3D,C3,F0,F3,
352256129,14FF0081,true,Rx,0,8,01,FF,02,FF,03,D1,04,D1,
352256385,14FF0181,true,Rx,0,8,05,34,30,30,31,44,34,4C,
150940991,08FF2D3F,true,Rx,0,8,04,E0,00,00,00,00,FF,FF,
150940991,08FF2D3F,true,Rx,0,8,04,E0,00,00,00,00,FF,FF,
150940991,08FF2D3F,true,Rx,0,8,04,DC,00,00,00,00,FF,FF,
150940991,08FF2D3F,true,Rx,0,8,04,E1,00,00,00,00,FF,FF,
218046505,0CFF2029,true,Rx,0,8,30,FF,FF,FF,FF,FF,FF,FF,
150940991,08FF2D3F,true,Rx,0,8,04,E0,00,00,00,00,FF,FF,
150940991,08FF2D3F,true,Rx,0,8,04,E0,00,00,00,00,FF,FF,
150940991,08FF2D3F,true,Rx,0,8,04,E1,00,00,00,00,FF,FF,
218038401,0CFF0081,true,Rx,0,8,00,00,10,00,41,FF,46,0F,
150940991,08FF2D3F,true,Rx,0,8,04,E0,00,00,00,00,FF,FF,
150940991,08FF2D3F,true,Rx,0,8,04,E0,00,00,00,00,FF,FF,
150940991,08FF2D3F,true,Rx,0,8,04,E0,00,00,00,00,FF,FF,
218038401,0CFF0081,true,Rx,0,8,00,00,10,00,41,FF,A8,0F,
218038657,0CFF0181,true,Rx,0,8,B6,09,00,00,FF,FF,FF,FF,
218046505,0CFF2029,true,Rx,0,8,30,FF,FF,FF,FF,FF,FF,FF,
218038401,0CFF0081,true,Rx,0,8,00,00,10,00,41,FF,CE,0F,
218046505,0CFF2029,true,Rx,0,8,30,FF,FF,FF,FF,FF,FF,FF,
218038657,0CFF0181,true,Rx,0,8,B6,09,00,00,FF,FF,FF,FF,
150940991,08FF2D3F,true,Rx,0,8,04,DE,00,00,00,00,FF,FF,
150940991,08FF2D3F,true,Rx,0,8,04,E0,00,00,00,00,FF,FF,
150940991,08FF2D3F,true,Rx,0,8,04,E3,00,00,00,00,FF,FF,
150940991,08FF2D3F,true,Rx,0,8,04,DE,00,00,00,00,FF,FF,
150940991,08FF2D3F,true,Rx,0,8,04,E0,00,00,00,00,FF,FF,
218046505,0CFF2029,true,Rx,0,8,30,FF,FF,FF,FF,FF,FF,FF,
150940991,08FF2D3F,true,Rx,0,8,04,E0,00,00,00,00,FF,FF,
150940991,08FF2D3F,true,Rx,0,8,04,E1,00,00,00,00,FF,FF,
150940991,08FF2D3F,true,Rx,0,8,04,E1,00,00,00,00,FF,FF,
150940991,08FF2D3F,true,Rx,0,8,04,DE,00,00,00,00,FF,FF,
218046505,0CFF2029,true,Rx,0,8,30,FF,FF,FF,FF,FF,FF,FF,
150940991,08FF2D3F,true,Rx,0,8,04,E0,00,00,00,00,FF,FF,
150940991,08FF2D3F,true,Rx,0,8,04,DE,00,00,00,00,FF,FF,
150940991,08FF2D3F,true,Rx,0,8,04,DE,00,00,00,00,FF,FF,
218046505,0CFF2029,true,Rx,0,8,30,FF,FF,FF,FF,FF,FF,FF,
352256829,14FF033D,true,Rx,0,8,00,00,9A,9A,3D,C3,F0,F3,
218038401,0CFF0081,true,Rx,0,8,00,00,10,00,41,FF,4A,11,
218046505,0CFF2029,true,Rx,0,8,30,FF,FF,FF,FF,FF,FF,FF,
218038401,0CFF0081,true,Rx,0,8,00,00,10,00,41,FF,6E,11,
218038657,0CFF0181,true,Rx,0,8,B9,09,00,00,FF,FF,FF,FF,
150940991,08FF2D3F,true,Rx,0,8,04,E0,00,00,00,00,FF,FF,
150940991,08FF2D3F,true,Rx,0,8,04,E0,00,00,00,00,FF,FF,
150940991,08FF2D3F,true,Rx,0,8,04,E1,00,00,00,00,FF,FF,
150940991,08FF2D3F,true,Rx,0,8,04,E0,00,00,00,00,FF,FF,
218046505,0CFF2029,true,Rx,0,8,30,FF,FF,FF,FF,FF,FF,FF,
150940991,08FF2D3F,true,Rx,0,8,04,E0,00,00,00,00,FF,FF,
150940991,08FF2D3F,true,Rx,0,8,04,E0,00,00,00,00,FF,FF,
150940991,08FF2D3F,true,Rx,0,8,04,E0,00,00,00,00,FF,FF,
150940991,08FF2D3F,true,Rx,0,8,04,DE,00,00,00,00,FF,FF,
218046505,0CFF2029,true,Rx,0,8,30,FF,FF,FF,FF,FF,FF,FF,
150940991,08FF2D3F,true,Rx,0,8,04,E1,00,00,00,00,FF,FF,
150940991,08FF2D3F,true,Rx,0,8,04,E0,00,00,00,00,FF,FF,
150940991,08FF2D3F,true,Rx,0,8,04,E0,00,00,00,00,FF,FF,
150940991,08FF2D3F,true,Rx,0,8,04,E0,00,00,00,00,FF,FF,
218046505,0CFF2029,true,Rx,0,8,30,FF,FF,FF,FF,FF,FF,FF,
218038401,0CFF0081,true,Rx,0,8,00,00,10,00,41,FF,AA,12,
218046505,0CFF2029,true,Rx,0,8,30,FF,FF,FF,FF,FF,FF,FF,
218038401,0CFF0081,true,Rx,0,8,00,00,10,00,41,FF,CA,12,
218046505,0CFF2029,true,Rx,0,8,30,FF,FF,FF,FF,FF,FF,FF,
352256829,14FF033D,true,Rx,0,8,00,00,9A,9A,3D,C3,F0,F3,
218038657,0CFF0181,true,Rx,0,8,BC,09,00,00,FF,FF,FF,FF,
352257597,14FF063D,true,Rx,0,8,E8,28,FF,FF,FF,FF,FF,FF,
150940991,08FF2D3F,true,Rx,0,8,04,E0,00,00,00,00,FF,FF,
218046505,0CFF2029,true,Rx,0,8,30,FF,FF,FF,FF,FF,FF,FF,
150940991,08FF2D3F,true,Rx,0,8,04,E0,00,00,00,00,FF,FF,
150940991,08FF2D3F,true,Rx,0,8,04,E0,00,00,00,00,FF,FF,
150940991,08FF2D3F,true,Rx,0,8,04,E0,00,00,00,00,FF,FF,
150940991,08FF2D3F,true,Rx,0,8,04,E1,00,00,00,00,FF,FF,
218046505,0CFF2029,true,Rx,0,8,30,FF,FF,FF,FF,FF,FF,FF,
150940991,08FF2D3F,true,Rx,0,8,04,E0,00,00,00,00,FF,FF,
150940991,08FF2D3F,true,Rx,0,8,04,DE,00,00,00,00,FF,FF,
150940991,08FF2D3F,true,Rx,0,8,04,DE,00,00,00,00,FF,FF,
150940991,08FF2D3F,true,Rx,0,8,04,E0,00,00,00,00,FF,FF,
218046505,0CFF2029,true,Rx,0,8,30,FF,FF,FF,FF,FF,FF,FF,
150940991,08FF2D3F,true,Rx,0,8,04,E0,00,00,00,00,FF,FF,
218046505,0CFF2029,true,Rx,0,8,30,FF,FF,FF,FF,FF,FF,FF,
218038401,0CFF0081,true,Rx,0,8,00,00,10,00,41,FF,24,14,
218046505,0CFF2029,true,Rx,0,8,30,FF,FF,FF,FF,FF,FF,FF,
150940991,08FF2D3F,true,Rx,0,8,04,E0,00,00,00,00,FF,FF,
218038401,0CFF0081,true,Rx,0,8,00,00,10,00,41,FF,52,14,
218046505,0CFF2029,true,Rx,0,8,30,FF,FF,FF,FF,FF,FF,FF,
218038657,0CFF0181,true,Rx,0,8,BE,09,00,00,FF,FF,FF,FF,
150940991,08FF2D3F,true,Rx,0,8,04,E0,00,00,00,00,FF,FF,
218038401,0CFF0081,true,Rx,0,8,00,00,10,00,41,FF,9E,14,
150940991,08FF2D3F,true,Rx,0,8,04,E0,00,00,00,00,FF,FF,
150940991,08FF2D3F,true,Rx,0,8,04,DE,00,00,00,00,FF,FF,
150940991,08FF2D3F,true,Rx,0,8,04,E1,00,00,00,00,FF,FF,
150940991,08FF2D3F,true,Rx,0,8,04,E0,00,00,00,00,FF,FF,
218038401,0CFF0081,true,Rx,0,8,00,00,10,00,41,FF,EE,14,
150940991,08FF2D3F,true,Rx,0,8,04,E0,00,00,00,00,FF,FF,
150940991,08FF2D3F,true,Rx,0,8,04,E0,00,00,00,00,FF,FF,
150940991,08FF2D3F,true,Rx,0,8,04,E0,00,00,00,00,FF,FF,
218046505,0CFF2029,true,Rx,0,8,30,FF,FF,FF,FF,FF,FF,FF,
150940991,08FF2D3F,true,Rx,0,8,04,E0,00,00,00,00,FF,FF,
150940991,08FF2D3F,true,Rx,0,8,04,E0,00,00,00,00,FF,FF,
218038401,0CFF0081,true,Rx,0,8,00,00,10,00,41,FF,74,15,
218046505,0CFF2029,true,Rx,0,8,30,FF,FF,FF,FF,FF,FF,FF,
352257597,14FF063D,true,Rx,0,8,EA,28,FF,FF,FF,FF,FF,FF,
218038401,0CFF0081,true,Rx,0,8,00,00,10,00,41,FF,A2,15,
218046505,0CFF2029,true,Rx,0,8,30,FF,FF,FF,FF,FF,FF,FF,
218038401,0CFF0081,true,Rx,0,8,00,00,10,00,41,FF,C6,15,
150940991,08FF2D3F,true,Rx,0,8,04,E0,00,00,00,00,FF,FF,
218038401,0CFF0081,true,Rx,0,8,00,00,10,00,41,FF,FA,15,
150940991,08FF2D3F,true,Rx,0,8,04,E0,00,00,00,00,FF,FF,
150940991,08FF2D3F,true,Rx,0,8,04,DE,00,00,00,00,FF,FF,
150940991,08FF2D3F,true,Rx,0,8,04,E0,00,00,00,00,FF,FF,
150940991,08FF2D3F,true,Rx,0,8,04,E1,00,00,00,00,FF,FF,
218038401,0CFF0081,true,Rx,0,8,00,00,10,00,41,FF,4C,16,
150940991,08FF2D3F,true,Rx,0,8,04,E0,00,00,00,00,FF,FF,
150940991,08FF2D3F,true,Rx,0,8,04,E0,00,00,00,00,FF,FF,
150940991,08FF2D3F,true,Rx,0,8,04,DE,00,00,00,00,FF,FF,
150940991,08FF2D3F,true,Rx,0,8,04,E0,00,00,00,00,FF,FF,
218038401,0CFF0081,true,Rx,0,8,00,00,10,00,41,FF,A4,16,
150940991,08FF2D3F,true,Rx,0,8,04,E0,00,00,00,00,FF,FF,
150940991,08FF2D3F,true,Rx,0,8,04,DE,00,00,00,00,FF,FF,
150940991,08FF2D3F,true,Rx,0,8,04,E0,00,00,00,00,FF,FF,
218038401,0CFF0081,true,Rx,0,8,00,00,10,00,41,FF,FE,16,
218038657,0CFF0181,true,Rx,0,8,B8,09,00,00,FF,FF,FF,FF,
218046505,0CFF2029,true,Rx,0,8,30,FF,FF,FF,FF,FF,FF,FF,
218038401,0CFF0081,true,Rx,0,8,00,00,10,00,41,FF,2A,17,
218046505,0CFF2029,true,Rx,0,8,30,FF,FF,FF,FF,FF,FF,FF,
352257597,14FF063D,true,Rx,0,8,EA,28,FF,FF,FF,FF,FF,FF,
218038657,0CFF0181,true,Rx,0,8,BA,09,00,00,FF,FF,FF,FF,
150940991,08FF2D3F,true,Rx,0,8,04,E1,00,00,00,00,FF,FF,
150940991,08FF2D3F,true,Rx,0,8,04,E0,00,00,00,00,FF,FF,
150940991,08FF2D3F,true,Rx,0,8,04,E1,00,00,00,00,FF,FF,
218038401,0CFF0081,true,Rx,0,8,00,00,10,00,41,FF,B2,17,
150940991,08FF2D3F,true,Rx,0,8,04,E0,00,00,00,00,FF,FF,
150940991,08FF2D3F,true,Rx,0,8,04,E1,00,00,00,00,FF,FF,
150940991,08FF2D3F,true,Rx,0,8,04,E0,00,00,00,00,FF,FF,
150940991,08FF2D3F,true,Rx,0,8,04,E1,00,00,00,00,FF,FF,
218038401,0CFF0081,true,Rx,0,8,00,00,10,00,41,FF,0C,18,
150940991,08FF2D3F,true,Rx,0,8,04,E0,00,00,00,00,FF,FF,
150940991,08FF2D3F,true,Rx,0,8,04,E1,00,00,00,00,FF,FF,
150940991,08FF2D3F,true,Rx,0,8,04,E0,00,00,00,00,FF,FF,
150940991,08FF2D3F,true,Rx,0,8,04,DE,00,00,00,00,FF,FF,
218038401,0CFF0081,true,Rx,0,8,00,00,10,00,41,FF,6A,18,
218046505,0CFF2029,true,Rx,0,8,30,FF,FF,FF,FF,FF,FF,FF,
218038401,0CFF0081,true,Rx,0,8,00,00,10,00,41,FF,A4,18,
218046505,0CFF2029,true,Rx,0,8,30,FF,FF,FF,FF,FF,FF,FF,
218038401,0CFF0081,true,Rx,0,8,00,00,10,00,41,FF,CC,18,
218038657,0CFF0181,true,Rx,0,8,B8,09,00,00,FF,FF,FF,FF,
352256829,14FF033D,true,Rx,0,8,00,00,9A,9A,3D,C3,F0,F3,
352256129,14FF0081,true,Rx,0,8,09,D1,0A,D1,0B,C0,0C,D5,
150940991,08FF2D3F,true,Rx,0,8,04,E0,00,00,00,00,FF,FF,
150940991,08FF2D3F,true,Rx,0,8,04,E0,00,00,00,00,FF,FF,
218046505,0CFF2029,true,Rx,0,8,30,FF,FF,FF,FF,FF,FF,FF,
150940991,08FF2D3F,true,Rx,0,8,04,E0,00,00,00,00,FF,FF,
150940991,08FF2D3F,true,Rx,0,8,04,E0,00,00,00,00,FF,FF,
150940991,08FF2D3F,true,Rx,0,8,04,E0,00,00,00,00,FF,FF,
218038401,0CFF0081,true,Rx,0,8,00,00,10,00,41,FF,96,19,
150940991,08FF2D3F,true,Rx,0,8,04,E0,00,00,00,00,FF,FF,
150940991,08FF2D3F,true,Rx,0,8,04,E0,00,00,00,00,FF,FF,
150940991,08FF2D3F,true,Rx,0,8,04,E0,00,00,00,00,FF,FF,
150940991,08FF2D3F,true,Rx,0,8,04,E0,00,00,00,00,FF,FF,
218038401,0CFF0081,true,Rx,0,8,00,00,10,00,41,FF,E8,19,
150940991,08FF2D3F,true,Rx,0,8,04,E0,00,00,00,00,FF,FF,
218038401,0CFF0081,true,Rx,0,8,00,00,10,00,41,FF,1E,1A,
218046505,0CFF2029,true,Rx,0,8,30,FF,FF,FF,FF,FF,FF,FF,
218038401,0CFF0081,true,Rx,0,8,00,00,10,00,41,FF,50,1A,
218038657,0CFF0181,true,Rx,0,8,B8,09,00,00,FF,FF,FF,FF,
218046505,0CFF2029,true,Rx,0,8,30,FF,FF,FF,FF,FF,FF,FF,
218038657,0CFF0181,true,Rx,0,8,B8,09,00,00,FF,FF,FF,FF,
150940991,08FF2D3F,true,Rx,0,8,04,DE,00,00,00,00,FF,FF,
150940991,08FF2D3F,true,Rx,0,8,04,DE,00,00,00,00,FF,FF,
218046505,0CFF2029,true,Rx,0,8,30,FF,FF,FF,FF,FF,FF,FF,
150940991,08FF2D3F,true,Rx,0,8,04,E1,00,00,00,00,FF,FF,
150940991,08FF2D3F,true,Rx,0,8,04,E0,00,00,00,00,FF,FF,
150940991,08FF2D3F,true,Rx,0,8,04,E1,00,00,00,00,FF,FF,
150940991,08FF2D3F,true,Rx,0,8,04,E0,00,00,00,00,FF,FF,
218046505,0CFF2029,true,Rx,0,8,30,FF,FF,FF,FF,FF,FF,FF,
150940991,08FF2D3F,true,Rx,0,8,04,E0,00,00,00,00,FF,FF,
150940991,08FF2D3F,true,Rx,0,8,04,E0,00,00,00,00,FF,FF,
150940991,08FF2D3F,true,Rx,0,8,04,DE,00,00,00,00,FF,FF,
150940991,08FF2D3F,true,Rx,0,8,04,DE,00,00,00,00,FF,FF,
218046505,0CFF2029,true,Rx,0,8,30,FF,FF,FF,FF,FF,FF,FF,
150940991,08FF2D3F,true,Rx,0,8,04,E0,00,00,00,00,FF,FF,
218046505,0CFF2029,true,Rx,0,8,30,FF,FF,FF,FF,FF,FF,FF,
218038401,0CFF0081,true,Rx,0,8,00,00,10,00,41,FF,02,1C,
218038657,0CFF0181,true,Rx,0,8,BD,09,00,00,FF,FF,FF,FF,
218046505,0CFF2029,true,Rx,0,8,30,FF,FF,FF,FF,FF,FF,FF,
218038401,0CFF0081,true,Rx,0,8,00,00,10,00,41,FF,34,1C,
218046505,0CFF2029,true,Rx,0,8,30,FF,FF,FF,FF,FF,FF,FF,
218038657,0CFF0181,true,Rx,0,8,BB,09,00,00,FF,FF,FF,FF,
150940991,08FF2D3F,true,Rx,0,8,04,DE,00,00,00,00,FF,FF,
150940991,08FF2D3F,true,Rx,0,8,04,DE,00,00,00,00,FF,FF,
150940991,08FF2D3F,true,Rx,0,8,04,DE,00,00,00,00,FF,FF,
150940991,08FF2D3F,true,Rx,0,8,04,DE,00,00,00,00,FF,FF,
150940991,08FF2D3F,true,Rx,0,8,04,E0,00,00,00,00,FF,FF,
218046505,0CFF2029,true,Rx,0,8,30,FF,FF,FF,FF,FF,FF,FF,
150940991,08FF2D3F,true,Rx,0,8,04,E0,00,00,00,00,FF,FF,
150940991,08FF2D3F,true,Rx,0,8,04,DE,00,00,00,00,FF,FF,
150940991,08FF2D3F,true,Rx,0,8,04,DE,00,00,00,00,FF,FF,
150940991,08FF2D3F,true,Rx,0,8,04,DE,00,00,00,00,FF,FF,
218046505,0CFF2029,true,Rx,0,8,30,FF,FF,FF,FF,FF,FF,FF,
150940991,08FF2D3F,true,Rx,0,8,04,E0,00,00,00,00,FF,FF,
150940991,08FF2D3F,true,Rx,0,8,04,E0,00,00,00,00,FF,FF,
218038401,0CFF0081,true,Rx,0,8,00,00,10,00,41,FF,98,1D,
218046505,0CFF2029,true,Rx,0,8,30,FF,FF,FF,FF,FF,FF,FF,
150940991,08FF2D3F,true,Rx,0,8,04,DE,00,00,00,00,FF,FF,
218038401,0CFF0081,true,Rx,0,8,00,00,10,00,41,FF,BC,1D,
218046505,0CFF2029,true,Rx,0,8,30,FF,FF,FF,FF,FF,FF,FF,
218038401,0CFF0081,true,Rx,0,8,00,00,10,00,41,FF,02,1E,
352257597,14FF063D,true,Rx,0,8,00,29,FF,FF,FF,FF,FF,FF,
150940991,08FF2D3F,true,Rx,0,8,04,DE,00,00,00,00,FF,FF,
150940991,08FF2D3F,true,Rx,0,8,04,E0,00,00,00,00,FF,FF,
150940991,08FF2D3F,true,Rx,0,8,04,E0,00,00,00,00,FF,FF,
150940991,08FF2D3F,true,Rx,0,8,04,E0,00,00,00,00,FF,FF,
218046505,0CFF2029,true,Rx,0,8,30,FF,FF,FF,FF,FF,FF,FF,
150940991,08FF2D3F,true,Rx,0,8,04,E0,00,00,00,00,FF,FF,
150940991,08FF2D3F,true,Rx,0,8,04,E0,00,00,00,00,FF,FF,
150940991,08FF2D3F,true,Rx,0,8,04,E0,00,00,00,00,FF,FF,
150940991,08FF2D3F,true,Rx,0,8,04,E0,00,00,00,00,FF,FF,
218046505,0CFF2029,true,Rx,0,8,30,FF,FF,FF,FF,FF,FF,FF,
150940991,08FF2D3F,true,Rx,0,8,04,E1,00,00,00,00,FF,FF,
150940991,08FF2D3F,true,Rx,0,8,04,E1,00,00,00,00,FF,FF,
150940991,08FF2D3F,true,Rx,0,8,04,E3,00,00,00,00,FF,FF,
150940991,08FF2D3F,true,Rx,0,8,04,E0,00,00,00,00,FF,FF,
218046505,0CFF2029,true,Rx,0,8,30,FF,FF,FF,FF,FF,FF,FF,
218038401,0CFF0081,true,Rx,0,8,00,00,10,00,41,FF,78,1F,
218046505,0CFF2029,true,Rx,0,8,30,FF,FF,FF,FF,FF,FF,FF,
218038401,0CFF0081,true,Rx,0,8,00,00,10,00,41,FF,AE,1F,
218046505,0CFF2029,true,Rx,0,8,30,FF,FF,FF,FF,FF,FF,FF,
150940991,08FF2D3F,true,Rx,0,8,04,E0,00,00,00,00,FF,FF,
218038657,0CFF0181,true,Rx,0,8,C2,09,00,00,FF,FF,FF,FF,
150940991,08FF2D3F,true,Rx,0,8,04,E0,00,00,00,00,FF,FF,
352256385,14FF0181,true,Rx,0,8,0B,04,08,01,08,00,00,0F,
150940991,08FF2D3F,true,Rx,0,8,04,E0,00,00,00,00,FF,FF,
218038401,0CFF0081,true,Rx,0,8,00,00,10,00,41,FF,46,20,
150940991,08FF2D3F,true,Rx,0,8,04,E0,00,00,00,00,FF,FF,
150940991,08FF2D3F,true,Rx,0,8,04,E0,00,00,00,00,FF,FF,
150940991,08FF2D3F,true,Rx,0,8,04,E0,00,00,00,00,FF,FF,
150940991,08FF2D3F,true,Rx,0,8,04,E0,00,00,00,00,FF,FF,
218038401,0CFF0081,true,Rx,0,8,00,00,10,00,41,FF,C0,20,
150940991,08FF2D3F,true,Rx,0,8,04,E0,00,00,00,00,FF,FF,
150940991,08FF2D3F,true,Rx,0,8,04,E0,00,00,00,00,FF,FF,
150940991,08FF2D3F,true,Rx,0,8,04,E0,00,00,00,00,FF,FF,
218046505,0CFF2029,true,Rx,0,8,30,FF,FF,FF,FF,FF,FF,FF,
218038401,0CFF0081,true,Rx,0,8,00,00,10,00,41,FF,22,21,
218046505,0CFF2029,true,Rx,0,8,30,FF,FF,FF,FF,FF,FF,FF,
218038401,0CFF0081,true,Rx,0,8,00,00,10,00,41,FF,58,21,
218046505,0CFF2029,true,Rx,0,8,30,FF,FF,FF,FF,FF,FF,FF,
150940991,08FF2D3F,true,Rx,0,8,04,DE,00,00,00,00,FF,FF,
218038401,0CFF0081,true,Rx,0,8,00,00,10,00,41,FF,94,21,
218046505,0CFF2029,true,Rx,0,8,30,FF,FF,FF,FF,FF,FF,FF,
150940991,08FF2D3F,true,Rx,0,8,04,E1,00,00,00,00,FF,FF,
150940991,08FF2D3F,true,Rx,0,8,04,E1,00,00,00,00,FF,FF,
218038401,0CFF0081,true,Rx,0,8,00,00,10,00,41,FF,F0,21,
150940991,08FF2D3F,true,Rx,0,8,04,DE,00,00,00,00,FF,FF,
150940991,08FF2D3F,true,Rx,0,8,04,E0,00,00,00,00,FF,FF,
150940991,08FF2D3F,true,Rx,0,8,04,DE,00,00,00,00,FF,FF,
150940991,08FF2D3F,true,Rx,0,8,04,E0,00,00,00,00,FF,FF,
218038401,0CFF0081,true,Rx,0,8,00,00,10,00,41,FF,48,22,
150940991,08FF2D3F,true,Rx,0,8,04,E0,00,00,00,00,FF,FF,
150940991,08FF2D3F,true,Rx,0,8,04,E0,00,00,00,00,FF,FF,
150940991,08FF2D3F,true,Rx,0,8,04,E1,00,00,00,00,FF,FF,
150940991,08FF2D3F,true,Rx,0,8,04,E0,00,00,00,00,FF,FF,
218038401,0CFF0081,true,Rx,0,8,00,00,10,00,41,FF,C8,22,
150940991,08FF2D3F,true,Rx,0,8,04,E1,00,00,00,00,FF,FF,
218038401,0CFF0081,true,Rx,0,8,00,00,10,00,41,FF,EE,22,
218046505,0CFF2029,true,Rx,0,8,30,FF,FF,FF,FF,FF,FF,FF,
218038401,0CFF0081,true,Rx,0,8,00,00,D0,01,41,32,2C,23,
218038657,0CFF0181,true,Rx,0,8,21,09,00,00,FF,FF,FF,FF,
218046505,0CFF2029,true,Rx,0,8,30,FF,FF,FF,FF,FF,FF,FF,
218038657,0CFF0181,true,Rx,0,8,0F,09,00,00,FF,FF,FF,FF,
150940991,08FF2D3F,true,Rx,0,8,04,E1,00,00,00,00,FF,FF,
218038401,0CFF0081,true,Rx,0,8,00,00,D0,01,41,32,A0,23,
150940991,08FF2D3F,true,Rx,0,8,04,E3,00,00,00,00,FF,FF,
150940991,08FF2D3F,true,Rx,0,8,04,E0,00,00,00,00,FF,FF,
150940991,08FF2D3F,true,Rx,0,8,04,E1,00,00,00,00,FF,FF,
150940991,08FF2D3F,true,Rx,0,8,04,E0,00,00,00,00,FF,FF,
218038401,0CFF0081,true,Rx,0,8,00,00,D0,01,41,32,0A,24,
150940991,08FF2D3F,true,Rx,0,8,04,DC,00,00,00,00,FF,FF,
150940991,08FF2D3F,true,Rx,0,8,04,E1,00,00,00,00,FF,FF,
150940991,08FF2D3F,true,Rx,0,8,04,E0,00,00,00,00,FF,FF,
150940991,08FF2D3F,true,Rx,0,8,04,E0,00,00,00,00,FF,FF,
218038401,0CFF0081,true,Rx,0,8,00,00,D0,01,41,50,6C,24,
150940991,08FF2D3F,true,Rx,0,8,04,DE,00,00,00,00,FF,FF,
150940991,08FF2D3F,true,Rx,0,8,04,E0,00,00,00,00,FF,FF,
218046505,0CFF2029,true,Rx,0,8,30,FF,FF,FF,FF,FF,FF,FF,
218038401,0CFF0081,true,Rx,0,8,00,00,D0,01,41,50,CA,24,
218038657,0CFF0181,true,Rx,0,8,73,08,00,00,FF,FF,FF,FF,
218046505,0CFF2029,true,Rx,0,8,30,FF,FF,FF,FF,FF,FF,FF,
218038401,0CFF0081,true,Rx,0,8,00,00,D0,01,41,50,E8,24,
218046505,0CFF2029,true,Rx,0,8,30,FF,FF,FF,FF,FF,FF,FF,
218038657,0CFF0181,true,Rx,0,8,43,08,00,00,FF,FF,FF,FF,
352256129,14FF0081,true,Rx,0,8,11,D0,12,D1,13,FF,14,FF,
150940991,08FF2D3F,true,Rx,0,8,04,E0,00,00,00,00,FF,FF,
150940991,08FF2D3F,true,Rx,0,8,04,E0,00,00,00,00,FF,FF,
150940991,08FF2D3F,true,Rx,0,8,04,DE,00,00,00,00,FF,FF,
150940991,08FF2D3F,true,Rx,0,8,04,E0,00,00,00,00,FF,FF,
218046505,0CFF2029,true,Rx,0,8,30,FF,FF,FF,FF,FF,FF,FF,
150940991,08FF2D3F,true,Rx,0,8,04,DE,00,00,00,00,FF,FF,
150940991,08FF2D3F,true,Rx,0,8,04,E0,00,00,00,00,FF,FF,
150940991,08FF2D3F,true,Rx,0,8,04,E0,00,00,00,00,FF,FF,
218038401,0CFF0081,true,Rx,0,8,00,00,D0,01,41,50,BE,25,
150940991,08FF2D3F,true,Rx,0,8,04,E0,00,00,00,00,FF,FF,
150940991,08FF2D3F,true,Rx,0,8,04,E0,00,00,00,00,FF,FF,
150940991,08FF2D3F,true,Rx,0,8,04,E1,00,00,00,00,FF,FF,
218038401,0CFF0081,true,Rx,0,8,00,00,D0,01,41,50,08,26,
218038657,0CFF0181,true,Rx,0,8,89,07,00,00,FF,FF,FF,FF,
218046505,0CFF2029,true,Rx,0,8,30,FF,FF,FF,FF,FF,FF,FF,
218038401,0CFF0081,true,Rx,0,8,00,00,D0,01,41,50,F8,25,
218046505,0CFF2029,true,Rx,0,8,30,FF,FF,FF,FF,FF,FF,FF,
218038401,0CFF0081,true,Rx,0,8,00,00,D0,01,41,50,3C,26,
218038657,0CFF0181,true,Rx,0,8,3C,07,00,00,FF,FF,FF,FF,
150940991,08FF2D3F,true,Rx,0,8,04,E0,00,00,00,00,FF,FF,
150940991,08FF2D3F,true,Rx,0,8,04,DE,00,00,00,00,FF,FF,
150940991,08FF2D3F,true,Rx,0,8,04,E1,00,00,00,00,FF,FF,
150940991,08FF2D3F,true,Rx,0,8,04,E1,00,00,00,00,FF,FF,
218046505,0CFF2029,true,Rx,0,8,30,FF,FF,FF,FF,FF,FF,FF,
150940991,08FF2D3F,true,Rx,0,8,04,DE,00,00,00,00,FF,FF,
150940991,08FF2D3F,true,Rx,0,8,04,E0,00,00,00,00,FF,FF,
150940991,08FF2D3F,true,Rx,0,8,04,E0,00,00,00,00,FF,FF,
150940991,08FF2D3F,true,Rx,0,8,04,E0,00,00,00,00,FF,FF,
218046505,0CFF2029,true,Rx,0,8,30,FF,FF,FF,FF,FF,FF,FF,
150940991,08FF2D3F,true,Rx,0,8,04,DC,00,00,00,00,FF,FF,
150940991,08FF2D3F,true,Rx,0,8,04,E0,00,00,00,00,FF,FF,
150940991,08FF2D3F,true,Rx,0,8,04,E1,00,00,00,00,FF,FF,
150940991,08FF2D3F,true,Rx,0,8,04,E0,00,00,00,00,FF,FF,
218046505,0CFF2029,true,Rx,0,8,30,FF,FF,FF,FF,FF,FF,FF,
218038401,0CFF0081,true,Rx,0,8,00,00,D0,01,41,50,82,26,
218046505,0CFF2029,true,Rx,0,8,30,FF,FF,FF,FF,FF,FF,FF,
218038401,0CFF0081,true,Rx,0,8,00,00,D0,01,41,50,B0,26,
218038657,0CFF0181,true,Rx,0,8,1A,06,00,00,FF,FF,FF,FF,
218046505,0CFF2029,true,Rx,0,8,30,FF,FF,FF,FF,FF,FF,FF,
218038657,0CFF0181,true,Rx,0,8,F2,05,00,00,FF,FF,FF,FF,
150940991,08FF2D3F,true,Rx,0,8,04,DE,00,00,00,00,FF,FF,
150940991,08FF2D3F,true,Rx,0,8,04,E0,00,00,00,00,FF,FF,
218046505,0CFF2029,true,Rx,0,8,30,FF,FF,FF,FF,FF,FF,FF,
150940991,08FF2D3F,true,Rx,0,8,04,E0,00,00,00,00,FF,FF,
150940991,08FF2D3F,true,Rx,0,8,04,E0,00,00,00,00,FF,FF,
150940991,08FF2D3F,true,Rx,0,8,04,E0,00,00,00,00,FF,FF,
150940991,08FF2D3F,true,Rx,0,8,04,E0,00,00,00,00,FF,FF,
218046505,0CFF2029,true,Rx,0,8,30,FF,FF,FF,FF,FF,FF,FF,
150940991,08FF2D3F,true,Rx,0,8,04,DE,00,00,00,00,FF,FF,
150940991,08FF2D3F,true,Rx,0,8,04,DE,00,00,00,00,FF,FF,
150940991,08FF2D3F,true,Rx,0,8,04,DE,00,00,00,00,FF,FF,
150940991,08FF2D3F,true,Rx,0,8,04,E1,00,00,00,00,FF,FF,
218046505,0CFF2029,true,Rx,0,8,30,FF,FF,FF,FF,FF,FF,FF,
150940991,08FF2D3F,true,Rx,0,8,04,E0,00,00,00,00,FF,FF,
218046505,0CFF2029,true,Rx,0,8,30,FF,FF,FF,FF,FF,FF,FF,
218038401,0CFF0081,true,Rx,0,8,00,00,D0,01,41,50,46,26,
218046505,0CFF2029,true,Rx,0,8,30,FF,FF,FF,FF,FF,FF,FF,
352256829,14FF033D,true,Rx,0,8,00,00,9A,9A,3D,C3,F0,F3,
218038401,0CFF0081,true,Rx,0,8,00,00,D0,01,41,50,34,26,
218046505,0CFF2029,true,Rx,0,8,30,FF,FF,FF,FF,FF,FF,FF,
150940991,08FF2D3F,true,Rx,0,8,04,E1,00,00,00,00,FF,FF,
150940991,08FF2D3F,true,Rx,0,8,04,E0,00,00,00,00,FF,FF,
218038401,0CFF0081,true,Rx,0,8,00,00,D0,01,41,50,20,26,
150940991,08FF2D3F,true,Rx,0,8,04,E0,00,00,00,00,FF,FF,
150940991,08FF2D3F,true,Rx,0,8,04,E0,00,00,00,00,FF,FF,
150940991,08FF2D3F,true,Rx,0,8,04,E0,00,00,00,00,FF,FF,
218046505,0CFF2029,true,Rx,0,8,30,FF,FF,FF,FF,FF,FF,FF,
150940991,08FF2D3F,true,Rx,0,8,04,E0,00,00,00,00,FF,FF,
150940991,08FF2D3F,true,Rx,0,8,04,E1,00,00,00,00,FF,FF,
150940991,08FF2D3F,true,Rx,0,8,04,DE,00,00,00,00,FF,FF,
150940991,08FF2D3F,true,Rx,0,8,04,E0,00,00,00,00,FF,FF,
218046505,0CFF2029,true,Rx,0,8,30,FF,FF,FF,FF,FF,FF,FF,
150940991,08FF2D3F,true,Rx,0,8,04,DE,00,00,00,00,FF,FF,
150940991,08FF2D3F,true,Rx,0,8,04,E0,00,00,00,00,FF,FF,
218038401,0CFF0081,true,Rx,0,8,00,00,D0,01,41,50,1E,26,
218046505,0CFF2029,true,Rx,0,8,30,FF,FF,FF,FF,FF,FF,FF,
150940991,08FF2D3F,true,Rx,0,8,04,E0,00,00,00,00,FF,FF,
218038401,0CFF0081,true,Rx,0,8,00,00,D0,01,41,50,3E,26,
218046505,0CFF2029,true,Rx,0,8,30,FF,FF,FF,FF,FF,FF,FF,
218038401,0CFF0081,true,Rx,0,8,00,00,D0,01,41,50,3A,26,
352256829,14FF033D,true,Rx,0,8,00,00,9A,9A,3D,C3,F0,F3,
150940991,08FF2D3F,true,Rx,0,8,04,DE,00,00,00,00,FF,FF,
352256385,14FF0181,true,Rx,0,8,0A,08,00,00,01,00,9E,13,
150940991,08FF2D3F,true,Rx,0,8,04,E1,00,00,00,00,FF,FF,
150940991,08FF2D3F,true,Rx,0,8,04,E0,00,00,00,00,FF,FF,
150940991,08FF2D3F,true,Rx,0,8,04,E0,00,00,00,00,FF,FF,
218038401,0CFF0081,true,Rx,0,8,00,00,D0,01,41,50,3A,26,
150940991,08FF2D3F,true,Rx,0,8,04,E0,00,00,00,00,FF,FF,
150940991,08FF2D3F,true,Rx,0,8,04,E1,00,00,00,00,FF,FF,
150940991,08FF2D3F,true,Rx,0,8,04,E1,00,00,00,00,FF,FF,
150940991,08FF2D3F,true,Rx,0,8,04,E1,00,00,00,00,FF,FF,
218038401,0CFF0081,true,Rx,0,8,00,00,D0,01,41,50,48,26,
150940991,08FF2D3F,true,Rx,0,8,04,E1,00,00,00,00,FF,FF,
150940991,08FF2D3F,true,Rx,0,8,04,E0,00,00,00,00,FF,FF,
218046505,0CFF2029,true,Rx,0,8,30,FF,FF,FF,FF,FF,FF,FF,
352257597,14FF063D,true,Rx,0,8,15,29,FF,FF,FF,FF,FF,FF,
218038401,0CFF0081,true,Rx,0,8,00,00,D0,01,41,50,50,26,
218046505,0CFF2029,true,Rx,0,8,30,FF,FF,FF,FF,FF,FF,FF,
218038401,0CFF0081,true,Rx,0,8,00,00,D0,01,41,50,42,26,
218046505,0CFF2029,true,Rx,0,8,30,FF,FF,FF,FF,FF,FF,FF,
150940991,08FF2D3F,true,Rx,0,8,04,E0,00,00,00,00,FF,FF,
218038657,0CFF0181,true,Rx,0,8,9E,04,00,00,FF,FF,FF,FF,
150940991,08FF2D3F,true,Rx,0,8,04,E0,00,00,00,00,FF,FF,
150940991,08FF2D3F,true,Rx,0,8,04,DE,00,00,00,00,FF,FF,
150940991,08FF2D3F,true,Rx,0,8,04,E1,00,00,00,00,FF,FF,
218038401,0CFF0081,true,Rx,0,8,00,00,D0,01,41,50,58,26,
150940991,08FF2D3F,true,Rx,0,8,04,E1,00,00,00,00,FF,FF,
150940991,08FF2D3F,true,Rx,0,8,04,E0,00,00,00,00,FF,FF,
150940991,08FF2D3F,true,Rx,0,8,04,E0,00,00,00,00,FF,FF,
150940991,08FF2D3F,true,Rx,0,8,04,E0,00,00,00,00,FF,FF,
218038401,0CFF0081,true,Rx,0,8,00,00,D0,01,41,50,5C,26,
150940991,08FF2D3F,true,Rx,0,8,04,E1,00,00,00,00,FF,FF,
150940991,08FF2D3F,true,Rx,0,8,04,DE,00,00,00,00,FF,FF,
150940991,08FF2D3F,true,Rx,0,8,04,E0,00,00,00,00,FF,FF,
150940991,08FF2D3F,true,Rx,0,8,04,E0,00,00,00,00,FF,FF,
218038401,0CFF0081,true,Rx,0,8,00,00,D0,01,41,50,68,26,
218046505,0CFF2029,true,Rx,0,8,30,FF,FF,FF,FF,FF,FF,FF,
218038401,0CFF0081,true,Rx,0,8,00,00,D0,01,41,50,60,26,
218046505,0CFF2029,true,Rx,0,8,30,FF,FF,FF,FF,FF,FF,FF,
218038401,0CFF0081,true,Rx,0,8,00,00,D0,01,41,50,72,26,
218038657,0CFF0181,true,Rx,0,8,9E,04,00,00,FF,FF,FF,FF,
150940991,08FF2D3F,true,Rx,0,8,04,DE,00,00,00,00,FF,FF,
150940991,08FF2D3F,true,Rx,0,8,04,DE,00,00,00,00,FF,FF,
150940991,08FF2D3F,true,Rx,0,8,04,E0,00,00,00,00,FF,FF,
218038401,0CFF0081,true,Rx,0,8,00,00,D0,01,41,50,72,26,
150940991,08FF2D3F,true,Rx,0,8,04,DE,00,00,00,00,FF,FF,
150940991,08FF2D3F,true,Rx,0,8,04,DE,00,00,00,00,FF,FF,
150940991,08FF2D3F,true,Rx,0,8,04,E0,00,00,00,00,FF,FF,
150940991,08FF2D3F,true,Rx,0,8,04,E0,00,00,00,00,FF,FF,
218038401,0CFF0081,true,Rx,0,8,00,00,D0,01,41,50,6E,26,
150940991,08FF2D3F,true,Rx,0,8,04,E0,00,00,00,00,FF,FF,
150940991,08FF2D3F,true,Rx,0,8,04,E3,00,00,00,00,FF,FF,
150940991,08FF2D3F,true,Rx,0,8,04,E1,00,00,00,00,FF,FF,
150940991,08FF2D3F,true,Rx,0,8,04,DE,00,00,00,00,FF,FF,
218038401,0CFF0081,true,Rx,0,8,00,00,D0,01,41,50,86,26,
218046505,0CFF2029,true,Rx,0,8,30,FF,FF,FF,FF,FF,FF,FF,
218038401,0CFF0081,true,Rx,0,8,00,00,D0,01,41,50,98,26,
218046505,0CFF2029,true,Rx,0,8,30,FF,FF,FF,FF,FF,FF,FF,
218038401,0CFF0081,true,Rx,0,8,00,00,D0,01,41,50,A2,26,
218038657,0CFF0181,true,Rx,0,8,A2,04,00,00,FF,FF,FF,FF,
218046505,0CFF2029,true,Rx,0,8,30,FF,FF,FF,FF,FF,FF,FF,
218038657,0CFF0181,true,Rx,0,8,A1,04,00,00,FF,FF,FF,FF,
352257597,14FF063D,true,Rx,0,8,19,29,FF,FF,FF,FF,FF,FF,
150940991,08FF2D3F,true,Rx,0,8,04,E1,00,00,00,00,FF,FF,
218046505,0CFF2029,true,Rx,0,8,30,FF,FF,FF,FF,FF,FF,FF,
150940991,08FF2D3F,true,Rx,0,8,04,DE,00,00,00,00,FF,FF,
150940991,08FF2D3F,true,Rx,0,8,04,DE,00,00,00,00,FF,FF,
150940991,08FF2D3F,true,Rx,0,8,04,E0,00,00,00,00,FF,FF,
150940991,08FF2D3F,true,Rx,0,8,04,E0,00,00,00,00,FF,FF,
218046505,0CFF2029,true,Rx,0,8,30,FF,FF,FF,FF,FF,FF,FF,
150940991,08FF2D3F,true,Rx,0,8,04,E1,00,00,00,00,FF,FF,
150940991,08FF2D3F,true,Rx,0,8,04,DE,00,00,00,00,FF,FF,
150940991,08FF2D3F,true,Rx,0,8,04,E0,00,00,00,00,FF,FF,
218038401,0CFF0081,true,Rx,0,8,00,00,D0,01,41,50,AC,26,
150940991,08FF2D3F,true,Rx,0,8,04,E3,00,00,00,00,FF,FF,
150940991,08FF2D3F,true,Rx,0,8,04,E1,00,00,00,00,FF,FF,
218046505,0CFF2029,true,Rx,0,8,30,FF,FF,FF,FF,FF,FF,FF,
218038401,0CFF0081,true,Rx,0,8,00,00,D0,01,41,50,BE,26,
218038657,0CFF0181,true,Rx,0,8,9A,04,00,00,FF,FF,FF,FF,
218046505,0CFF2029,true,Rx,0,8,30,FF,FF,FF,FF,FF,FF,FF,
218038401,0CFF0081,true,Rx,0,8,00,00,D0,01,41,50,BA,26,
218046505,0CFF2029,true,Rx,0,8,30,FF,FF,FF,FF,FF,FF,FF,
218038657,0CFF0181,true,Rx,0,8,9A,04,00,00,FF,FF,FF,FF,
150940991,08FF2D3F,true,Rx,0,8,04,E0,00,00,00,00,FF,FF,
150940991,08FF2D3F,true,Rx,0,8,04,E0,00,00,00,00,FF,FF,
150940991,08FF2D3F,true,Rx,0,8,04,E0,00,00,00,00,FF,FF,
150940991,08FF2D3F,true,Rx,0,8,04,E0,00,00,00,00,FF,FF,
150940991,08FF2D3F,true,Rx,0,8,04,E0,00,00,00,00,FF,FF,
218046505,0CFF2029,true,Rx,0,8,30,FF,FF,FF,FF,FF,FF,FF,
150940991,08FF2D3F,true,Rx,0,8,04,DE,00,00,00,00,FF,FF,
150940991,08FF2D3F,true,Rx,0,8,04,E0,00,00,00,00,FF,FF,
150940991,08FF2D3F,true,Rx,0,8,04,E0,00,00,00,00,FF,FF,
150940991,08FF2D3F,true,Rx,0,8,04,DE,00,00,00,00,FF,FF,
218046505,0CFF2029,true,Rx,0,8,30,FF,FF,FF,FF,FF,FF,FF,
150940991,08FF2D3F,true,Rx,0,8,04,E0,00,00,00,00,FF,FF,
150940991,08FF2D3F,true,Rx,0,8,04,E0,00,00,00,00,FF,FF,
218038401,0CFF0081,true,Rx,0,8,00,00,D0,01,41,50,E0,26,
218046505,0CFF2029,true,Rx,0,8,30,FF,FF,FF,FF,FF,FF,FF,
352257597,14FF063D,true,Rx,0,8,19,29,FF,FF,FF,FF,FF,FF,
218038401,0CFF0081,true,Rx,0,8,00,00,D0,01,41,50,F6,26,
218046505,0CFF2029,true,Rx,0,8,30,FF,FF,FF,FF,FF,FF,FF,
218038401,0CFF0081,true,Rx,0,8,00,00,D0,01,41,50,F8,26,
218038657,0CFF0181,true,Rx,0,8,9D,04,00,00,FF,FF,FF,FF,
150940991,08FF2D3F,true,Rx,0,8,04,E1,00,00,00,00,FF,FF,
150940991,08FF2D3F,true,Rx,0,8,04,E0,00,00,00,00,FF,FF,
150940991,08FF2D3F,true,Rx,0,8,04,E0,00,00,00,00,FF,FF,
150940991,08FF2D3F,true,Rx,0,8,04,E0,00,00,00,00,FF,FF,
218046505,0CFF2029,true,Rx,0,8,30,FF,FF,FF,FF,FF,FF,FF,
150940991,08FF2D3F,true,Rx,0,8,04,E1,00,00,00,00,FF,FF,
150940991,08FF2D3F,true,Rx,0,8,04,E1,00,00,00,00,FF,FF,
150940991,08FF2D3F,true,Rx,0,8,04,E0,00,00,00,00,FF,FF,
150940991,08FF2D3F,true,Rx,0,8,04,E0,00,00,00,00,FF,FF,
218046505,0CFF2029,true,Rx,0,8,30,FF,FF,FF,FF,FF,FF,FF,
150940991,08FF2D3F,true,Rx,0,8,04,DE,00,00,00,00,FF,FF,
150940991,08FF2D3F,true,Rx,0,8,04,E1,00,00,00,00,FF,FF,
150940991,08FF2D3F,true,Rx,0,8,04,E0,00,00,00,00,FF,FF,
218046505,0CFF2029,true,Rx,0,8,30,FF,FF,FF,FF,FF,FF,FF,
150940991,08FF2D3F,true,Rx,0,8,04,E1,00,00,00,00,FF,FF,
218038401,0CFF0081,true,Rx,0,8,00,00,D0,01,41,50,1E,27,
218046505,0CFF2029,true,Rx,0,8,30,FF,FF,FF,FF,FF,FF,FF,
218038401,0CFF0081,true,Rx,0,8,00,00,D0,01,41,50,18,27,
218046505,0CFF2029,true,Rx,0,8,30,FF,FF,FF,FF,FF,FF,FF,
352257597,14FF063D,true,Rx,0,8,19,29,FF,FF,FF,FF,FF,FF,
218038657,0CFF0181,true,Rx,0,8,85,04,00,00,FF,FF,FF,FF,
150940991,08FF2D3F,true,Rx,0,8,04,E0,00,00,00,00,FF,FF,
150940991,08FF2D3F,true,Rx,0,8,04,E1,00,00,00,00,FF,FF,
150940991,08FF2D3F,true,Rx,0,8,04,E0,00,00,00,00,FF,FF,
218038401,0CFF0081,true,Rx,0,8,00,00,D0,01,41,50,1C,27,
150940991,08FF2D3F,true,Rx,0,8,04,DE,00,00,00,00,FF,FF,
150940991,08FF2D3F,true,Rx,0,8,04,E0,00,00,00,00,FF,FF,
150940991,08FF2D3F,true,Rx,0,8,04,DE,00,00,00,00,FF,FF,
218046505,0CFF2029,true,Rx,0,8,30,FF,FF,FF,FF,FF,FF,FF,
150940991,08FF2D3F,true,Rx,0,8,04,DE,00,00,00,00,FF,FF,
150940991,08FF2D3F,true,Rx,0,8,04,E0,00,00,00,00,FF,FF,
150940991,08FF2D3F,true,Rx,0,8,04,E1,00,00,00,00,FF,FF,
150940991,08FF2D3F,true,Rx,0,8,04,E0,00,00,00,00,FF,FF,
218046505,0CFF2029,true,Rx,0,8,30,FF,FF,FF,FF,FF,FF,FF,
218038401,0CFF0081,true,Rx,0,8,00,00,D0,01,41,50,2E,27,
218046505,0CFF2029,true,Rx,0,8,30,FF,FF,FF,FF,FF,FF,FF,
218038401,0CFF0081,true,Rx,0,8,00,00,D0,01,41,50,34,27,
218046505,0CFF2029,true,Rx,0,8,30,FF,FF,FF,FF,FF,FF,FF,
150940991,08FF2D3F,true,Rx,0,8,04,E0,00,00,00,00,FF,FF,
218038401,0CFF0081,true,Rx,0,8,00,00,D0,01,41,50,18,27,
218046505,0CFF2029,true,Rx,0,8,30,FF,FF,FF,FF,FF,FF,FF,
352256129,14FF0081,true,Rx,0,8,0D,D1,0E,D1,0F,D1,10,D1,
150940991,08FF2D3F,true,Rx,0,8,04,E0,00,00,00,00,FF,FF,
218038401,0CFF0081,true,Rx,0,8,00,00,D0,01,41,50,2E,27,
150940991,08FF2D3F,true,Rx,0,8,04,E0,00,00,00,00,FF,FF,
150940991,08FF2D3F,true,Rx,0,8,04,E1,00,00,00,00,FF,FF,
150940991,08FF2D3F,true,Rx,0,8,04,E0,00,00,00,00,FF,FF,
150940991,08FF2D3F,true,Rx,0,8,04,E0,00,00,00,00,FF,FF,
218038401,0CFF0081,true,Rx,0,8,00,00,D0,01,41,50,56,27,
150940991,08FF2D3F,true,Rx,0,8,04,E1,00,00,00,00,FF,FF,
150940991,08FF2D3F,true,Rx,0,8,04,E1,00,00,00,00,FF,FF,
150940991,08FF2D3F,true,Rx,0,8,04,E1,00,00,00,00,FF,FF,
150940991,08FF2D3F,true,Rx,0,8,04,DE,00,00,00,00,FF,FF,
218038401,0CFF0081,true,Rx,0,8,00,00,D0,01,41,50,3A,27,
150940991,08FF2D3F,true,Rx,0,8,04,DB,00,00,00,00,FF,FF,
218038401,0CFF0081,true,Rx,0,8,00,00,D0,01,41,50,52,27,
218046505,0CFF2029,true,Rx,0,8,30,FF,FF,FF,FF,FF,FF,FF,
150940991,08FF2D3F,true,Rx,0,8,04,E1,00,00,00,00,FF,FF,
218038401,0CFF0081,true,Rx,0,8,00,00,D0,01,41,50,3A,27,
218046505,0CFF2029,true,Rx,0,8,30,FF,FF,FF,FF,FF,FF,FF,
218038657,0CFF0181,true,Rx,0,8,35,04,00,00,FF,FF,FF,FF,
150940991,08FF2D3F,true,Rx,0,8,04,E0,00,00,00,00,FF,FF,
218038401,0CFF0081,true,Rx,0,8,00,00,D0,01,41,50,44,27,
150940991,08FF2D3F,true,Rx,0,8,04,E0,00,00,00,00,FF,FF,
150940991,08FF2D3F,true,Rx,0,8,04,E1,00,00,00,00,FF,FF,
150940991,08FF2D3F,true,Rx,0,8,04,E0,00,00,00,00,FF,FF,
150940991,08FF2D3F,true,Rx,0,8,04,DE,00,00,00,00,FF,FF,
218038401,0CFF0081,true,Rx,0,8,00,00,D0,01,41,50,40,27,
150940991,08FF2D3F,true,Rx,0,8,04,DE,00,00,00,00,FF,FF,
150940991,08FF2D3F,true,Rx,0,8,04,E1,00,00,00,00,FF,FF,
150940991,08FF2D3F,true,Rx,0,8,04,E0,00,00,00,00,FF,FF,
150940991,08FF2D3F,true,Rx,0,8,04,E1,00,00,00,00,FF,FF,
218038401,0CFF0081,true,Rx,0,8,00,00,D0,01,41,50,3A,27,
150940991,08FF2D3F,true,Rx,0,8,04,E0,00,00,00,00,FF,FF,
150940991,08FF2D3F,true,Rx,0,8,04,E0,00,00,00,00,FF,FF,
218046505,0CFF2029,true,Rx,0,8,30,FF,FF,FF,FF,FF,FF,FF,
218038401,0CFF0081,true,Rx,0,8,00,00,D0,01,41,50,48,27,
218038657,0CFF0181,true,Rx,0,8,26,04,00,00,FF,FF,FF,FF,
218046505,0CFF2029,true,Rx,0,8,30,FF,FF,FF,FF,FF,FF,FF,
218038401,0CFF0081,true,Rx,0,8,00,00,D0,01,41,50,38,27,
218046505,0CFF2029,true,Rx,0,8,30,FF,FF,FF,FF,FF,FF,FF,
218038657,0CFF0181,true,Rx,0,8,23,04,00,00,FF,FF,FF,FF,
150940991,08FF2D3F,true,Rx,0,8,04,E0,00,00,00,00,FF,FF,
150940991,08FF2D3F,true,Rx,0,8,04,DE,00,00,00,00,FF,FF,
150940991,08FF2D3F,true,Rx,0,8,04,E0,00,00,00,00,FF,FF,
150940991,08FF2D3F,true,Rx,0,8,04,E0,00,00,00,00,FF,FF,
218038401,0CFF0081,true,Rx,0,8,00,00,D0,01,41,50,40,27,
150940991,08FF2D3F,true,Rx,0,8,04,E1,00,00,00,00,FF,FF,
150940991,08FF2D3F,true,Rx,0,8,04,DE,00,00,00,00,FF,FF,
150940991,08FF2D3F,true,Rx,0,8,04,E0,00,00,00,00,FF,FF,
150940991,08FF2D3F,true,Rx,0,8,04,DE,00,00,00,00,FF,FF,
218038401,0CFF0081,true,Rx,0,8,00,00,D0,01,41,50,4E,27,
150940991,08FF2D3F,true,Rx,0,8,04,E0,00,00,00,00,FF,FF,
150940991,08FF2D3F,true,Rx,0,8,04,E0,00,00,00,00,FF,FF,
150940991,08FF2D3F,true,Rx,0,8,04,E1,00,00,00,00,FF,FF,
218038401,0CFF0081,true,Rx,0,8,00,00,D0,01,41,50,60,27,
218038657,0CFF0181,true,Rx,0,8,1A,04,00,00,FF,FF,FF,FF,
218046505,0CFF2029,true,Rx,0,8,30,FF,FF,FF,FF,FF,FF,FF,
218038401,0CFF0081,true,Rx,0,8,00,00,D0,01,41,50,3C,27,
218046505,0CFF2029,true,Rx,0,8,30,FF,FF,FF,FF,FF,FF,FF,
218038401,0CFF0081,true,Rx,0,8,00,00,D0,01,41,50,46,27,
218038657,0CFF0181,true,Rx,0,8,16,04,00,00,FF,FF,FF,FF,
352257597,14FF063D,true,Rx,0,8,19,29,FF,FF,FF,FF,FF,FF,
150940991,08FF2D3F,true,Rx,0,8,04,E0,00,00,00,00,FF,FF,
150940991,08FF2D3F,true,Rx,0,8,04,E0,00,00,00,00,FF,FF,
150940991,08FF2D3F,true,Rx,0,8,04,DE,00,00,00,00,FF,FF,
218046505,0CFF2029,true,Rx,0,8,30,FF,FF,FF,FF,FF,FF,FF,
150940991,08FF2D3F,true,Rx,0,8,04,E0,00,00,00,00,FF,FF,
150940991,08FF2D3F,true,Rx,0,8,04,E0,00,00,00,00,FF,FF,
150940991,08FF2D3F,true,Rx,0,8,04,DE,00,00,00,00,FF,FF,
150940991,08FF2D3F,true,Rx,0,8,04,E0,00,00,00,00,FF,FF,
218046505,0CFF2029,true,Rx,0,8,30,FF,FF,FF,FF,FF,FF,FF,
150940991,08FF2D3F,true,Rx,0,8,04,E1,00,00,00,00,FF,FF,
150940991,08FF2D3F,true,Rx,0,8,04,DC,00,00,00,00,FF,FF,
150940991,08FF2D3F,true,Rx,0,8,04,E0,00,00,00,00,FF,FF,
218038401,0CFF0081,true,Rx,0,8,00,00,D0,01,41,50,4A,27,
218046505,0CFF2029,true,Rx,0,8,30,FF,FF,FF,FF,FF,FF,FF,
218038401,0CFF0081,true,Rx,0,8,00,00,D0,01,41,50,4C,27,
218046505,0CFF2029,true,Rx,0,8,30,FF,FF,FF,FF,FF,FF,FF,
218038401,0CFF0081,true,Rx,0,8,00,00,D0,01,41,50,36,27,
218038657,0CFF0181,true,Rx,0,8,0C,04,00,00,FF,FF,FF,FF,
218046505,0CFF2029,true,Rx,0,8,30,FF,FF,FF,FF,FF,FF,FF,
218038657,0CFF0181,true,Rx,0,8,0B,04,00,00,FF,FF,FF,FF,
352256829,14FF033D,true,Rx,0,8,00,00,9A,9A,3D,C3,F0,F3,
352256385,14FF0181,true,Rx,0,8,03,35,34,30,30,31,30,31,
150940991,08FF2D3F,true,Rx,0,8,04,E0,00,00,00,00,FF,FF,
150940991,08FF2D3F,true,Rx,0,8,04,E0,00,00,00,00,FF,FF,
150940991,08FF2D3F,true,Rx,0,8,04,E1,00,00,00,00,FF,FF,
150940991,08FF2D3F,true,Rx,0,8,04,E1,00,00,00,00,FF,FF,
150940991,08FF2D3F,true,Rx,0,8,04,DE,00,00,00,00,FF,FF,
218046505,0CFF2029,true,Rx,0,8,30,FF,FF,FF,FF,FF,FF,FF,
150940991,08FF2D3F,true,Rx,0,8,04,E1,00,00,00,00,FF,FF,
150940991,08FF2D3F,true,Rx,0,8,04,E0,00,00,00,00,FF,FF,
150940991,08FF2D3F,true,Rx,0,8,04,E3,00,00,00,00,FF,FF,
150940991,08FF2D3F,true,Rx,0,8,04,E0,00,00,00,00,FF,FF,
218046505,0CFF2029,true,Rx,0,8,30,FF,FF,FF,FF,FF,FF,FF,
218038401,0CFF0081,true,Rx,0,8,00,00,D0,01,41,50,46,27,
218046505,0CFF2029,true,Rx,0,8,30,FF,FF,FF,FF,FF,FF,FF,
218038401,0CFF0081,true,Rx,0,8,00,00,D0,01,41,50,30,27,
218046505,0CFF2029,true,Rx,0,8,30,FF,FF,FF,FF,FF,FF,FF,
150940991,08FF2D3F,true,Rx,0,8,04,E0,00,00,00,00,FF,FF,
218038401,0CFF0081,true,Rx,0,8,00,00,D0,01,41,50,24,27,
218046505,0CFF2029,true,Rx,0,8,30,FF,FF,FF,FF,FF,FF,FF,
150940991,08FF2D3F,true,Rx,0,8,04,E0,00,00,00,00,FF,FF,
218046505,0CFF2029,true,Rx,0,8,30,FF,FF,FF,FF,FF,FF,FF,
150940991,08FF2D3F,true,Rx,0,8,04,DE,00,00,00,00,FF,FF,
150940991,08FF2D3F,true,Rx,0,8,04,DE,00,00,00,00,FF,FF,
150940991,08FF2D3F,true,Rx,0,8,04,E1,00,00,00,00,FF,FF,
150940991,08FF2D3F,true,Rx,0,8,04,E0,00,00,00,00,FF,FF,
218046505,0CFF2029,true,Rx,0,8,30,FF,FF,FF,FF,FF,FF,FF,
150940991,08FF2D3F,true,Rx,0,8,04,E0,00,00,00,00,FF,FF,
150940991,08FF2D3F,true,Rx,0,8,04,E0,00,00,00,00,FF,FF,
150940991,08FF2D3F,true,Rx,0,8,04,DE,00,00,00,00,FF,FF,
150940991,08FF2D3F,true,Rx,0,8,04,E0,00,00,00,00,FF,FF,
218046505,0CFF2029,true,Rx,0,8,30,FF,FF,FF,FF,FF,FF,FF,
150940991,08FF2D3F,true,Rx,0,8,04,DE,00,00,00,00,FF,FF,
150940991,08FF2D3F,true,Rx,0,8,04,DE,00,00,00,00,FF,FF,
218038401,0CFF0081,true,Rx,0,8,00,00,D0,01,41,50,38,27,
218046505,0CFF2029,true,Rx,0,8,30,FF,FF,FF,FF,FF,FF,FF,
352256829,14FF033D,true,Rx,0,8,00,00,9A,9A,3D,C3,F0,F3,
218038401,0CFF0081,true,Rx,0,8,00,00,D0,01,41,50,2C,27,
218046505,0CFF2029,true,Rx,0,8,30,FF,FF,FF,FF,FF,FF,FF,
218038657,0CFF0181,true,Rx,0,8,0B,04,00,00,FF,FF,FF,FF,
150940991,08FF2D3F,true,Rx,0,8,04,E1,00,00,00,00,FF,FF,
218038401,0CFF0081,true,Rx,0,8,00,00,D0,01,41,50,3C,27,
150940991,08FF2D3F,true,Rx,0,8,04,E0,00,00,00,00,FF,FF,
150940991,08FF2D3F,true,Rx,0,8,04,E3,00,00,00,00,FF,FF,
150940991,08FF2D3F,true,Rx,0,8,04,E0,00,00,00,00,FF,FF,
150940991,08FF2D3F,true,Rx,0,8,04,E0,00,00,00,00,FF,FF,
218038401,0CFF0081,true,Rx,0,8,00,00,D0,01,41,50,1E,27,
150940991,08FF2D3F,true,Rx,0,8,04,E3,00,00,00,00,FF,FF,
150940991,08FF2D3F,true,Rx,0,8,04,E0,00,00,00,00,FF,FF,
150940991,08FF2D3F,true,Rx,0,8,04,E0,00,00,00,00,FF,FF,
218046505,0CFF2029,true,Rx,0,8,30,FF,FF,FF,FF,FF,FF,FF,
150940991,08FF2D3F,true,Rx,0,8,04,E0,00,00,00,00,FF,FF,
150940991,08FF2D3F,true,Rx,0,8,04,E0,00,00,00,00,FF,FF,
150940991,08FF2D3F,true,Rx,0,8,04,E1,00,00,00,00,FF,FF,
218046505,0CFF2029,true,Rx,0,8,30,FF,FF,FF,FF,FF,FF,FF,
150940991,08FF2D3F,true,Rx,0,8,04,E0,00,00,00,00,FF,FF,
218038401,0CFF0081,true,Rx,0,8,00,00,D0,01,41,50,30,27,
218046505,0CFF2029,true,Rx,0,8,30,FF,FF,FF,FF,FF,FF,FF,
218038401,0CFF0081,true,Rx,0,8,00,00,D0,01,41,50,10,27,
218046505,0CFF2029,true,Rx,0,8,30,FF,FF,FF,FF,FF,FF,FF,
352256829,14FF033D,true,Rx,0,8,00,00,9A,9A,3D,C3,F0,F3,
352256129,14FF0081,true,Rx,0,8,15,FF,16,D1,17,D1,18,D0,
150940991,08FF2D3F,true,Rx,0,8,04,E0,00,00,00,00,FF,FF,
150940991,08FF2D3F,true,Rx,0,8,04,E0,00,00,00,00,FF,FF,
150940991,08FF2D3F,true,Rx,0,8,04,E1,00,00,00,00,FF,FF,
218038401,0CFF0081,true,Rx,0,8,00,00,D0,01,41,50,22,27,
150940991,08FF2D3F,true,Rx,0,8,04,DE,00,00,00,00,FF,FF,
150940991,08FF2D3F,true,Rx,0,8,04,DE,00,00,00,00,FF,FF,
150940991,08FF2D3F,true,Rx,0,8,04,E0,00,00,00,00,FF,FF,
150940991,08FF2D3F,true,Rx,0,8,04,E0,00,00,00,00,FF,FF,
218038401,0CFF0081,true,Rx,0,8,00,00,D0,01,41,50,3C,27,
150940991,08FF2D3F,true,Rx,0,8,04,E1,00,00,00,00,FF,FF,
150940991,08FF2D3F,true,Rx,0,8,04,E0,00,00,00,00,FF,FF,
150940991,08FF2D3F,true,Rx,0,8,04,E0,00,00,00,00,FF,FF,
150940991,08FF2D3F,true,Rx,0,8,04,E0,00,00,00,00,FF,FF,
218038401,0CFF0081,true,Rx,0,8,00,00,D0,01,41,50,5A,27,
218046505,0CFF2029,true,Rx,0,8,30,FF,FF,FF,FF,FF,FF,FF,
218038401,0CFF0081,true,Rx,0,8,00,00,D0,01,41,50,3C,27,
218046505,0CFF2029,true,Rx,0,8,30,FF,FF,FF,FF,FF,FF,FF,
150940991,08FF2D3F,true,Rx,0,8,04,E0,00,00,00,00,FF,FF,
218038401,0CFF0081,true,Rx,0,8,00,00,D0,01,41,50,3E,27,
150940991,08FF2D3F,true,Rx,0,8,04,DC,00,00,00,00,FF,FF,
150940991,08FF2D3F,true,Rx,0,8,04,E0,00,00,00,00,FF,FF,
150940991,08FF2D3F,true,Rx,0,8,04,DE,00,00,00,00,FF,FF,
218038401,0CFF0081,true,Rx,0,8,00,00,D0,01,41,50,42,27,
150940991,08FF2D3F,true,Rx,0,8,04,E0,00,00,00,00,FF,FF,
150940991,08FF2D3F,true,Rx,0,8,04,E0,00,00,00,00,FF,FF,
150940991,08FF2D3F,true,Rx,0,8,04,E0,00,00,00,00,FF,FF,
150940991,08FF2D3F,true,Rx,0,8,04,E0,00,00,00,00,FF,FF,
218038401,0CFF0081,true,Rx,0,8,00,00,D0,01,41,50,5C,27,
150940991,08FF2D3F,true,Rx,0,8,04,E0,00,00,00,00,FF,FF,
150940991,08FF2D3F,true,Rx,0,8,04,E1,00,00,00,00,FF,FF,
150940991,08FF2D3F,true,Rx,0,8,04,DE,00,00,00,00,FF,FF,
150940991,08FF2D3F,true,Rx,0,8,04,DE,00,00,00,00,FF,FF,
218038401,0CFF0081,true,Rx,0,8,00,00,D0,01,41,50,44,27,
218046505,0CFF2029,true,Rx,0,8,30,FF,FF,FF,FF,FF,FF,FF,
218038401,0CFF0081,true,Rx,0,8,00,00,D0,01,41,50,5C,27,
218046505,0CFF2029,true,Rx,0,8,30,FF,FF,FF,FF,FF,FF,FF,
218038401,0CFF0081,true,Rx,0,8,00,00,D0,01,41,50,46,27,
218038657,0CFF0181,true,Rx,0,8,0B,04,00,00,FF,FF,FF,FF,
218046505,0CFF2029,true,Rx,0,8,30,FF,FF,FF,FF,FF,FF,FF,
218038657,0CFF0181,true,Rx,0,8,0A,04,00,00,FF,FF,FF,FF,
150940991,08FF2D3F,true,Rx,0,8,04,E0,00,00,00,00,FF,FF,
150940991,08FF2D3F,true,Rx,0,8,04,E0,00,00,00,00,FF,FF,
218046505,0CFF2029,true,Rx,0,8,30,FF,FF,FF,FF,FF,FF,FF,
150940991,08FF2D3F,true,Rx,0,8,04,E0,00,00,00,00,FF,FF,
150940991,08FF2D3F,true,Rx,0,8,04,E0,00,00,00,00,FF,FF,
150940991,08FF2D3F,true,Rx,0,8,04,E1,00,00,00,00,FF,FF,
218038401,0CFF0081,true,Rx,0,8,00,00,D0,01,41,50,4E,27,
150940991,08FF2D3F,true,Rx,0,8,04,E1,00,00,00,00,FF,FF,
150940991,08FF2D3F,true,Rx,0,8,04,DE,00,00,00,00,FF,FF,
150940991,08FF2D3F,true,Rx,0,8,04,DE,00,00,00,00,FF,FF,
150940991,08FF2D3F,true,Rx,0,8,04,DE,00,00,00,00,FF,FF,
218038401,0CFF0081,true,Rx,0,8,00,00,D0,01,41,50,34,27,
150940991,08FF2D3F,true,Rx,0,8,04,DE,00,00,00,00,FF,FF,
150940991,08FF2D3F,true,Rx,0,8,04,DE,00,00,00,00,FF,FF,
218046505,0CFF2029,true,Rx,0,8,30,FF,FF,FF,FF,FF,FF,FF,
218038401,0CFF0081,true,Rx,0,8,00,00,D0,01,41,50,42,27,
218038657,0CFF0181,true,Rx,0,8,03,04,00,00,FF,FF,FF,FF,
218046505,0CFF2029,true,Rx,0,8,30,FF,FF,FF,FF,FF,FF,FF,
218038401,0CFF0081,true,Rx,0,8,00,00,D0,01,41,50,34,27,
218046505,0CFF2029,true,Rx,0,8,30,FF,FF,FF,FF,FF,FF,FF,
150940991,08FF2D3F,true,Rx,0,8,04,E1,00,00,00,00,FF,FF,
218046505,0CFF2029,true,Rx,0,8,30,FF,FF,FF,FF,FF,FF,FF,
150940991,08FF2D3F,true,Rx,0,8,04,DE,00,00,00,00,FF,FF,
150940991,08FF2D3F,true,Rx,0,8,04,E1,00,00,00,00,FF,FF,
150940991,08FF2D3F,true,Rx,0,8,04,E3,00,00,00,00,FF,FF,
150940991,08FF2D3F,true,Rx,0,8,04,E1,00,00,00,00,FF,FF,
218046505,0CFF2029,true,Rx,0,8,30,FF,FF,FF,FF,FF,FF,FF,
150940991,08FF2D3F,true,Rx,0,8,04,E1,00,00,00,00,FF,FF,
150940991,08FF2D3F,true,Rx,0,8,04,E1,00,00,00,00,FF,FF,
150940991,08FF2D3F,true,Rx,0,8,04,E0,00,00,00,00,FF,FF,
150940991,08FF2D3F,true,Rx,0,8,04,E1,00,00,00,00,FF,FF,
218046505,0CFF2029,true,Rx,0,8,30,FF,FF,FF,FF,FF,FF,FF,
150940991,08FF2D3F,true,Rx,0,8,04,DE,00,00,00,00,FF,FF,
150940991,08FF2D3F,true,Rx,0,8,04,E1,00,00,00,00,FF,FF,
218038401,0CFF0081,true,Rx,0,8,00,00,D0,01,41,50,52,27,
218038657,0CFF0181,true,Rx,0,8,04,04,00,00,FF,FF,FF,FF,
218046505,0CFF2029,true,Rx,0,8,30,FF,FF,FF,FF,FF,FF,FF,
218038401,0CFF0081,true,Rx,0,8,00,00,D0,01,41,50,4C,27,
218046505,0CFF2029,true,Rx,0,8,30,FF,FF,FF,FF,FF,FF,FF,
218038401,0CFF0081,true,Rx,0,8,00,00,D0,01,41,50,34,27,
218038657,0CFF0181,true,Rx,0,8,04,04,00,00,FF,FF,FF,FF,
352256829,14FF033D,true,Rx,0,8,00,00,9A,9A,3D,C3,F0,F3,
352256385,14FF0181,true,Rx,0,8,02,31,30,34,34,38,37,30,
150940991,08FF2D3F,true,Rx,0,8,04,E1,00,00,00,00,FF,FF,
150940991,08FF2D3F,true,Rx,0,8,04,E1,00,00,00,00,FF,FF,
218046505,0CFF2029,true,Rx,0,8,30,FF,FF,FF,FF,FF,FF,FF,
150940991,08FF2D3F,true,Rx,0,8,04,E0,00,00,00,00,FF,FF,
150940991,08FF2D3F,true,Rx,0,8,04,E0,00,00,00,00,FF,FF,
150940991,08FF2D3F,true,Rx,0,8,04,DE,00,00,00,00,FF,FF,
150940991,08FF2D3F,true,Rx,0,8,04,DE,00,00,00,00,FF,FF,
218046505,0CFF2029,true,Rx,0,8,30,FF,FF,FF,FF,FF,FF,FF,
150940991,08FF2D3F,true,Rx,0,8,04,DE,00,00,00,00,FF,FF,
150940991,08FF2D3F,true,Rx,0,8,04,E0,00,00,00,00,FF,FF,
150940991,08FF2D3F,true,Rx,0,8,04,E1,00,00,00,00,FF,FF,
218046505,0CFF2029,true,Rx,0,8,30,FF,FF,FF,FF,FF,FF,FF,
352257597,14FF063D,true,Rx,0,8,19,29,FF,FF,FF,FF,FF,FF,
218038401,0CFF0081,true,Rx,0,8,00,00,D0,01,41,50,4E,27,
218046505,0CFF2029,true,Rx,0,8,30,FF,FF,FF,FF,FF,FF,FF,
218038401,0CFF0081,true,Rx,0,8,00,00,D0,01,41,50,2C,27,
218046505,0CFF2029,true,Rx,0,8,30,FF,FF,FF,FF,FF,FF,FF,
150940991,08FF2D3F,true,Rx,0,8,04,E1,00,00,00,00,FF,FF,
150940991,08FF2D3F,true,Rx,0,8,04,E0,00,00,00,00,FF,FF,
150940991,08FF2D3F,true,Rx,0,8,04,DE,00,00,00,00,FF,FF,
150940991,08FF2D3F,true,Rx,0,8,04,E1,00,00,00,00,FF,FF,
218046505,0CFF2029,true,Rx,0,8,30,FF,FF,FF,FF,FF,FF,FF,
150940991,08FF2D3F,true,Rx,0,8,04,E0,00,00,00,00,FF,FF,
150940991,08FF2D3F,true,Rx,0,8,04,E1,00,00,00,00,FF,FF,
150940991,08FF2D3F,true,Rx,0,8,04,E0,00,00,00,00,FF,FF,
150940991,08FF2D3F,true,Rx,0,8,04,E0,00,00,00,00,FF,FF,
218046505,0CFF2029,true,Rx,0,8,30,FF,FF,FF,FF,FF,FF,FF,
150940991,08FF2D3F,true,Rx,0,8,04,E0,00,00,00,00,FF,FF,
150940991,08FF2D3F,true,Rx,0,8,04,E0,00,00,00,00,FF,FF,
150940991,08FF2D3F,true,Rx,0,8,04,E0,00,00,00,00,FF,FF,
150940991,08FF2D3F,true,Rx,0,8,04,DE,00,00,00,00,FF,FF,
218046505,0CFF2029,true,Rx,0,8,30,FF,FF,FF,FF,FF,FF,FF,
218038401,0CFF0081,true,Rx,0,8,00,00,D0,01,41,50,32,27,
218046505,0CFF2029,true,Rx,0,8,30,FF,FF,FF,FF,FF,FF,FF,
218038401,0CFF0081,true,Rx,0,8,00,00,D0,01,41,50,42,27,
218046505,0CFF2029,true,Rx,0,8,30,FF,FF,FF,FF,FF,FF,FF,
352257597,14FF063D,true,Rx,0,8,19,29,FF,FF,FF,FF,FF,FF,
218038657,0CFF0181,true,Rx,0,8,02,04,00,00,FF,FF,FF,FF,
218046505,0CFF2029,true,Rx,0,8,30,FF,FF,FF,FF,FF,FF,FF,
150940991,08FF2D3F,true,Rx,0,8,04,E1,00,00,00,00,FF,FF,
150940991,08FF2D3F,true,Rx,0,8,04,DE,00,00,00,00,FF,FF,
218038401,0CFF0081,true,Rx,0,8,00,00,D0,01,41,50,44,27,
150940991,08FF2D3F,true,Rx,0,8,04,E0,00,00,00,00,FF,FF,
150940991,08FF2D3F,true,Rx,0,8,04,E1,00,00,00,00,FF,FF,
150940991,08FF2D3F,true,Rx,0,8,04,E0,00,00,00,00,FF,FF,
218046505,0CFF2029,true,Rx,0,8,30,FF,FF,FF,FF,FF,FF,FF,
150940991,08FF2D3F,true,Rx,0,8,04,DE,00,00,00,00,FF,FF,
150940991,08FF2D3F,true,Rx,0,8,04,E1,00,00,00,00,FF,FF,
150940991,08FF2D3F,true,Rx,0,8,04,E0,00,00,00,00,FF,FF,
150940991,08FF2D3F,true,Rx,0,8,04,DE,00,00,00,00,FF,FF,
218046505,0CFF2029,true,Rx,0,8,30,FF,FF,FF,FF,FF,FF,FF,
150940991,08FF2D3F,true,Rx,0,8,04,E0,00,00,00,00,FF,FF,
218046505,0CFF2029,true,Rx,0,8,30,FF,FF,FF,FF,FF,FF,FF,
218038401,0CFF0081,true,Rx,0,8,00,00,D0,01,41,50,5C,27,
218046505,0CFF2029,true,Rx,0,8,30,FF,FF,FF,FF,FF,FF,FF,
150940991,08FF2D3F,true,Rx,0,8,04,E1,00,00,00,00,FF,FF,
218038401,0CFF0081,true,Rx,0,8,00,00,D0,01,41,50,42,27,
218046505,0CFF2029,true,Rx,0,8,30,FF,FF,FF,FF,FF,FF,FF,
218038657,0CFF0181,true,Rx,0,8,0D,04,00,00,FF,FF,FF,FF,
352257597,14FF063D,true,Rx,0,8,19,29,FF,FF,FF,FF,FF,FF,
150940991,08FF2D3F,true,Rx,0,8,04,E1,00,00,00,00,FF,FF,
150940991,08FF2D3F,true,Rx,0,8,04,E1,00,00,00,00,FF,FF,
150940991,08FF2D3F,true,Rx,0,8,04,DE,00,00,00,00,FF,FF,
150940991,08FF2D3F,true,Rx,0,8,04,E0,00,00,00,00,FF,FF,
150940991,08FF2D3F,true,Rx,0,8,04,DE,00,00,00,00,FF,FF,
218038401,0CFF0081,true,Rx,0,8,00,00,D0,01,41,50,48,27,
150940991,08FF2D3F,true,Rx,0,8,04,DE,00,00,00,00,FF,FF,
150940991,08FF2D3F,true,Rx,0,8,04,DE,00,00,00,00,FF,FF,
150940991,08FF2D3F,true,Rx,0,8,04,E0,00,00,00,00,FF,FF,
150940991,08FF2D3F,true,Rx,0,8,04,E0,00,00,00,00,FF,FF,
218038401,0CFF0081,true,Rx,0,8,00,00,D0,01,41,50,4E,27,
150940991,08FF2D3F,true,Rx,0,8,04,E0,00,00,00,00,FF,FF,
218038401,0CFF0081,true,Rx,0,8,00,00,D0,01,41,50,4C,27,
218046505,0CFF2029,true,Rx,0,8,30,FF,FF,FF,FF,FF,FF,FF,
150940991,08FF2D3F,true,Rx,0,8,04,E1,00,00,00,00,FF,FF,
218038401,0CFF0081,true,Rx,0,8,00,00,D0,01,41,50,62,27,
218046505,0CFF2029,true,Rx,0,8,30,FF,FF,FF,FF,FF,FF,FF,
218038401,0CFF0081,true,Rx,0,8,00,00,D0,01,41,50,4E,27,
218046505,0CFF2029,true,Rx,0,8,30,FF,FF,FF,FF,FF,FF,FF,
150940991,08FF2D3F,true,Rx,0,8,04,E0,00,00,00,00,FF,FF,
150940991,08FF2D3F,true,Rx,0,8,04,E1,00,00,00,00,FF,FF,
150940991,08FF2D3F,true,Rx,0,8,04,E0,00,00,00,00,FF,FF,
150940991,08FF2D3F,true,Rx,0,8,04,E0,00,00,00,00,FF,FF,
150940991,08FF2D3F,true,Rx,0,8,04,DE,00,00,00,00,FF,FF,
218038401,0CFF0081,true,Rx,0,8,00,00,D0,01,41,50,3A,27,
150940991,08FF2D3F,true,Rx,0,8,04,DE,00,00,00,00,FF,FF,
150940991,08FF2D3F,true,Rx,0,8,04,E0,00,00,00,00,FF,FF,
150940991,08FF2D3F,true,Rx,0,8,04,DE,00,00,00,00,FF,FF,
150940991,08FF2D3F,true,Rx,0,8,04,E0,00,00,00,00,FF,FF,
218038401,0CFF0081,true,Rx,0,8,00,00,D0,01,41,50,52,27,
150940991,08FF2D3F,true,Rx,0,8,04,DC,00,00,00,00,FF,FF,
150940991,08FF2D3F,true,Rx,0,8,04,E1,00,00,00,00,FF,FF,
218046505,0CFF2029,true,Rx,0,8,30,FF,FF,FF,FF,FF,FF,FF,
218038401,0CFF0081,true,Rx,0,8,00,00,D0,01,41,50,36,27,
218038657,0CFF0181,true,Rx,0,8,F5,03,00,00,FF,FF,FF,FF,
218046505,0CFF2029,true,Rx,0,8,30,FF,FF,FF,FF,FF,FF,FF,
218038401,0CFF0081,true,Rx,0,8,00,00,D0,01,41,50,4A,27,
218046505,0CFF2029,true,Rx,0,8,30,FF,FF,FF,FF,FF,FF,FF,
218038657,0CFF0181,true,Rx,0,8,F6,03,00,00,FF,FF,FF,FF,
150940991,08FF2D3F,true,Rx,0,8,04,DE,00,00,00,00,FF,FF,
150940991,08FF2D3F,true,Rx,0,8,04,E1,00,00,00,00,FF,FF,
150940991,08FF2D3F,true,Rx,0,8,04,E0,00,00,00,00,FF,FF,
150940991,08FF2D3F,true,Rx,0,8,04,DE,00,00,00,00,FF,FF,
218038401,0CFF0081,true,Rx,0,8,00,00,D0,01,41,50,38,27,
150940991,08FF2D3F,true,Rx,0,8,04,E3,00,00,00,00,FF,FF,
150940991,08FF2D3F,true,Rx,0,8,04,E0,00,00,00,00,FF,FF,
150940991,08FF2D3F,true,Rx,0,8,04,DE,00,00,00,00,FF,FF,
150940991,08FF2D3F,true,Rx,0,8,04,E0,00,00,00,00,FF,FF,
218038401,0CFF0081,true,Rx,0,8,00,00,D0,01,41,50,32,27,
150940991,08FF2D3F,true,Rx,0,8,04,E0,00,00,00,00,FF,FF,
150940991,08FF2D3F,true,Rx,0,8,04,E0,00,00,00,00,FF,FF,
150940991,08FF2D3F,true,Rx,0,8,04,E1,00,00,00,00,FF,FF,
150940991,08FF2D3F,true,Rx,0,8,04,E1,00,00,00,00,FF,FF,
218038401,0CFF0081,true,Rx,0,8,00,00,D0,01,41,50,2C,27,
218046505,0CFF2029,true,Rx,0,8,30,FF,FF,FF,FF,FF,FF,FF,
218038401,0CFF0081,true,Rx,0,8,00,00,D0,01,41,50,2E,27,
218046505,0CFF2029,true,Rx,0,8,30,FF,FF,FF,FF,FF,FF,FF,
218038401,0CFF0081,true,Rx,0,8,00,00,D0,01,41,50,3E,27,
218038657,0CFF0181,true,Rx,0,8,F8,03,00,00,FF,FF,FF,FF,
218046505,0CFF2029,true,Rx,0,8,30,FF,FF,FF,FF,FF,FF,FF,
150940991,08FF2D3F,true,Rx,0,8,04,DE,00,00,00,00,FF,FF,
150940991,08FF2D3F,true,Rx,0,8,04,E0,00,00,00,00,FF,FF,
150940991,08FF2D3F,true,Rx,0,8,04,E1,00,00,00,00,FF,FF,
218046505,0CFF2029,true,Rx,0,8,30,FF,FF,FF,FF,FF,FF,FF,
150940991,08FF2D3F,true,Rx,0,8,04,E0,00,00,00,00,FF,FF,
150940991,08FF2D3F,true,Rx,0,8,04,E1,00,00,00,00,FF,FF,
150940991,08FF2D3F,true,Rx,0,8,04,DE,00,00,00,00,FF,FF,
150940991,08FF2D3F,true,Rx,0,8,04,E1,00,00,00,00,FF,FF,
218046505,0CFF2029,true,Rx,0,8,30,FF,FF,FF,FF,FF,FF,FF,
150940991,08FF2D3F,true,Rx,0,8,04,E1,00,00,00,00,FF,FF,
150940991,08FF2D3F,true,Rx,0,8,04,DE,00,00,00,00,FF,FF,
150940991,08FF2D3F,true,Rx,0,8,04,E1,00,00,00,00,FF,FF,
218038401,0CFF0081,true,Rx,0,8,00,00,D0,01,41,50,2E,27,
150940991,08FF2D3F,true,Rx,0,8,04,E0,00,00,00,00,FF,FF,
