Time Stamp,ID,Extended,Dir,Bus,LEN,D1,D2,D3,D4,D5,D6,D7,D8
419377953,18FF3321,true,Rx,0,8,FF,FA,FF,FA,FF,FA,FF,FA,
419378465,18FF3521,true,Rx,0,8,55,15,55,51,51,45,00,10,
419378721,18FF3621,true,Rx,0,8,50,11,01,05,54,01,04,00,
419378465,18FF3521,true,Rx,0,8,55,15,55,51,51,45,00,10,
419378721,18FF3621,true,Rx,0,8,50,11,01,05,54,01,04,00,
419377431,18FF3117,true,Rx,0,8,00,00,01,01,00,65,00,05,
419378465,18FF3521,true,Rx,0,8,55,15,55,51,51,45,00,10,
419378721,18FF3621,true,Rx,0,8,50,11,01,05,54,01,04,00,
419378465,18FF3521,true,Rx,0,8,55,15,55,51,51,45,00,10,
419378721,18FF3621,true,Rx,0,8,50,11,01,05,54,01,04,00,
419377431,18FF3117,true,Rx,0,8,00,00,01,01,00,65,00,05,
418324759,18EF2117,true,Rx,0,8,01,F7,FF,FF,FF,FF,FF,FF,
418322209,18EF1721,true,Rx,0,8,03,04,70,74,FF,FF,FF,FF,
419378465,18FF3521,true,Rx,0,8,55,15,55,51,51,45,00,10,
419378721,18FF3621,true,Rx,0,8,50,11,01,05,54,01,04,00,
418322209,18EF1721,true,Rx,0,8,03,04,70,74,FF,FF,FF,FF,
419378465,18FF3521,true,Rx,0,8,55,15,55,51,51,45,00,10,
419377697,18FF3221,true,Rx,0,8,F4,FF,FF,FF,FF,FF,01,FA,
419378465,18FF3521,true,Rx,0,8,55,15,55,51,51,45,00,10,
419378721,18FF3621,true,Rx,0,8,50,11,01,05,54,01,04,00,
418322209,18EF1721,true,Rx,0,8,03,04,70,74,FF,FF,FF,FF,
419378465,18FF3521,true,Rx,0,8,55,15,55,51,51,45,00,10,
218000622,0CFE6CEE,true,Rx,0,8,38,0F,7F,C0,00,00,00,00,
419379233,18FF3821,true,Rx,0,8,FC,00,00,00,00,00,00,FF,
419379489,18FF3921,true,Rx,0,8,00,00,00,00,00,00,FF,FF,
419378465,18FF3521,true,Rx,0,8,55,15,55,51,51,45,00,10,
419378721,18FF3621,true,Rx,0,8,50,11,01,05,54,01,04,00,
418324759,18EF2117,true,Rx,0,8,01,F7,FF,FF,FF,FF,FF,FF,
419378465,18FF3521,true,Rx,0,8,55,15,55,51,51,45,00,10,
419378721,18FF3621,true,Rx,0,8,50,11,01,05,54,01,04,00,
419378465,18FF3521,true,Rx,0,8,55,15,55,51,51,45,00,10,
419377431,18FF3117,true,Rx,0,8,00,00,01,01,00,65,00,05,
418324759,18EF2117,true,Rx,0,8,01,F7,FF,FF,FF,FF,FF,FF,
419378465,18FF3521,true,Rx,0,8,55,15,55,51,51,45,00,10,
418322209,18EF1721,true,Rx,0,8,03,04,70,74,FF,FF,FF,FF,
419377697,18FF3221,true,Rx,0,8,F4,FF,FF,FF,FF,FF,01,FA,
218000622,0CFE6CEE,true,Rx,0,8,38,0F,7F,C0,00,00,00,00,
419348974,18FEC1EE,true,Rx,0,8,3E,59,0B,00,68,30,00,00,
419378465,18FF3521,true,Rx,0,8,55,15,55,51,51,45,00,10,
418322209,18EF1721,true,Rx,0,8,03,04,70,74,FF,FF,FF,FF,
419378465,18FF3521,true,Rx,0,8,55,15,55,51,51,45,00,10,
418322209,18EF1721,true,Rx,0,8,03,04,70,74,FF,FF,FF,FF,
419378465,18FF3521,true,Rx,0,8,55,15,55,51,51,45,00,10,
419378721,18FF3621,true,Rx,0,8,50,11,01,05,54,01,04,00,
217056256,0CF00400,true,Rx,0,8,0E,7D,7D,00,00,00,00,7D,
419378465,18FF3521,true,Rx,0,8,55,15,55,51,51,45,00,10,
217056256,0CF00400,true,Rx,0,8,0E,7D,7D,00,00,00,00,7D,
419378465,18FF3521,true,Rx,0,8,55,15,55,51,51,45,00,10,
419378721,18FF3621,true,Rx,0,8,50,11,01,05,54,01,04,00,
217056256,0CF00400,true,Rx,0,8,0E,7D,7D,00,00,00,00,7D,
419378721,18FF3621,true,Rx,0,8,50,11,01,05,54,01,04,00,
217056256,0CF00400,true,Rx,0,8,0E,7D,7D,00,00,00,00,7D,
419377697,18FF3221,true,Rx,0,8,F4,FF,FF,FF,FF,FF,01,FA,
418322209,18EF1721,true,Rx,0,8,01,02,FF,FF,FF,FF,FF,FF,
419378465,18FF3521,true,Rx,0,8,55,15,55,51,51,45,00,10,
418322209,18EF1721,true,Rx,0,8,01,02,FF,FF,FF,FF,FF,FF,
419378465,18FF3521,true,Rx,0,8,55,15,55,51,51,45,00,10,
418322209,18EF1721,true,Rx,0,8,01,02,FF,FF,FF,FF,FF,FF,
218000622,0CFE6CEE,true,Rx,0,8,38,0F,7F,C0,00,00,00,00,
484371991,1CDEEE17,true,Rx,0,8,FF,FF,FF,FF,FF,FF,FF,FF,
218000622,0CFE6CEE,true,Rx,0,8,38,0F,7F,C0,00,00,00,00,
419378465,18FF3521,true,Rx,0,8,55,15,55,51,51,45,00,10,
419378721,18FF3621,true,Rx,0,8,50,11,01,05,54,01,04,00,
218000622,0CFE6CEE,true,Rx,0,8,38,0F,7F,C0,00,00,00,00,
419378465,18FF3521,true,Rx,0,8,55,15,55,51,51,45,00,10,
419378209,18FF3421,true,Rx,0,8,FF,FA,68,1A,FF,FF,FF,FF,
419378465,18FF3521,true,Rx,0,8,55,15,55,51,51,45,00,10,
419378721,18FF3621,true,Rx,0,8,50,11,01,05,54,01,04,00,
217056256,0CF00400,true,Rx,0,8,0E,7D,7D,00,00,00,07,7D,
419378465,18FF3521,true,Rx,0,8,55,15,55,51,51,45,00,10,
217056256,0CF00400,true,Rx,0,8,0E,7D,7D,00,00,00,07,7D,
419378721,18FF3621,true,Rx,0,8,50,11,01,05,54,01,04,00,
419377431,18FF3117,true,Rx,0,8,00,00,01,01,00,65,00,05,
217056256,0CF00400,true,Rx,0,8,0E,7D,7D,00,00,00,07,7D,
418322209,18EF1721,true,Rx,0,8,01,02,FF,FF,FF,FF,FF,FF,
419378465,18FF3521,true,Rx,0,8,55,15,55,51,51,45,00,10,
419377697,18FF3221,true,Rx,0,8,F4,FF,FF,FF,FF,FF,01,FA,
418322209,18EF1721,true,Rx,0,8,01,02,FF,FF,FF,FF,FF,FF,
419378465,18FF3521,true,Rx,0,8,55,15,55,51,51,45,00,10,
418322209,18EF1721,true,Rx,0,8,01,02,FF,FF,FF,FF,FF,FF,
419378465,18FF3521,true,Rx,0,8,55,15,55,51,51,45,00,10,
418322209,18EF1721,true,Rx,0,8,01,02,FF,FF,FF,FF,FF,FF,
218000622,0CFE6CEE,true,Rx,0,8,38,0F,7F,C0,00,00,00,00,
419378209,18FF3421,true,Rx,0,8,FF,FA,68,1A,FF,FF,FF,FF,
418324759,18EF2117,true,Rx,0,8,01,F7,FF,FF,FF,FF,FF,FF,
419378465,18FF3521,true,Rx,0,8,55,15,55,51,51,45,00,10,
217056256,0CF00400,true,Rx,0,8,0E,7D,7D,00,00,00,07,7D,
419378465,18FF3521,true,Rx,0,8,55,15,55,51,51,45,00,10,
419378721,18FF3621,true,Rx,0,8,50,11,01,05,54,01,04,00,
418324759,18EF2117,true,Rx,0,8,01,F7,FF,FF,FF,FF,FF,FF,
419378465,18FF3521,true,Rx,0,8,55,15,55,51,51,45,00,10,
419378721,18FF3621,true,Rx,0,8,50,11,01,05,54,01,04,00,
217056256,0CF00400,true,Rx,0,8,0E,7D,7D,00,00,00,07,7D,
418322209,18EF1721,true,Rx,0,8,01,02,FF,FF,FF,FF,FF,FF,
419377697,18FF3221,true,Rx,0,8,F4,FF,FF,FF,FF,FF,01,FA,
418322209,18EF1721,true,Rx,0,8,01,02,FF,FF,FF,FF,FF,FF,
218000622,0CFE6CEE,true,Rx,0,8,38,0F,7F,C0,00,00,00,00,
419378465,18FF3521,true,Rx,0,8,55,15,55,51,51,45,00,10,
418322209,18EF1721,true,Rx,0,8,01,02,FF,FF,FF,FF,FF,FF,
419378465,18FF3521,true,Rx,0,8,55,15,55,51,51,45,00,10,
419377697,18FF3221,true,Rx,0,8,F4,FF,FF,FF,FF,FF,01,FA,
418322209,18EF1721,true,Rx,0,8,01,02,FF,FF,FF,FF,FF,FF,
419378465,18FF3521,true,Rx,0,8,55,15,55,51,51,45,00,10,
218000622,0CFE6CEE,true,Rx,0,8,38,0F,7F,C0,00,00,00,00,
419378465,18FF3521,true,Rx,0,8,55,15,55,51,51,45,00,10,
217056256,0CF00400,true,Rx,0,8,0E,7D,7D,00,00,00,07,7D,
419377697,18FF3221,true,Rx,0,8,F4,FF,FF,FF,FF,FF,01,FA,
419378465,18FF3521,true,Rx,0,8,55,15,55,51,51,45,00,10,
217056256,0CF00400,true,Rx,0,8,0E,7D,7D,00,00,00,07,7D,
419378465,18FF3521,true,Rx,0,8,55,15,55,51,51,45,00,10,
217056256,0CF00400,true,Rx,0,8,0E,7D,7D,00,00,00,07,7D,
418322209,18EF1721,true,Rx,0,8,23,00,28,00,09,32,37,2E,
419377431,18FF3117,true,Rx,0,8,00,00,01,01,00,65,00,05,
419378465,18FF3521,true,Rx,0,8,55,15,55,51,51,45,00,10,
418322209,18EF1721,true,Rx,0,8,01,02,FF,FF,FF,FF,FF,FF,
218000622,0CFE6CEE,true,Rx,0,8,38,0F,7F,C0,00,00,00,00,
419378465,18FF3521,true,Rx,0,8,55,15,55,51,51,45,00,10,
418322209,18EF1721,true,Rx,0,8,01,02,FF,FF,FF,FF,FF,FF,
419377697,18FF3221,true,Rx,0,8,F4,FF,FF,FF,FF,FF,01,FA,
418322209,18EF1721,true,Rx,0,8,01,02,FF,FF,FF,FF,FF,FF,
218000622,0CFE6CEE,true,Rx,0,8,38,0F,7F,C0,00,00,00,00,
419378465,18FF3521,true,Rx,0,8,55,15,55,51,51,45,00,10,
418322209,18EF1721,true,Rx,0,8,01,02,FF,FF,FF,FF,FF,FF,
419378465,18FF3521,true,Rx,0,8,55,15,55,51,51,45,00,10,
218000622,0CFE6CEE,true,Rx,0,8,38,0F,7F,C0,00,00,00,00,
419377953,18FF3321,true,Rx,0,8,FF,FA,FF,FA,FF,FA,FF,FA,
419378465,18FF3521,true,Rx,0,8,55,15,55,51,51,45,00,10,
217056256,0CF00400,true,Rx,0,8,0E,7D,7D,00,00,00,07,7D,
419378465,18FF3521,true,Rx,0,8,55,15,55,51,51,45,00,10,
217056256,0CF00400,true,Rx,0,8,0E,7D,7D,00,00,00,07,7D,
418324759,18EF2117,true,Rx,0,8,01,F7,FF,FF,FF,FF,FF,FF,
419378465,18FF3521,true,Rx,0,8,55,15,55,51,51,45,00,10,
217056256,0CF00400,true,Rx,0,8,0E,7D,7D,00,00,00,07,7D,
418324759,18EF2117,true,Rx,0,8,01,F7,FF,FF,FF,FF,FF,FF,
419378465,18FF3521,true,Rx,0,8,55,15,55,51,51,45,00,10,
419378721,18FF3621,true,Rx,0,8,50,11,01,05,54,01,04,00,
419377697,18FF3221,true,Rx,0,8,F4,FF,FF,FF,FF,FF,01,FA,
419378465,18FF3521,true,Rx,0,8,55,15,55,51,51,45,00,10,
418322209,18EF1721,true,Rx,0,8,01,02,FF,FF,FF,FF,FF,FF,
419378465,18FF3521,true,Rx,0,8,55,15,55,51,51,45,00,10,
419378721,18FF3621,true,Rx,0,8,50,11,01,05,54,01,04,00,
218000622,0CFE6CEE,true,Rx,0,8,38,0F,7F,C0,00,00,00,00,
419377697,18FF3221,true,Rx,0,8,F4,FF,FF,FF,FF,FF,01,FA,
218000622,0CFE6CEE,true,Rx,0,8,38,0F,7F,C0,00,00,00,00,
217056256,0CF00400,true,Rx,0,8,0E,7D,7D,00,00,00,07,7D,
419378465,18FF3521,true,Rx,0,8,55,15,55,51,51,45,00,10,
217056256,0CF00400,true,Rx,0,8,0E,7D,7D,00,00,00,07,7D,
419378465,18FF3521,true,Rx,0,8,55,15,55,51,51,45,00,10,
419379489,18FF3921,true,Rx,0,8,00,00,00,00,00,00,FF,FF,
217056256,0CF00400,true,Rx,0,8,0E,7D,7D,00,00,00,07,7D,
419378465,18FF3521,true,Rx,0,8,55,15,55,51,51,45,00,10,
217056256,0CF00400,true,Rx,0,8,0E,7D,7D,00,00,00,07,7D,
419378721,18FF3621,true,Rx,0,8,50,11,01,05,54,01,04,00,
217056256,0CF00400,true,Rx,0,8,0E,7D,7D,00,00,00,07,7D,
419377697,18FF3221,true,Rx,0,8,F4,FF,FF,FF,FF,FF,01,FA,
218000622,0CFE6CEE,true,Rx,0,8,38,0F,7F,C0,00,00,00,00,
419348974,18FEC1EE,true,Rx,0,8,3E,59,0B,00,68,30,00,00,
418322209,18EF1721,true,Rx,0,8,01,02,FF,FF,FF,FF,FF,FF,
419378465,18FF3521,true,Rx,0,8,55,15,55,51,51,45,00,10,
419378721,18FF3621,true,Rx,0,8,50,11,01,05,54,01,04,00,
419377697,18FF3221,true,Rx,0,8,F4,FF,FF,FF,FF,FF,01,FA,
419378465,18FF3521,true,Rx,0,8,55,15,55,51,51,45,00,10,
218000622,0CFE6CEE,true,Rx,0,8,38,0F,7F,C0,00,00,00,00,
419358446,18FEE6EE,true,Rx,0,8,B8,2F,0D,05,6B,27,7D,7A,
419378465,18FF3521,true,Rx,0,8,55,15,55,51,51,45,00,10,
217056256,0CF00400,true,Rx,0,8,0E,7D,7D,00,00,00,07,7D,
419379233,18FF3821,true,Rx,0,8,FC,00,00,00,00,00,00,FF,
217056256,0CF00400,true,Rx,0,8,0E,7D,7D,00,00,00,07,7D,
419378465,18FF3521,true,Rx,0,8,55,15,55,51,51,45,00,10,
419378721,18FF3621,true,Rx,0,8,50,11,01,05,54,01,04,00,
217056256,0CF00400,true,Rx,0,8,0E,7D,7D,00,00,00,07,7D,
419378465,18FF3521,true,Rx,0,8,55,15,55,51,51,45,00,10,
217056256,0CF00400,true,Rx,0,8,0E,7D,7D,00,00,00,07,7D,
419378465,18FF3521,true,Rx,0,8,55,15,55,51,51,45,00,10,
419377431,18FF3117,true,Rx,0,8,00,00,01,01,00,65,00,05,
419378465,18FF3521,true,Rx,0,8,55,15,55,51,51,45,00,10,
418322209,18EF1721,true,Rx,0,8,01,02,FF,FF,FF,FF,FF,FF,
484371991,1CDEEE17,true,Rx,0,8,FF,FF,FF,FF,FF,FF,FF,FF,
419377697,18FF3221,true,Rx,0,8,F4,FF,FF,FF,FF,FF,01,FA,
418322209,18EF1721,true,Rx,0,8,04,10,00,00,07,FF,FF,FF,
419378465,18FF3521,true,Rx,0,8,55,15,55,51,51,45,00,10,
218000622,0CFE6CEE,true,Rx,0,8,38,0F,7F,C0,00,00,00,00,
419378465,18FF3521,true,Rx,0,8,55,15,55,51,51,45,00,10,
419378721,18FF3621,true,Rx,0,8,50,11,01,05,54,01,04,00,
418322209,18EF1721,true,Rx,0,8,01,02,FF,FF,FF,FF,FF,FF,
419378465,18FF3521,true,Rx,0,8,55,15,55,51,51,45,00,10,
218000622,0CFE6CEE,true,Rx,0,8,38,0F,7F,C0,00,00,00,00,
419378465,18FF3521,true,Rx,0,8,55,15,55,51,51,45,00,10,
419378721,18FF3621,true,Rx,0,8,50,11,01,05,54,01,04,00,
217056256,0CF00400,true,Rx,0,8,0E,7D,7D,00,00,00,07,7D,
419378465,18FF3521,true,Rx,0,8,55,15,55,51,51,45,00,10,
217056256,0CF00400,true,Rx,0,8,0E,7D,7D,00,00,00,07,7D,
419378721,18FF3621,true,Rx,0,8,50,11,01,05,54,01,04,00,
419377431,18FF3117,true,Rx,0,8,00,00,01,01,00,65,00,05,
217056256,0CF00400,true,Rx,0,8,0E,7D,7D,00,00,00,07,7D,
419377697,18FF3221,true,Rx,0,8,F4,FF,FF,FF,FF,FF,01,FA,
418322209,18EF1721,true,Rx,0,8,29,08,00,20,01,09,00,20,
418322209,18EF1721,true,Rx,0,8,2A,01,0A,00,20,01,0B,00,
218000622,0CFE6CEE,true,Rx,0,8,38,0F,7F,C0,00,00,00,00,
418322209,18EF1721,true,Rx,0,8,2B,10,01,00,0F,20,01,2E,
418322209,18EF1721,true,Rx,0,8,2C,00,20,01,2F,00,20,10,
419377697,18FF3221,true,Rx,0,8,F4,FF,FF,FF,FF,FF,01,FA,
418322209,18EF1721,true,Rx,0,8,2D,08,00,20,01,30,00,20,
418322209,18EF1721,true,Rx,0,8,2E,10,09,00,23,60,15,00,
418322209,18EF1721,true,Rx,0,8,2F,28,00,02,20,00,20,01,
218000622,0CFE6CEE,true,Rx,0,8,38,0F,7F,C0,00,00,00,00,
419378465,18FF3521,true,Rx,0,8,55,15,55,51,51,45,00,10,
419378721,18FF3621,true,Rx,0,8,50,11,01,05,54,01,04,00,
419378209,18FF3421,true,Rx,0,8,FF,FA,68,1A,FF,FF,FF,FF,
419378465,18FF3521,true,Rx,0,8,55,15,55,51,51,45,00,10,
217056256,0CF00400,true,Rx,0,8,0E,7D,7D,00,00,00,07,7D,
419378465,18FF3521,true,Rx,0,8,55,15,55,51,51,45,00,10,
419378721,18FF3621,true,Rx,0,8,50,11,01,05,54,01,04,00,
217056256,0CF00400,true,Rx,0,8,0E,7D,7D,00,00,00,07,7D,
419377431,18FF3117,true,Rx,0,8,00,00,01,01,00,65,00,05,
217056256,0CF00400,true,Rx,0,8,0E,7D,7D,00,00,00,07,7D,
418322209,18EF1721,true,Rx,0,8,2A,35,2E,32,34,00,FF,FF,
218000622,0CFE6CEE,true,Rx,0,8,38,0F,7F,C0,00,00,00,00,
419378465,18FF3521,true,Rx,0,8,55,15,55,51,51,45,00,10,
419377697,18FF3221,true,Rx,0,8,F4,FF,FF,FF,FF,FF,01,FA,
419378465,18FF3521,true,Rx,0,8,55,15,55,51,51,45,00,10,
418322209,18EF1721,true,Rx,0,8,01,02,FF,FF,FF,FF,FF,FF,
218000622,0CFE6CEE,true,Rx,0,8,38,0F,7F,C0,00,00,00,00,
419378465,18FF3521,true,Rx,0,8,55,15,55,51,51,45,00,10,
218000622,0CFE6CEE,true,Rx,0,8,38,0F,7F,C0,00,00,00,00,
419377953,18FF3321,true,Rx,0,8,FF,FA,FF,FA,FF,FA,FF,FA,
218000622,0CFE6CEE,true,Rx,0,8,38,0F,7F,C0,00,00,00,00,
217056256,0CF00400,true,Rx,0,8,0E,7D,7D,00,00,00,07,7D,
419378465,18FF3521,true,Rx,0,8,55,15,55,51,51,45,00,10,
217056256,0CF00400,true,Rx,0,8,0E,7D,7D,00,00,00,07,7D,
419378465,18FF3521,true,Rx,0,8,55,15,55,51,51,45,00,10,
419378721,18FF3621,true,Rx,0,8,50,11,01,05,54,01,04,00,
217056256,0CF00400,true,Rx,0,8,0E,7D,7D,00,00,00,07,7D,
419378721,18FF3621,true,Rx,0,8,50,11,01,05,54,01,04,00,
217056256,0CF00400,true,Rx,0,8,0E,7D,7D,00,00,00,07,7D,
218000622,0CFE6CEE,true,Rx,0,8,38,0F,7F,C0,00,00,00,00,
418324759,18EF2117,true,Rx,0,8,01,F7,FF,FF,FF,FF,FF,FF,
419377697,18FF3221,true,Rx,0,8,F4,FF,FF,FF,FF,FF,01,FA,
418322209,18EF1721,true,Rx,0,8,01,02,FF,FF,FF,FF,FF,FF,
419378465,18FF3521,true,Rx,0,8,55,15,55,51,51,45,00,10,
418322209,18EF1721,true,Rx,0,8,01,02,FF,FF,FF,FF,FF,FF,
218000622,0CFE6CEE,true,Rx,0,8,38,0F,7F,C0,00,00,00,00,
419378465,18FF3521,true,Rx,0,8,55,15,55,51,51,45,00,10,
419377697,18FF3221,true,Rx,0,8,F4,FF,FF,FF,FF,FF,01,FA,
418322209,18EF1721,true,Rx,0,8,21,15,00,28,00,02,20,00,
418324759,18EF2117,true,Rx,0,8,30,00,14,FF,FF,FF,FF,FF,
218000622,0CFE6CEE,true,Rx,0,8,38,0F,7F,C0,00,00,00,00,
419378465,18FF3521,true,Rx,0,8,55,15,55,51,51,45,00,10,
418324759,18EF2117,true,Rx,0,8,01,F7,FF,FF,FF,FF,FF,FF,
419379489,18FF3921,true,Rx,0,8,00,00,00,00,00,00,FF,FF,
217056256,0CF00400,true,Rx,0,8,0E,7D,7D,00,00,00,07,7D,
418322209,18EF1721,true,Rx,0,8,21,15,00,28,00,02,20,00,
419378465,18FF3521,true,Rx,0,8,55,15,55,51,51,45,00,10,
217056256,0CF00400,true,Rx,0,8,0E,7D,7D,00,00,00,07,7D,
419378721,18FF3621,true,Rx,0,8,50,11,01,05,54,01,04,00,
418324759,18EF2117,true,Rx,0,8,01,F7,FF,FF,FF,FF,FF,FF,
217056256,0CF00400,true,Rx,0,8,0E,7D,7D,00,00,00,07,7D,
418322209,18EF1721,true,Rx,0,8,01,02,FF,FF,FF,FF,FF,FF,
419378465,18FF3521,true,Rx,0,8,55,15,55,51,51,45,00,10,
418322209,18EF1721,true,Rx,0,8,01,02,FF,FF,FF,FF,FF,FF,
218000622,0CFE6CEE,true,Rx,0,8,38,0F,7F,C0,00,00,00,00,
419377697,18FF3221,true,Rx,0,8,F4,FF,FF,FF,FF,FF,01,FA,
418322209,18EF1721,true,Rx,0,8,01,02,FF,FF,FF,FF,FF,FF,
419378465,18FF3521,true,Rx,0,8,55,15,55,51,51,45,00,10,
418322209,18EF1721,true,Rx,0,8,01,02,FF,FF,FF,FF,FF,FF,
218000622,0CFE6CEE,true,Rx,0,8,38,0F,7F,C0,00,00,00,00,
419378465,18FF3521,true,Rx,0,8,55,15,55,51,51,45,00,10,
419377953,18FF3321,true,Rx,0,8,FF,FA,FF,FA,FF,FA,FF,FA,
419378465,18FF3521,true,Rx,0,8,55,15,55,51,51,45,00,10,
418324759,18EF2117,true,Rx,0,8,01,F7,FF,FF,FF,FF,FF,FF,
217056256,0CF00400,true,Rx,0,8,0E,7D,7D,00,00,00,07,7D,
419378465,18FF3521,true,Rx,0,8,55,15,55,51,51,45,00,10,
217056256,0CF00400,true,Rx,0,8,0E,7D,7D,00,00,00,07,7D,
419378465,18FF3521,true,Rx,0,8,55,15,55,51,51,45,00,10,
418324759,18EF2117,true,Rx,0,8,01,F7,FF,FF,FF,FF,FF,FF,
217056256,0CF00400,true,Rx,0,8,0E,7D,7D,00,00,00,07,7D,
418322209,18EF1721,true,Rx,0,8,01,02,FF,FF,FF,FF,FF,FF,
418324759,18EF2117,true,Rx,0,8,01,F7,FF,FF,FF,FF,FF,FF,
419377697,18FF3221,true,Rx,0,8,F4,FF,FF,FF,FF,FF,01,FA,
419378465,18FF3521,true,Rx,0,8,55,15,55,51,51,45,00,10,
419378721,18FF3621,true,Rx,0,8,50,11,01,05,54,01,04,00,
418322209,18EF1721,true,Rx,0,8,01,02,FF,FF,FF,FF,FF,FF,
419358446,18FEE6EE,true,Rx,0,8,BC,2F,0D,05,6B,27,7D,7A,
418322209,18EF1721,true,Rx,0,8,01,02,FF,FF,FF,FF,FF,FF,
419377697,18FF3221,true,Rx,0,8,F4,FF,FF,FF,FF,FF,01,FA,
419377953,18FF3321,true,Rx,0,8,FF,FA,FF,FA,FF,FA,FF,FA,
418322209,18EF1721,true,Rx,0,8,01,02,FF,FF,FF,FF,FF,FF,
419351278,18FECAEE,true,Rx,0,8,00,FF,00,00,00,00,FF,FF,
217056256,0CF00400,true,Rx,0,8,0E,7D,7D,00,00,00,07,7D,
419378465,18FF3521,true,Rx,0,8,55,15,55,51,51,45,00,10,
419378721,18FF3621,true,Rx,0,8,50,11,01,05,54,01,04,00,
419379233,18FF3821,true,Rx,0,8,FC,00,00,00,00,00,00,FF,
419378465,18FF3521,true,Rx,0,8,55,15,55,51,51,45,00,10,
217056256,0CF00400,true,Rx,0,8,0E,7D,7D,00,00,00,07,7D,
419378465,18FF3521,true,Rx,0,8,55,15,55,51,51,45,00,10,
419378721,18FF3621,true,Rx,0,8,50,11,01,05,54,01,04,00,
418324759,18EF2117,true,Rx,0,8,01,F7,FF,FF,FF,FF,FF,FF,
418322209,18EF1721,true,Rx,0,8,01,02,FF,FF,FF,FF,FF,FF,
419378465,18FF3521,true,Rx,0,8,55,15,55,51,51,45,00,10,
419378721,18FF3621,true,Rx,0,8,50,11,01,05,54,01,04,00,
418322209,18EF1721,true,Rx,0,8,01,02,FF,FF,FF,FF,FF,FF,
419378465,18FF3521,true,Rx,0,8,55,15,55,51,51,45,00,10,
419377697,18FF3221,true,Rx,0,8,F4,FF,FF,FF,FF,FF,01,FA,
419378465,18FF3521,true,Rx,0,8,55,15,55,51,51,45,00,10,
419378721,18FF3621,true,Rx,0,8,50,11,01,05,54,01,04,00,
418322209,18EF1721,true,Rx,0,8,01,02,FF,FF,FF,FF,FF,FF,
419378465,18FF3521,true,Rx,0,8,55,15,55,51,51,45,00,10,
218000622,0CFE6CEE,true,Rx,0,8,38,0F,7F,C0,00,00,00,00,
419378209,18FF3421,true,Rx,0,8,FF,FA,68,1A,FF,FF,FF,FF,
419379233,18FF3821,true,Rx,0,8,FC,00,00,00,00,00,00,FF,
217056256,0CF00400,true,Rx,0,8,0E,7D,7D,00,00,00,07,7D,
419378465,18FF3521,true,Rx,0,8,55,15,55,51,51,45,00,10,
217056256,0CF00400,true,Rx,0,8,0E,7D,7D,00,00,00,07,7D,
419378465,18FF3521,true,Rx,0,8,55,15,55,51,51,45,00,10,
419378721,18FF3621,true,Rx,0,8,50,11,01,05,54,01,04,00,
217056256,0CF00400,true,Rx,0,8,0E,7D,7D,00,00,00,07,7D,
419377431,18FF3117,true,Rx,0,8,00,00,01,01,00,65,00,05,
217056256,0CF00400,true,Rx,0,8,0E,7D,7D,00,00,00,07,7D,
419378465,18FF3521,true,Rx,0,8,55,15,55,51,51,45,00,10,
418322209,18EF1721,true,Rx,0,8,01,02,FF,FF,FF,FF,FF,FF,
419377697,18FF3221,true,Rx,0,8,F4,FF,FF,FF,FF,FF,01,FA,
418322209,18EF1721,true,Rx,0,8,01,02,FF,FF,FF,FF,FF,FF,
419378465,18FF3521,true,Rx,0,8,55,15,55,51,51,45,00,10,
419378721,18FF3621,true,Rx,0,8,50,11,01,05,54,01,04,00,
418322209,18EF1721,true,Rx,0,8,01,02,FF,FF,FF,FF,FF,FF,
419378465,18FF3521,true,Rx,0,8,55,15,55,51,51,45,00,10,
419377697,18FF3221,true,Rx,0,8,F4,FF,FF,FF,FF,FF,01,FA,
419378465,18FF3521,true,Rx,0,8,55,15,55,51,51,45,00,10,
419378721,18FF3621,true,Rx,0,8,50,11,01,05,54,01,04,00,
218000622,0CFE6CEE,true,Rx,0,8,38,0F,7F,C0,00,00,00,00,
419378465,18FF3521,true,Rx,0,8,55,15,55,51,51,45,00,10,
217056256,0CF00400,true,Rx,0,8,0E,7D,7D,00,00,00,07,7D,
419378465,18FF3521,true,Rx,0,8,55,15,55,51,51,45,00,10,
419378721,18FF3621,true,Rx,0,8,50,11,01,05,54,01,04,00,
418324759,18EF2117,true,Rx,0,8,01,F7,FF,FF,FF,FF,FF,FF,
419378721,18FF3621,true,Rx,0,8,50,11,01,05,54,01,04,00,
217056256,0CF00400,true,Rx,0,8,0E,7D,7D,00,00,00,07,7D,
419377431,18FF3117,true,Rx,0,8,00,00,01,01,00,65,00,05,
418324759,18EF2117,true,Rx,0,8,01,F7,FF,FF,FF,FF,FF,FF,
419378465,18FF3521,true,Rx,0,8,55,15,55,51,51,45,00,00,
418322209,18EF1721,true,Rx,0,8,01,02,FF,FF,FF,FF,FF,FF,
419378465,18FF3521,true,Rx,0,8,55,15,55,51,51,45,00,00,
418322209,18EF1721,true,Rx,0,8,01,02,FF,FF,FF,FF,FF,FF,
218000622,0CFE6CEE,true,Rx,0,8,38,0F,7F,C0,00,00,00,00,
419377697,18FF3221,true,Rx,0,8,F4,FF,FF,FF,FF,FF,01,FA,
218000622,0CFE6CEE,true,Rx,0,8,38,0F,7F,C0,00,00,00,00,
419378465,18FF3521,true,Rx,0,8,55,15,55,51,51,45,00,00,
419378721,18FF3621,true,Rx,0,8,50,11,01,05,54,01,04,00,
218000622,0CFE6CEE,true,Rx,0,8,38,0F,7F,C0,00,00,00,00,
419378465,18FF3521,true,Rx,0,8,55,15,55,51,51,45,00,00,
218000622,0CFE6CEE,true,Rx,0,8,38,0F,7F,C0,00,00,00,00,
419378465,18FF3521,true,Rx,0,8,55,15,55,51,51,45,00,00,
419378721,18FF3621,true,Rx,0,8,50,11,01,05,54,01,04,00,
217056256,0CF00400,true,Rx,0,8,0E,7D,7D,00,00,00,07,7D,
419378465,18FF3521,true,Rx,0,8,55,15,55,51,51,45,00,00,
217056256,0CF00400,true,Rx,0,8,0E,7D,7D,00,00,00,07,7D,
419378721,18FF3621,true,Rx,0,8,50,11,01,05,54,01,04,00,
419377431,18FF3117,true,Rx,0,8,00,00,01,01,00,65,00,05,
217056256,0CF00400,true,Rx,0,8,0E,7D,7D,00,00,00,07,7D,
418322209,18EF1721,true,Rx,0,8,01,02,FF,FF,FF,FF,FF,FF,
419378465,18FF3521,true,Rx,0,8,55,15,55,51,51,45,00,00,
419377697,18FF3221,true,Rx,0,8,F4,FF,FF,FF,FF,FF,01,FA,
418322209,18EF1721,true,Rx,0,8,01,02,FF,FF,FF,FF,FF,FF,
419378465,18FF3521,true,Rx,0,8,55,15,55,51,51,45,00,00,
418322209,18EF1721,true,Rx,0,8,01,02,FF,FF,FF,FF,FF,FF,
419378465,18FF3521,true,Rx,0,8,55,15,55,51,51,45,00,00,
418322209,18EF1721,true,Rx,0,8,10,0D,10,02,00,0F,23,60,
418324759,18EF2117,true,Rx,0,8,30,00,14,FF,FF,FF,FF,FF,
418322209,18EF1721,true,Rx,0,8,21,15,00,28,00,02,20,00,
218000622,0CFE6CEE,true,Rx,0,8,38,0F,7F,C0,00,00,00,00,
419378465,18FF3521,true,Rx,0,8,55,15,55,51,51,45,00,00,
217056256,0CF00400,true,Rx,0,8,0E,7D,7D,00,00,00,07,7D,
418322209,18EF1721,true,Rx,0,8,21,15,00,28,00,02,20,00,
419378465,18FF3521,true,Rx,0,8,55,15,55,51,51,45,00,00,
419379233,18FF3821,true,Rx,0,8,FC,00,00,00,00,00,00,FF,
419378465,18FF3521,true,Rx,0,8,55,15,55,51,51,45,00,00,
419378721,18FF3621,true,Rx,0,8,50,11,01,05,54,01,04,00,
418324759,18EF2117,true,Rx,0,8,01,F7,FF,FF,FF,FF,FF,FF,
418322209,18EF1721,true,Rx,0,8,10,0D,10,02,00,0F,23,60,
419377697,18FF3221,true,Rx,0,8,F4,FF,FF,FF,FF,FF,01,FA,
218000622,0CFE6CEE,true,Rx,0,8,38,0F,7F,C0,00,00,00,00,
217056256,0CF00400,true,Rx,0,8,0E,7D,7D,00,00,00,07,7D,
419378465,18FF3521,true,Rx,0,8,55,15,55,51,51,45,00,00,
418322209,18EF1721,true,Rx,0,8,01,02,FF,FF,FF,FF,FF,FF,
419378465,18FF3521,true,Rx,0,8,55,15,55,51,51,45,00,00,
419377697,18FF3221,true,Rx,0,8,F4,FF,FF,FF,FF,FF,01,FA,
418322209,18EF1721,true,Rx,0,8,01,02,FF,FF,FF,FF,FF,FF,
419378465,18FF3521,true,Rx,0,8,55,15,55,51,51,45,00,00,
418322209,18EF1721,true,Rx,0,8,01,02,FF,FF,FF,FF,FF,FF,
419378465,18FF3521,true,Rx,0,8,55,15,55,51,51,45,00,00,
418324759,18EF2117,true,Rx,0,8,01,F7,FF,FF,FF,FF,FF,FF,
217056256,0CF00400,true,Rx,0,8,0E,7D,7D,00,00,00,07,7D,
419379489,18FF3921,true,Rx,0,8,00,00,00,00,00,00,FF,FF,
217056256,0CF00400,true,Rx,0,8,0E,7D,7D,00,00,00,07,7D,
419378465,18FF3521,true,Rx,0,8,55,15,55,51,51,45,00,00,
217056256,0CF00400,true,Rx,0,8,0E,7D,7D,00,00,00,07,7D,
419378465,18FF3521,true,Rx,0,8,55,15,55,51,51,45,00,00,
419378721,18FF3621,true,Rx,0,8,50,11,01,05,54,01,04,00,
217056256,0CF00400,true,Rx,0,8,0E,7D,7D,00,00,00,07,7D,
218000622,0CFE6CEE,true,Rx,0,8,38,0F,7F,C0,00,00,00,00,
419358446,18FEE6EE,true,Rx,0,8,C0,2F,0D,05,6B,27,7D,7A,
419378465,18FF3521,true,Rx,0,8,55,15,55,51,51,45,00,00,
418322209,18EF1721,true,Rx,0,8,01,02,FF,FF,FF,FF,FF,FF,
419377697,18FF3221,true,Rx,0,8,F4,FF,FF,FF,FF,FF,01,FA,
418322209,18EF1721,true,Rx,0,8,01,02,FF,FF,FF,FF,FF,FF,
218000622,0CFE6CEE,true,Rx,0,8,38,0F,7F,C0,00,00,00,00,
419351278,18FECAEE,true,Rx,0,8,00,FF,00,00,00,00,FF,FF,
418322209,18EF1721,true,Rx,0,8,01,02,FF,FF,FF,FF,FF,FF,
419378465,18FF3521,true,Rx,0,8,55,15,55,51,51,45,00,00,
418322209,18EF1721,true,Rx,0,8,01,02,FF,FF,FF,FF,FF,FF,
419377953,18FF3321,true,Rx,0,8,FF,FA,FF,FA,FF,FA,FF,FA,
419378465,18FF3521,true,Rx,0,8,55,15,55,51,51,45,00,00,
217056256,0CF00400,true,Rx,0,8,0E,7D,7D,00,00,00,07,7D,
419378465,18FF3521,true,Rx,0,8,55,15,55,51,51,45,00,00,
217056256,0CF00400,true,Rx,0,8,0E,7D,7D,00,00,00,07,7D,
484371991,1CDEEE17,true,Rx,0,8,FF,FF,FF,FF,FF,FF,FF,FF,
419378465,18FF3521,true,Rx,0,8,55,15,55,51,51,45,00,00,
418324759,18EF2117,true,Rx,0,8,01,F7,FF,FF,FF,FF,FF,FF,
419377431,18FF3117,true,Rx,0,8,00,00,01,01,00,65,00,05,
217056256,0CF00400,true,Rx,0,8,0E,7D,7D,00,00,00,07,7D,
419378465,18FF3521,true,Rx,0,8,55,15,55,51,51,45,00,00,
419377697,18FF3221,true,Rx,0,8,F4,FF,FF,FF,FF,FF,01,FA,
419378465,18FF3521,true,Rx,0,8,55,15,55,51,51,45,00,00,
418322209,18EF1721,true,Rx,0,8,01,02,FF,FF,FF,FF,FF,FF,
419378465,18FF3521,true,Rx,0,8,55,15,55,51,51,45,00,00,
419378721,18FF3621,true,Rx,0,8,50,11,01,05,54,01,04,00,
418322209,18EF1721,true,Rx,0,8,01,02,FF,FF,FF,FF,FF,FF,
419377697,18FF3221,true,Rx,0,8,F4,FF,FF,FF,FF,FF,01,FA,
418322209,18EF1721,true,Rx,0,8,01,02,FF,FF,FF,FF,FF,FF,
419378465,18FF3521,true,Rx,0,8,55,15,55,51,51,45,00,00,
419378721,18FF3621,true,Rx,0,8,50,11,01,05,54,01,04,00,
218000622,0CFE6CEE,true,Rx,0,8,38,0F,7F,C0,00,00,00,00,
419378465,18FF3521,true,Rx,0,8,55,15,55,51,51,45,00,00,
418324759,18EF2117,true,Rx,0,8,30,00,14,FF,FF,FF,FF,FF,
419378209,18FF3421,true,Rx,0,8,FF,FA,68,1A,FF,FF,FF,FF,
419378465,18FF3521,true,Rx,0,8,55,15,55,51,51,45,00,00,
217056256,0CF00400,true,Rx,0,8,2E,7D,9B,FF,03,00,07,A0,
419378721,18FF3621,true,Rx,0,8,50,11,01,05,54,01,04,00,
217056256,0CF00400,true,Rx,0,8,2E,7D,9B,19,04,00,07,A0,
419377697,18FF3221,true,Rx,0,8,F4,FF,FF,FF,FF,FF,01,FA,
218000622,0CFE6CEE,true,Rx,0,8,38,0F,7F,C0,00,00,00,00,
419378465,18FF3521,true,Rx,0,8,55,15,55,51,51,45,00,00,
418322209,18EF1721,true,Rx,0,8,01,02,FF,FF,FF,FF,FF,FF,
419378465,18FF3521,true,Rx,0,8,55,15,55,51,51,45,00,00,
419378721,18FF3621,true,Rx,0,8,50,11,01,05,54,01,04,00,
419377697,18FF3221,true,Rx,0,8,F4,FF,FF,FF,FF,FF,01,FA,
419378465,18FF3521,true,Rx,0,8,55,15,55,51,51,45,00,00,
218000622,0CFE6CEE,true,Rx,0,8,38,0F,7F,C0,00,00,00,00,
419378465,18FF3521,true,Rx,0,8,55,15,55,51,51,45,00,00,
419378721,18FF3621,true,Rx,0,8,50,11,01,05,54,01,04,00,
218000622,0CFE6CEE,true,Rx,0,8,38,0F,7F,C0,00,00,00,00,
419378209,18FF3421,true,Rx,0,8,FF,FA,68,1A,FF,FF,FF,FF,
418324759,18EF2117,true,Rx,0,8,01,F7,FF,FF,FF,FF,FF,FF,
419378465,18FF3521,true,Rx,0,8,55,15,55,51,51,45,00,00,
419378721,18FF3621,true,Rx,0,8,50,11,01,05,54,01,04,00,
217056256,0CF00400,true,Rx,0,8,2E,7D,9B,95,05,00,07,A5,
419378465,18FF3521,true,Rx,0,8,55,15,55,51,51,45,00,00,
217056256,0CF00400,true,Rx,0,8,2E,7D,9B,43,06,00,07,A3,
419378721,18FF3621,true,Rx,0,8,50,11,01,05,54,01,04,00,
419377431,18FF3117,true,Rx,0,8,00,00,01,01,00,65,00,05,
418324759,18EF2117,true,Rx,0,8,01,F7,FF,FF,FF,FF,FF,FF,
418322209,18EF1721,true,Rx,0,8,01,02,FF,FF,FF,FF,FF,FF,
419377697,18FF3221,true,Rx,0,8,F4,FF,FF,FF,FF,FF,01,FA,
419377953,18FF3321,true,Rx,0,8,FF,FA,FF,FA,FF,FA,FF,FA,
418322209,18EF1721,true,Rx,0,8,01,02,FF,FF,FF,FF,FF,FF,
419378465,18FF3521,true,Rx,0,8,55,15,55,51,51,45,00,00,
418322209,18EF1721,true,Rx,0,8,01,02,FF,FF,FF,FF,FF,FF,
419378465,18FF3521,true,Rx,0,8,55,15,55,51,51,45,00,00,
419378721,18FF3621,true,Rx,0,8,50,11,01,05,54,01,04,00,
419377697,18FF3221,true,Rx,0,8,F4,FF,FF,FF,FF,FF,01,FA,
419378465,18FF3521,true,Rx,0,8,55,15,55,51,51,45,00,00,
218000622,0CFE6CEE,true,Rx,0,8,38,0F,7F,C0,00,00,00,00,
419378465,18FF3521,true,Rx,0,8,55,15,55,51,51,45,00,00,
419378721,18FF3621,true,Rx,0,8,50,11,01,05,54,01,04,00,
418324759,18EF2117,true,Rx,0,8,01,F7,FF,FF,FF,FF,FF,FF,
419378465,18FF3521,true,Rx,0,8,04,00,00,01,10,05,00,00,
217056256,0CF00400,true,Rx,0,8,2E,7D,9B,D0,0C,00,07,A1,
419378465,18FF3521,true,Rx,0,8,04,00,00,01,10,05,00,00,
419378721,18FF3621,true,Rx,0,8,00,00,00,01,04,00,04,00,
217056256,0CF00400,true,Rx,0,8,2E,7D,9B,79,0D,00,07,A2,
419377431,18FF3117,true,Rx,0,8,00,00,01,01,00,65,00,05,
217056256,0CF00400,true,Rx,0,8,2E,7D,9B,0A,0E,00,07,A3,
419378721,18FF3621,true,Rx,0,8,00,00,00,01,04,00,04,00,
418322209,18EF1721,true,Rx,0,8,10,BA,10,01,00,00,20,01,
418322209,18EF1721,true,Rx,0,8,21,00,00,21,40,00,00,00,
418322209,18EF1721,true,Rx,0,8,22,20,01,01,01,21,40,01,
419377697,18FF3221,true,Rx,0,8,F4,FF,FF,FF,FF,FF,02,FA,
418322209,18EF1721,true,Rx,0,8,24,40,02,00,00,20,01,03,
218000622,0CFE6CEE,true,Rx,0,8,38,0F,7F,C0,00,00,00,00,
418322209,18EF1721,true,Rx,0,8,25,01,20,01,04,01,20,01,
418322209,18EF1721,true,Rx,0,8,26,05,00,23,60,00,00,28,
419378465,18FF3521,true,Rx,0,8,04,00,00,01,10,04,00,00,
419378721,18FF3621,true,Rx,0,8,00,00,00,01,04,00,04,00,
218000622,0CFE6CEE,true,Rx,0,8,38,0F,7F,C0,00,00,00,00,
419378465,18FF3521,true,Rx,0,8,04,00,00,01,10,04,00,00,
217056256,0CF00400,true,Rx,0,8,2E,7D,9B,B7,11,00,07,A6,
419378465,18FF3521,true,Rx,0,8,00,00,00,01,10,04,00,00,
419378721,18FF3621,true,Rx,0,8,00,00,00,01,04,00,04,00,
217056256,0CF00400,true,Rx,0,8,2E,7D,9B,6B,12,00,07,A3,
419378465,18FF3521,true,Rx,0,8,00,00,00,01,10,04,00,00,
217056256,0CF00400,true,Rx,0,8,2E,7D,9B,26,13,00,07,97,
419377431,18FF3117,true,Rx,0,8,00,00,01,01,00,66,00,05,
418322209,18EF1721,true,Rx,0,8,20,31,00,20,10,0A,00,20,
418322209,18EF1721,true,Rx,0,8,21,01,32,00,20,01,33,00,
419377697,18FF3221,true,Rx,0,8,F4,FF,FF,FF,FF,FF,02,FA,
418322209,18EF1721,true,Rx,0,8,23,00,20,01,36,00,20,10,
418322209,18EF1721,true,Rx,0,8,24,0B,00,20,01,37,00,20,
218000622,0CFE6CEE,true,Rx,0,8,38,0F,7F,C0,00,00,00,00,
418322209,18EF1721,true,Rx,0,8,25,01,38,01,20,01,39,00,
418322209,18EF1721,true,Rx,0,8,26,10,02,00,05,23,60,01,
419377697,18FF3221,true,Rx,0,8,F4,FF,FF,FF,FF,FF,02,FA,
218000622,0CFE6CEE,true,Rx,0,8,38,0F,7F,C0,00,00,00,00,
217056256,0CF00400,true,Rx,0,8,20,7D,89,54,16,00,07,89,
419378465,18FF3521,true,Rx,0,8,00,00,00,01,10,04,00,00,
217056256,0CF00400,true,Rx,0,8,60,7D,85,CE,16,00,07,88,
419378465,18FF3521,true,Rx,0,8,00,00,00,01,10,04,00,00,
419379489,18FF3921,true,Rx,0,8,00,00,00,00,00,00,FF,FF,
418324759,18EF2117,true,Rx,0,8,01,F7,FF,FF,FF,FF,FF,FF,
419378465,18FF3521,true,Rx,0,8,00,00,00,01,10,04,00,00,
217056256,0CF00400,true,Rx,0,8,50,7D,83,26,17,00,07,85,
419377175,18FF3017,true,Rx,0,8,00,00,14,1F,F3,00,00,00,
419378721,18FF3621,true,Rx,0,8,00,00,00,01,04,00,04,00,
418324759,18EF2117,true,Rx,0,8,01,F7,FF,FF,FF,FF,FF,FF,
418322209,18EF1721,true,Rx,0,8,01,02,FF,FF,FF,FF,FF,FF,
419351278,18FECAEE,true,Rx,0,8,00,FF,00,00,00,00,FF,FF,
218000622,0CFE6CEE,true,Rx,0,8,38,0F,7F,C0,00,00,00,00,
418324759,18EF2117,true,Rx,0,8,01,F7,FF,FF,FF,FF,FF,FF,
419378465,18FF3521,true,Rx,0,8,00,00,00,01,10,04,00,00,
419377697,18FF3221,true,Rx,0,8,F4,FF,FF,FF,FF,FF,02,FA,
419378465,18FF3521,true,Rx,0,8,00,00,00,01,10,04,00,00,
418322209,18EF1721,true,Rx,0,8,01,02,FF,FF,FF,FF,FF,FF,
218000622,0CFE6CEE,true,Rx,0,8,38,0F,7F,C0,00,00,00,00,
419378465,18FF3521,true,Rx,0,8,00,00,00,01,10,04,00,00,
218000622,0CFE6CEE,true,Rx,0,8,38,0F,7F,C0,00,00,00,00,
419378209,18FF3421,true,Rx,0,8,D3,02,68,1A,FF,FF,FF,FF,
217056256,0CF00400,true,Rx,0,8,60,7D,88,45,16,00,07,89,
419378465,18FF3521,true,Rx,0,8,00,00,00,01,10,04,00,00,
419378721,18FF3621,true,Rx,0,8,00,00,00,01,04,00,04,00,
418324759,18EF2117,true,Rx,0,8,01,F7,FF,FF,FF,FF,FF,FF,
419378465,18FF3521,true,Rx,0,8,00,00,00,01,10,04,00,00,
217056256,0CF00400,true,Rx,0,8,10,7D,89,3A,16,00,07,89,
419378465,18FF3521,true,Rx,0,8,00,00,00,01,10,04,00,00,
419377431,18FF3117,true,Rx,0,8,00,00,01,01,00,66,00,05,
419378465,18FF3521,true,Rx,0,8,00,00,00,01,10,04,00,00,
418322209,18EF1721,true,Rx,0,8,01,02,FF,FF,FF,FF,FF,FF,
419377697,18FF3221,true,Rx,0,8,F4,FF,FF,FF,FF,FF,02,FA,
419377953,18FF3321,true,Rx,0,8,DD,22,9D,06,E8,14,F3,15,
418322209,18EF1721,true,Rx,0,8,01,02,FF,FF,FF,FF,FF,FF,
419378465,18FF3521,true,Rx,0,8,00,00,00,01,10,04,00,00,
418322209,18EF1721,true,Rx,0,8,01,02,FF,FF,FF,FF,FF,FF,
218000622,0CFE6CEE,true,Rx,0,8,38,0F,7F,C0,00,00,00,00,
419378465,18FF3521,true,Rx,0,8,00,00,00,01,10,04,00,00,
418322209,18EF1721,true,Rx,0,8,01,02,FF,FF,FF,FF,FF,FF,
419378465,18FF3521,true,Rx,0,8,00,00,00,01,10,04,00,00,
418324759,18EF2117,true,Rx,0,8,01,F7,FF,FF,FF,FF,FF,FF,
217056256,0CF00400,true,Rx,0,8,70,7D,89,1F,16,00,07,8A,
419378465,18FF3521,true,Rx,0,8,00,00,00,01,10,04,00,00,
217056256,0CF00400,true,Rx,0,8,10,7D,8A,15,16,00,07,8A,
419378465,18FF3521,true,Rx,0,8,00,00,00,01,10,04,00,00,
418324759,18EF2117,true,Rx,0,8,01,F7,FF,FF,FF,FF,FF,FF,
217056256,0CF00400,true,Rx,0,8,20,7D,8A,16,16,00,07,8A,
419378721,18FF3621,true,Rx,0,8,00,00,00,01,04,00,04,00,
217056256,0CF00400,true,Rx,0,8,20,7D,8A,15,16,00,07,8A,
418324759,18EF2117,true,Rx,0,8,01,F7,FF,FF,FF,FF,FF,FF,
419378465,18FF3521,true,Rx,0,8,00,00,00,01,10,04,00,00,
419377431,18FF3117,true,Rx,0,8,00,00,01,01,00,66,00,05,
218000622,0CFE6CEE,true,Rx,0,8,38,0F,7F,C0,00,00,00,00,
419378465,18FF3521,true,Rx,0,8,00,00,00,01,10,04,00,00,
418322209,18EF1721,true,Rx,0,8,01,02,FF,FF,FF,FF,FF,FF,
419377697,18FF3221,true,Rx,0,8,F4,FF,FF,FF,FF,FF,02,FA,
419377953,18FF3321,true,Rx,0,8,CF,22,9D,06,FA,14,F3,15,
418322209,18EF1721,true,Rx,0,8,01,02,FF,FF,FF,FF,FF,FF,
419378465,18FF3521,true,Rx,0,8,00,00,00,01,10,04,00,00,
218000622,0CFE6CEE,true,Rx,0,8,38,0F,7F,C0,00,00,00,00,
419378465,18FF3521,true,Rx,0,8,00,00,00,01,10,04,00,00,
419378721,18FF3621,true,Rx,0,8,00,00,00,01,04,00,04,00,
419378209,18FF3421,true,Rx,0,8,C0,02,68,1A,FF,FF,FF,FF,
419378465,18FF3521,true,Rx,0,8,00,00,00,01,10,04,00,00,
418324759,18EF2117,true,Rx,0,8,01,F7,FF,FF,FF,FF,FF,FF,
217056256,0CF00400,true,Rx,0,8,30,7D,8B,F2,15,00,07,8B,
419378465,18FF3521,true,Rx,0,8,00,00,00,01,10,04,00,00,
418324759,18EF2117,true,Rx,0,8,01,F7,FF,FF,FF,FF,FF,FF,
419377431,18FF3117,true,Rx,0,8,00,00,01,01,00,66,00,05,
217056256,0CF00400,true,Rx,0,8,30,7D,8B,F3,15,00,07,8B,
419378465,18FF3521,true,Rx,0,8,00,00,00,01,10,04,00,00,
418322209,18EF1721,true,Rx,0,8,01,02,FF,FF,FF,FF,FF,FF,
419378465,18FF3521,true,Rx,0,8,00,00,00,01,10,04,00,00,
419377697,18FF3221,true,Rx,0,8,F4,FF,FF,FF,FF,FF,02,FA,
419378465,18FF3521,true,Rx,0,8,00,00,00,01,10,04,00,00,
419378721,18FF3621,true,Rx,0,8,00,00,00,01,04,00,04,00,
418322209,18EF1721,true,Rx,0,8,01,02,FF,FF,FF,FF,FF,FF,
419378465,18FF3521,true,Rx,0,8,00,00,00,01,10,04,00,00,
418322209,18EF1721,true,Rx,0,8,01,02,FF,FF,FF,FF,FF,FF,
419377953,18FF3321,true,Rx,0,8,15,23,9D,06,1C,15,F3,15,
419378209,18FF3421,true,Rx,0,8,BB,02,68,1A,FF,FF,FF,FF,
218000622,0CFE6CEE,true,Rx,0,8,38,0F,7F,C0,00,00,00,00,
419378465,18FF3521,true,Rx,0,8,00,00,00,01,10,04,00,00,
217056256,0CF00400,true,Rx,0,8,40,7D,8C,C6,15,00,07,8C,
419378465,18FF3521,true,Rx,0,8,00,00,00,01,10,04,00,00,
419378721,18FF3621,true,Rx,0,8,00,00,00,01,04,00,04,00,
418324759,18EF2117,true,Rx,0,8,01,F7,FF,FF,FF,FF,FF,FF,
419378721,18FF3621,true,Rx,0,8,00,00,00,01,04,00,04,00,
217056256,0CF00400,true,Rx,0,8,40,7D,8C,D1,15,00,07,8C,
418324759,18EF2117,true,Rx,0,8,01,F7,FF,FF,FF,FF,FF,FF,
418322209,18EF1721,true,Rx,0,8,01,02,FF,FF,FF,FF,FF,FF,
419377697,18FF3221,true,Rx,0,8,F4,FF,FF,FF,FF,FF,02,FA,
418322209,18EF1721,true,Rx,0,8,01,02,FF,FF,FF,FF,FF,FF,
419378465,18FF3521,true,Rx,0,8,00,00,00,01,10,04,00,00,
419378721,18FF3621,true,Rx,0,8,00,00,00,01,04,00,04,00,
418322209,18EF1721,true,Rx,0,8,10,21,10,02,00,05,23,60,
418322209,18EF1721,true,Rx,0,8,21,01,00,28,00,06,31,30,
419377697,18FF3221,true,Rx,0,8,F4,FF,FF,FF,FF,FF,02,FA,
418322209,18EF1721,true,Rx,0,8,23,00,28,00,09,32,37,2E,
419378465,18FF3521,true,Rx,0,8,00,00,00,01,10,04,00,00,
218000622,0CFE6CEE,true,Rx,0,8,38,0F,7F,C0,00,00,00,00,
419378465,18FF3521,true,Rx,0,8,00,00,00,01,10,04,00,00,
217056256,0CF00400,true,Rx,0,8,40,7D,8C,E6,15,00,07,8C,
419379489,18FF3921,true,Rx,0,8,00,00,00,00,00,00,FF,FF,
419378465,18FF3521,true,Rx,0,8,00,00,00,01,10,04,00,00,
217056256,0CF00400,true,Rx,0,8,40,7D,8C,F0,15,00,07,8C,
419378465,18FF3521,true,Rx,0,8,00,00,00,01,10,04,00,00,
418324759,18EF2117,true,Rx,0,8,01,F7,FF,FF,FF,FF,FF,FF,
419377431,18FF3117,true,Rx,0,8,00,00,01,01,00,66,00,05,
419377697,18FF3221,true,Rx,0,8,F4,FF,FF,FF,FF,FF,02,FA,
217056256,0CF00400,true,Rx,0,8,70,7D,8B,16,16,00,07,8C,
218000622,0CFE6CEE,true,Rx,0,8,38,0F,7F,C0,00,00,00,00,
419378465,18FF3521,true,Rx,0,8,00,00,00,01,10,04,00,00,
418322209,18EF1721,true,Rx,0,8,01,02,FF,FF,FF,FF,FF,FF,
218000622,0CFE6CEE,true,Rx,0,8,38,0F,7F,C0,00,00,00,00,
419377697,18FF3221,true,Rx,0,8,F4,FF,FF,FF,FF,FF,02,FA,
418322209,18EF1721,true,Rx,0,8,01,02,FF,FF,FF,FF,FF,FF,
419348974,18FEC1EE,true,Rx,0,8,3E,59,0B,00,68,30,00,00,
418322209,18EF1721,true,Rx,0,8,01,02,FF,FF,FF,FF,FF,FF,
218000622,0CFE6CEE,true,Rx,0,8,38,0F,7F,C0,00,00,00,00,
419378465,18FF3521,true,Rx,0,8,00,00,00,01,10,04,00,00,
419377953,18FF3321,true,Rx,0,8,07,23,9D,06,1C,15,F3,15,
419378465,18FF3521,true,Rx,0,8,00,00,00,01,10,04,00,00,
419378721,18FF3621,true,Rx,0,8,00,00,00,01,04,00,04,00,
217056256,0CF00400,true,Rx,0,8,70,7D,8B,1E,16,00,07,8C,
419378465,18FF3521,true,Rx,0,8,00,00,00,01,10,04,00,00,
217056256,0CF00400,true,Rx,0,8,00,7D,8C,26,16,00,07,8C,
419378465,18FF3521,true,Rx,0,8,00,00,00,01,10,04,00,00,
419378721,18FF3621,true,Rx,0,8,00,00,00,01,04,00,04,00,
217056256,0CF00400,true,Rx,0,8,70,7D,8B,2A,16,00,07,8C,
418324759,18EF2117,true,Rx,0,8,01,F7,FF,FF,FF,FF,FF,FF,
217056256,0CF00400,true,Rx,0,8,70,7D,8B,29,16,00,07,8C,
419377697,18FF3221,true,Rx,0,8,F4,FF,FF,FF,FF,FF,02,FA,
418322209,18EF1721,true,Rx,0,8,01,02,FF,FF,FF,FF,FF,FF,
419378465,18FF3521,true,Rx,0,8,00,00,00,01,10,04,00,00,
418322209,18EF1721,true,Rx,0,8,01,02,FF,FF,FF,FF,FF,FF,
419378465,18FF3521,true,Rx,0,8,00,00,00,01,10,04,00,00,
418322209,18EF1721,true,Rx,0,8,01,02,FF,FF,FF,FF,FF,FF,
218000622,0CFE6CEE,true,Rx,0,8,38,0F,7F,C0,00,00,00,00,
484371991,1CDEEE17,true,Rx,0,8,FF,FF,FF,FF,FF,FF,FF,FF,
218000622,0CFE6CEE,true,Rx,0,8,38,0F,7F,C0,00,00,00,00,
419378465,18FF3521,true,Rx,0,8,00,00,00,01,10,04,00,00,
218000622,0CFE6CEE,true,Rx,0,8,38,0F,7F,C0,00,00,00,00,
217056256,0CF00400,true,Rx,0,8,40,7D,8C,1B,16,00,07,8C,
419378465,18FF3521,true,Rx,0,8,00,00,00,01,10,04,00,00,
419379233,18FF3821,true,Rx,0,8,FC,00,00,00,00,00,00,FF,
419378465,18FF3521,true,Rx,0,8,00,00,00,01,10,04,00,00,
217056256,0CF00400,true,Rx,0,8,30,7D,8C,2D,16,00,07,8C,
419378465,18FF3521,true,Rx,0,8,00,00,00,01,10,04,00,00,
419377431,18FF3117,true,Rx,0,8,00,00,01,01,00,66,00,05,
217056256,0CF00400,true,Rx,0,8,10,7D,8C,37,16,00,07,8C,
418322209,18EF1721,true,Rx,0,8,01,02,FF,FF,FF,FF,FF,FF,
218000622,0CFE6CEE,true,Rx,0,8,38,0F,7F,C0,00,00,00,00,
419378465,18FF3521,true,Rx,0,8,00,00,00,01,10,04,00,00,
418322209,18EF1721,true,Rx,0,8,01,02,FF,FF,FF,FF,FF,FF,
419378465,18FF3521,true,Rx,0,8,00,00,00,01,10,04,00,00,
419377697,18FF3221,true,Rx,0,8,F4,FF,FF,FF,FF,FF,02,FA,
419377953,18FF3321,true,Rx,0,8,DD,22,9D,06,0B,15,F3,15,
419378465,18FF3521,true,Rx,0,8,00,00,00,01,10,04,00,00,
418322209,18EF1721,true,Rx,0,8,01,02,FF,FF,FF,FF,FF,FF,
419378465,18FF3521,true,Rx,0,8,00,00,00,01,10,04,00,00,
218000622,0CFE6CEE,true,Rx,0,8,38,0F,7F,C0,00,00,00,00,
418324759,18EF2117,true,Rx,0,8,01,F7,FF,FF,FF,FF,FF,FF,
419379233,18FF3821,true,Rx,0,8,FC,00,00,00,00,00,00,FF,
217056256,0CF00400,true,Rx,0,8,10,7D,8C,42,16,00,07,8C,
419378465,18FF3521,true,Rx,0,8,00,00,00,01,10,04,00,00,
217056256,0CF00400,true,Rx,0,8,10,7D,8C,4B,16,00,07,8C,
419378465,18FF3521,true,Rx,0,8,00,00,00,01,10,04,00,00,
419378721,18FF3621,true,Rx,0,8,00,00,00,01,04,00,04,00,
418324759,18EF2117,true,Rx,0,8,01,F7,FF,FF,FF,FF,FF,FF,
419377431,18FF3117,true,Rx,0,8,00,00,01,01,00,66,00,05,
217056256,0CF00400,true,Rx,0,8,00,7D,8C,53,16,00,07,8C,
419378465,18FF3521,true,Rx,0,8,00,00,00,01,10,04,00,00,
218000622,0CFE6CEE,true,Rx,0,8,38,0F,7F,C0,00,00,00,00,
419377697,18FF3221,true,Rx,0,8,F4,FF,FF,FF,FF,FF,02,FA,
418322209,18EF1721,true,Rx,0,8,01,02,FF,FF,FF,FF,FF,FF,
419378465,18FF3521,true,Rx,0,8,00,00,00,01,10,04,00,00,
419378721,18FF3621,true,Rx,0,8,00,00,00,01,04,00,04,00,
418322209,18EF1721,true,Rx,0,8,01,02,FF,FF,FF,FF,FF,FF,
419378465,18FF3521,true,Rx,0,8,00,00,00,01,10,04,00,00,
419377697,18FF3221,true,Rx,0,8,F4,FF,FF,FF,FF,FF,02,FA,
418322209,18EF1721,true,Rx,0,8,01,02,FF,FF,FF,FF,FF,FF,
419378465,18FF3521,true,Rx,0,8,00,00,00,01,10,04,00,00,
218000622,0CFE6CEE,true,Rx,0,8,38,0F,7F,C0,00,00,00,00,
419378465,18FF3521,true,Rx,0,8,00,00,00,01,10,04,00,00,
418324759,18EF2117,true,Rx,0,8,01,F7,FF,FF,FF,FF,FF,FF,
217056256,0CF00400,true,Rx,0,8,40,7D,8C,4B,16,00,07,8C,
419378465,18FF3521,true,Rx,0,8,00,00,00,01,10,04,00,00,
217056256,0CF00400,true,Rx,0,8,40,7D,8C,55,16,00,07,8C,
419378721,18FF3621,true,Rx,0,8,00,00,00,01,04,00,04,00,
217056256,0CF00400,true,Rx,0,8,30,7D,8C,5B,16,00,07,8C,
419378465,18FF3521,true,Rx,0,8,00,00,00,01,10,04,00,00,
419377697,18FF3221,true,Rx,0,8,F4,FF,FF,FF,FF,FF,02,FA,
419378465,18FF3521,true,Rx,0,8,00,00,00,01,10,04,00,00,
418322209,18EF1721,true,Rx,0,8,01,02,FF,FF,FF,FF,FF,FF,
419378465,18FF3521,true,Rx,0,8,00,00,00,01,10,04,00,00,
419378721,18FF3621,true,Rx,0,8,00,00,00,01,04,00,04,00,
218000622,0CFE6CEE,true,Rx,0,8,38,0F,7F,C0,00,00,00,00,
419377697,18FF3221,true,Rx,0,8,F4,FF,FF,FF,FF,FF,02,FA,
418322209,18EF1721,true,Rx,0,8,01,02,FF,FF,FF,FF,FF,FF,
419378465,18FF3521,true,Rx,0,8,00,00,00,01,10,04,00,00,
419378721,18FF3621,true,Rx,0,8,00,00,00,01,04,00,04,00,
218000622,0CFE6CEE,true,Rx,0,8,38,0F,7F,C0,00,00,00,00,
419378465,18FF3521,true,Rx,0,8,00,00,00,01,10,04,00,00,
218000622,0CFE6CEE,true,Rx,0,8,38,0F,7F,C0,00,00,00,00,
419378465,18FF3521,true,Rx,0,8,00,00,00,01,10,04,00,00,
419378721,18FF3621,true,Rx,0,8,00,00,00,01,04,00,04,00,
418324759,18EF2117,true,Rx,0,8,01,F7,FF,FF,FF,FF,FF,FF,
419378465,18FF3521,true,Rx,0,8,00,00,00,01,10,04,00,00,
217056256,0CF00400,true,Rx,0,8,10,7D,8C,7D,16,00,07,8C,
419377697,18FF3221,true,Rx,0,8,F4,FF,FF,FF,FF,FF,02,FA,
419377431,18FF3117,true,Rx,0,8,00,00,01,01,00,66,00,05,
217056256,0CF00400,true,Rx,0,8,00,7D,8C,7C,16,00,07,8C,
418322209,18EF1721,true,Rx,0,8,01,02,FF,FF,FF,FF,FF,FF,
217056256,0CF00400,true,Rx,0,8,10,7D,8C,7D,16,00,07,8C,
419378465,18FF3521,true,Rx,0,8,00,00,00,01,10,04,00,00,
419377697,18FF3221,true,Rx,0,8,F4,FF,FF,FF,FF,FF,02,FA,
419378465,18FF3521,true,Rx,0,8,00,00,00,01,10,04,00,00,
218000622,0CFE6CEE,true,Rx,0,8,38,0F,7F,C0,00,00,00,00,
419378465,18FF3521,true,Rx,0,8,00,00,00,01,10,04,00,00,
419378721,18FF3621,true,Rx,0,8,00,00,00,01,04,00,04,00,
418322209,18EF1721,true,Rx,0,8,10,21,10,02,00,05,23,60,
418322209,18EF1721,true,Rx,0,8,21,01,00,28,00,06,31,30,
218000622,0CFE6CEE,true,Rx,0,8,38,0F,7F,C0,00,00,00,00,
419378465,18FF3521,true,Rx,0,8,00,00,00,01,10,04,00,00,
419378721,18FF3621,true,Rx,0,8,00,00,00,01,04,00,04,00,
217056256,0CF00400,true,Rx,0,8,20,7D,8C,80,16,00,07,8C,
419378465,18FF3521,true,Rx,0,8,00,00,00,01,10,04,00,00,
217056256,0CF00400,true,Rx,0,8,10,7D,8C,88,16,00,07,8C,
419378465,18FF3521,true,Rx,0,8,00,00,00,01,10,04,00,00,
419378721,18FF3621,true,Rx,0,8,00,00,00,01,04,00,04,00,
217056256,0CF00400,true,Rx,0,8,10,7D,8C,88,16,00,07,8C,
218000622,0CFE6CEE,true,Rx,0,8,38,0F,7F,C0,00,00,00,00,
217056256,0CF00400,true,Rx,0,8,30,7D,8C,79,16,00,07,8C,
418322209,18EF1721,true,Rx,0,8,10,0D,10,02,00,0F,23,60,
418324759,18EF2117,true,Rx,0,8,30,00,14,FF,FF,FF,FF,FF,
418322209,18EF1721,true,Rx,0,8,21,15,00,28,00,02,20,00,
218000622,0CFE6CEE,true,Rx,0,8,38,0F,7F,C0,00,00,00,00,
419378465,18FF3521,true,Rx,0,8,00,00,00,01,10,04,00,00,
419378721,18FF3621,true,Rx,0,8,00,00,00,01,04,00,04,00,
419377697,18FF3221,true,Rx,0,8,F4,FF,FF,FF,FF,FF,02,FA,
419378465,18FF3521,true,Rx,0,8,00,00,00,01,10,04,00,00,
218000622,0CFE6CEE,true,Rx,0,8,38,0F,7F,C0,00,00,00,00,
419358446,18FEE6EE,true,Rx,0,8,CC,2F,0D,05,6B,27,7D,7A,
419378465,18FF3521,true,Rx,0,8,00,00,00,01,10,04,00,00,
217056256,0CF00400,true,Rx,0,8,50,7D,8C,81,16,00,07,8D,
419379489,18FF3921,true,Rx,0,8,00,00,00,00,00,00,FF,FF,
217056256,0CF00400,true,Rx,0,8,40,7D,8C,91,16,00,07,8C,
419378465,18FF3521,true,Rx,0,8,00,00,00,01,10,04,00,00,
419378721,18FF3621,true,Rx,0,8,00,00,00,01,04,00,04,00,
418324759,18EF2117,true,Rx,0,8,01,F7,FF,FF,FF,FF,FF,FF,
419377431,18FF3117,true,Rx,0,8,00,00,01,01,00,66,00,05,
217056256,0CF00400,true,Rx,0,8,10,7D,8C,9C,16,00,07,8C,
418324759,18EF2117,true,Rx,0,8,01,F7,FF,FF,FF,FF,FF,FF,
418322209,18EF1721,true,Rx,0,8,01,02,FF,FF,FF,FF,FF,FF,
419378465,18FF3521,true,Rx,0,8,00,00,00,01,10,04,00,00,
418322209,18EF1721,true,Rx,0,8,01,02,FF,FF,FF,FF,FF,FF,
484371991,1CDEEE17,true,Rx,0,8,FF,FF,FF,FF,FF,FF,FF,FF,
418322209,18EF1721,true,Rx,0,8,01,02,FF,FF,FF,FF,FF,FF,
218000622,0CFE6CEE,true,Rx,0,8,38,0F,7F,C0,00,00,00,00,
419378465,18FF3521,true,Rx,0,8,00,00,00,01,10,04,00,00,
418322209,18EF1721,true,Rx,0,8,01,02,FF,FF,FF,FF,FF,FF,
419378465,18FF3521,true,Rx,0,8,00,00,00,01,10,04,00,00,
419377953,18FF3321,true,Rx,0,8,C2,22,9D,06,1C,15,F3,15,
218000622,0CFE6CEE,true,Rx,0,8,38,0F,7F,C0,00,00,00,00,
419378465,18FF3521,true,Rx,0,8,00,00,00,01,10,04,00,00,
217056256,0CF00400,true,Rx,0,8,60,7D,8B,BA,16,00,07,8C,
419378465,18FF3521,true,Rx,0,8,00,00,00,01,10,04,00,00,
419378721,18FF3621,true,Rx,0,8,00,00,00,01,04,00,04,00,
418324759,18EF2117,true,Rx,0,8,01,F7,FF,FF,FF,FF,FF,FF,
419378465,18FF3521,true,Rx,0,8,00,00,00,01,10,04,00,00,
217056256,0CF00400,true,Rx,0,8,50,7D,8B,BD,16,00,07,8C,
419377431,18FF3117,true,Rx,0,8,00,00,01,01,00,66,00,05,
418324759,18EF2117,true,Rx,0,8,01,F7,FF,FF,FF,FF,FF,FF,
217056256,0CF00400,true,Rx,0,8,70,7D,8B,B4,16,00,07,8C,
419377697,18FF3221,true,Rx,0,8,F4,FF,FF,FF,FF,FF,02,FA,
419378465,18FF3521,true,Rx,0,8,00,00,00,01,10,04,00,00,
418322209,18EF1721,true,Rx,0,8,01,02,FF,FF,FF,FF,FF,FF,
218000622,0CFE6CEE,true,Rx,0,8,38,0F,7F,C0,00,00,00,00,
419378465,18FF3521,true,Rx,0,8,00,00,00,01,10,04,00,00,
218000622,0CFE6CEE,true,Rx,0,8,38,0F,7F,C0,00,00,00,00,
419377697,18FF3221,true,Rx,0,8,F4,FF,FF,FF,FF,FF,02,FA,
418322209,18EF1721,true,Rx,0,8,01,02,FF,FF,FF,FF,FF,FF,
218000622,0CFE6CEE,true,Rx,0,8,38,0F,7F,C0,00,00,00,00,
419378465,18FF3521,true,Rx,0,8,00,00,00,01,10,04,00,00,
218000622,0CFE6CEE,true,Rx,0,8,38,0F,7F,C0,00,00,00,00,
419378465,18FF3521,true,Rx,0,8,00,00,00,01,10,04,00,00,
419379489,18FF3921,true,Rx,0,8,00,00,00,00,00,00,FF,FF,
217056256,0CF00400,true,Rx,0,8,10,7D,8C,B3,16,00,07,8C,
419378465,18FF3521,true,Rx,0,8,00,00,00,01,10,04,00,00,
418324759,18EF2117,true,Rx,0,8,01,F7,FF,FF,FF,FF,FF,FF,
419378721,18FF3621,true,Rx,0,8,00,00,00,01,04,00,04,00,
217056256,0CF00400,true,Rx,0,8,40,7D,8C,A5,16,00,07,8C,
419377697,18FF3221,true,Rx,0,8,F4,FF,FF,FF,FF,FF,02,FA,
218000622,0CFE6CEE,true,Rx,0,8,38,0F,7F,C0,00,00,00,00,
418324759,18EF2117,true,Rx,0,8,01,F7,FF,FF,FF,FF,FF,FF,
418322209,18EF1721,true,Rx,0,8,01,02,FF,FF,FF,FF,FF,FF,
218000622,0CFE6CEE,true,Rx,0,8,38,0F,7F,C0,00,00,00,00,
419378465,18FF3521,true,Rx,0,8,00,00,00,01,10,04,00,00,
419377697,18FF3221,true,Rx,0,8,F4,FF,FF,FF,FF,FF,02,FA,
419378465,18FF3521,true,Rx,0,8,00,00,00,01,10,04,00,00,
218000622,0CFE6CEE,true,Rx,0,8,38,0F,7F,C0,00,00,00,00,
418324759,18EF2117,true,Rx,0,8,01,F7,FF,FF,FF,FF,FF,FF,
419378465,18FF3521,true,Rx,0,8,00,00,00,01,10,04,00,00,
218000622,0CFE6CEE,true,Rx,0,8,38,0F,7F,C0,00,00,00,00,
419379233,18FF3821,true,Rx,0,8,FC,00,00,00,00,00,00,FF,
418324759,18EF2117,true,Rx,0,8,01,F7,FF,FF,FF,FF,FF,FF,
217056256,0CF00400,true,Rx,0,8,50,7D,8C,AF,16,00,07,8D,
419378465,18FF3521,true,Rx,0,8,00,00,00,01,10,04,00,00,
217056256,0CF00400,true,Rx,0,8,30,7D,8C,BB,16,00,07,8C,
419378465,18FF3521,true,Rx,0,8,00,00,00,01,10,04,00,00,
217056256,0CF00400,true,Rx,0,8,30,7D,8C,BE,16,00,07,8C,
419378465,18FF3521,true,Rx,0,8,00,00,00,01,10,04,00,00,
419377431,18FF3117,true,Rx,0,8,00,00,01,01,00,66,00,05,
217056256,0CF00400,true,Rx,0,8,20,7D,8C,C7,16,00,07,8C,
418322209,18EF1721,true,Rx,0,8,01,02,FF,FF,FF,FF,FF,FF,
419377697,18FF3221,true,Rx,0,8,F4,FF,FF,FF,FF,FF,02,FA,
419377953,18FF3321,true,Rx,0,8,24,23,9D,06,2E,15,F3,15,
218000622,0CFE6CEE,true,Rx,0,8,38,0F,7F,C0,00,00,00,00,
419378465,18FF3521,true,Rx,0,8,00,00,00,01,10,04,00,00,
418322209,18EF1721,true,Rx,0,8,01,02,FF,FF,FF,FF,FF,FF,
218000622,0CFE6CEE,true,Rx,0,8,38,0F,7F,C0,00,00,00,00,
419378465,18FF3521,true,Rx,0,8,00,00,00,01,10,04,00,00,
419377953,18FF3321,true,Rx,0,8,EB,22,9D,06,2E,15,F3,15,
419378465,18FF3521,true,Rx,0,8,00,00,00,01,10,04,00,00,
218000622,0CFE6CEE,true,Rx,0,8,38,0F,7F,C0,00,00,00,00,
217056256,0CF00400,true,Rx,0,8,60,7D,8A,24,17,00,07,8B,
419378465,18FF3521,true,Rx,0,8,00,00,00,01,10,04,00,00,
217056256,0CF00400,true,Rx,0,8,30,7D,8A,41,17,00,07,8A,
419378465,18FF3521,true,Rx,0,8,00,00,00,01,10,04,00,00,
418324759,18EF2117,true,Rx,0,8,01,F7,FF,FF,FF,FF,FF,FF,
217056256,0CF00400,true,Rx,0,8,00,7D,8A,4F,17,00,07,8A,
419377431,18FF3117,true,Rx,0,8,00,00,01,01,00,66,00,05,
217056256,0CF00400,true,Rx,0,8,50,7D,89,66,17,00,07,8A,
418324759,18EF2117,true,Rx,0,8,01,F7,FF,FF,FF,FF,FF,FF,
217056256,0CF00400,true,Rx,0,8,10,7D,89,80,17,00,07,89,
419378465,18FF3521,true,Rx,0,8,00,00,00,01,10,04,00,00,
418322209,18EF1721,true,Rx,0,8,01,02,FF,FF,FF,FF,FF,FF,
419378465,18FF3521,true,Rx,0,8,00,00,00,01,10,04,00,00,
418322209,18EF1721,true,Rx,0,8,01,02,FF,FF,FF,FF,FF,FF,
419377697,18FF3221,true,Rx,0,8,F4,FF,FF,FF,FF,FF,02,FA,
419377953,18FF3321,true,Rx,0,8,DD,22,9D,06,2E,15,F3,15,
218000622,0CFE6CEE,true,Rx,0,8,38,0F,7F,C0,00,00,00,00,
419378465,18FF3521,true,Rx,0,8,00,00,00,01,10,04,00,00,
418324759,18EF2117,true,Rx,0,8,30,00,14,FF,FF,FF,FF,FF,
419378465,18FF3521,true,Rx,0,8,00,00,00,01,10,04,00,00,
419378721,18FF3621,true,Rx,0,8,00,00,00,01,04,00,04,00,
419378209,18FF3421,true,Rx,0,8,F8,02,68,1A,FF,FF,FF,FF,
419378465,18FF3521,true,Rx,0,8,00,00,00,01,10,04,00,00,
217056256,0CF00400,true,Rx,0,8,50,7D,86,02,18,00,07,87,
419378465,18FF3521,true,Rx,0,8,00,00,00,01,10,04,00,00,
419378721,18FF3621,true,Rx,0,8,00,00,00,01,04,00,04,00,
217056256,0CF00400,true,Rx,0,8,30,7D,86,15,18,00,07,86,
419377431,18FF3117,true,Rx,0,8,00,00,01,01,00,66,00,05,
217056256,0CF00400,true,Rx,0,8,10,7D,86,22,18,00,07,86,
418322209,18EF1721,true,Rx,0,8,21,15,00,28,00,02,20,00,
218000622,0CFE6CEE,true,Rx,0,8,38,0F,7F,C0,00,00,00,00,
419378465,18FF3521,true,Rx,0,8,00,00,00,01,10,04,00,00,
419377697,18FF3221,true,Rx,0,8,F4,FF,FF,FF,FF,FF,02,FA,
418322209,18EF1721,true,Rx,0,8,21,15,00,28,00,02,20,00,
419378465,18FF3521,true,Rx,0,8,00,00,00,01,10,04,00,00,
218000622,0CFE6CEE,true,Rx,0,8,38,0F,7F,C0,00,00,00,00,
419358446,18FEE6EE,true,Rx,0,8,D0,2F,0D,05,6B,27,7D,7A,
418322209,18EF1721,true,Rx,0,8,01,02,FF,FF,FF,FF,FF,FF,
419377953,18FF3321,true,Rx,0,8,5A,23,9D,06,3F,15,F3,15,
419378209,18FF3421,true,Rx,0,8,06,03,68,1A,FF,FF,FF,FF,
218000622,0CFE6CEE,true,Rx,0,8,38,0F,7F,C0,00,00,00,00,
419378465,18FF3521,true,Rx,0,8,00,00,00,01,10,04,00,00,
217056256,0CF00400,true,Rx,0,8,30,83,85,3D,18,00,07,85,
419378465,18FF3521,true,Rx,0,8,00,00,00,01,10,04,00,00,
419378721,18FF3621,true,Rx,0,8,00,00,00,01,04,00,04,00,
217056256,0CF00400,true,Rx,0,8,40,85,85,36,18,00,07,85,
419378721,18FF3621,true,Rx,0,8,00,00,00,01,04,00,04,00,
217056256,0CF00400,true,Rx,0,8,51,87,86,30,18,00,07,87,
419377431,18FF3117,true,Rx,0,8,00,00,01,01,00,66,00,05,
418324759,18EF2117,true,Rx,0,8,01,F7,FF,FF,FF,FF,FF,FF,
217056256,0CF00400,true,Rx,0,8,61,88,87,26,18,00,07,88,
418322209,18EF1721,true,Rx,0,8,01,02,FF,FF,FF,FF,FF,FF,
419378465,18FF3521,true,Rx,0,8,00,00,00,01,10,04,00,00,
419378721,18FF3621,true,Rx,0,8,00,00,00,01,04,00,04,00,
418322209,18EF1721,true,Rx,0,8,01,02,FF,FF,FF,FF,FF,FF,
419378465,18FF3521,true,Rx,0,8,00,00,00,01,10,04,00,00,
419377697,18FF3221,true,Rx,0,8,F4,FF,FF,FF,FF,FF,02,FA,
419378465,18FF3521,true,Rx,0,8,00,00,00,01,10,04,00,00,
419378721,18FF3621,true,Rx,0,8,00,00,00,01,04,00,04,00,
218000622,0CFE6CEE,true,Rx,0,8,38,0F,7F,C0,00,00,00,00,
419378465,18FF3521,true,Rx,0,8,00,00,00,01,10,04,00,00,
218000622,0CFE6CEE,true,Rx,0,8,38,0F,7F,C0,00,00,00,00,
419379489,18FF3921,true,Rx,0,8,00,00,00,00,00,00,FF,FF,
419378465,18FF3521,true,Rx,0,8,00,00,00,01,10,04,00,00,
217056256,0CF00400,true,Rx,0,8,01,8D,8D,F5,18,00,07,8D,
419378465,18FF3521,true,Rx,0,8,00,00,00,01,10,04,00,00,
418324759,18EF2117,true,Rx,0,8,01,F7,FF,FF,FF,FF,FF,FF,
419377431,18FF3117,true,Rx,0,8,00,00,01,01,00,66,00,05,
419377697,18FF3221,true,Rx,0,8,F4,FF,FF,FF,FF,FF,02,FA,
217056256,0CF00400,true,Rx,0,8,61,8E,8D,8A,19,00,07,8E,
418324759,18EF2117,true,Rx,0,8,01,F7,FF,FF,FF,FF,FF,FF,
419378465,18FF3521,true,Rx,0,8,00,00,00,01,10,04,00,00,
418322209,18EF1721,true,Rx,0,8,01,02,FF,FF,FF,FF,FF,FF,
218000622,0CFE6CEE,true,Rx,0,8,38,0F,7F,C0,00,00,00,00,
419377697,18FF3221,true,Rx,0,8,F4,FF,FF,FF,FF,FF,02,FA,
418322209,18EF1721,true,Rx,0,8,01,02,FF,FF,FF,FF,FF,FF,
419378465,18FF3521,true,Rx,0,8,00,00,00,01,10,04,00,00,
218000622,0CFE6CEE,true,Rx,0,8,38,0F,7F,C0,00,00,00,00,
217056256,0CF00400,true,Rx,0,8,41,8F,8F,07,1B,00,07,8F,
419378465,18FF3521,true,Rx,0,8,00,00,00,01,10,04,00,00,
419377953,18FF3321,true,Rx,0,8,24,23,9D,06,3F,15,F3,15,
419378465,18FF3521,true,Rx,0,8,00,00,00,01,10,04,00,00,
419378721,18FF3621,true,Rx,0,8,00,00,00,01,04,00,04,00,
418324759,18EF2117,true,Rx,0,8,01,F7,FF,FF,FF,FF,FF,FF,
419378465,18FF3521,true,Rx,0,8,00,00,00,01,10,04,00,00,
217056256,0CF00400,true,Rx,0,8,51,90,90,2E,1C,00,07,90,
419378465,18FF3521,true,Rx,0,8,00,00,00,01,10,04,00,00,
419378721,18FF3621,true,Rx,0,8,00,00,00,01,04,00,04,00,
217056256,0CF00400,true,Rx,0,8,71,91,90,93,1C,00,07,91,
419377431,18FF3117,true,Rx,0,8,00,00,01,01,00,66,00,05,
217056256,0CF00400,true,Rx,0,8,01,91,91,06,1D,00,07,91,
419377697,18FF3221,true,Rx,0,8,F4,FF,FF,FF,FF,FF,02,FA,
418322209,18EF1721,true,Rx,0,8,01,02,FF,FF,FF,FF,FF,FF,
419378465,18FF3521,true,Rx,0,8,00,00,00,01,10,04,00,00,
418322209,18EF1721,true,Rx,0,8,01,02,FF,FF,FF,FF,FF,FF,
419378465,18FF3521,true,Rx,0,8,00,00,00,01,10,04,00,00,
218000622,0CFE6CEE,true,Rx,0,8,38,0F,7F,C0,00,00,00,00,
217056256,0CF00400,true,Rx,0,8,21,91,91,40,1E,00,07,91,
419377697,18FF3221,true,Rx,0,8,F4,FF,FF,FF,FF,FF,02,FA,
418322209,18EF1721,true,Rx,0,8,01,02,FF,FF,FF,FF,FF,FF,
419378465,18FF3521,true,Rx,0,8,00,00,00,01,10,04,00,00,
218000622,0CFE6CEE,true,Rx,0,8,38,0F,7F,C0,00,00,00,00,
418324759,18EF2117,true,Rx,0,8,01,F7,FF,FF,FF,FF,FF,FF,
419378465,18FF3521,true,Rx,0,8,00,00,00,01,10,04,00,00,
419379233,18FF3821,true,Rx,0,8,FC,00,00,00,00,00,00,FF,
419378465,18FF3521,true,Rx,0,8,00,00,00,01,10,04,00,00,
418324759,18EF2117,true,Rx,0,8,01,F7,FF,FF,FF,FF,FF,FF,
217056256,0CF00400,true,Rx,0,8,41,91,91,AB,1F,00,07,91,
419378721,18FF3621,true,Rx,0,8,00,00,00,01,04,00,04,00,
217056256,0CF00400,true,Rx,0,8,31,91,91,02,20,00,07,91,
418324759,18EF2117,true,Rx,0,8,01,F7,FF,FF,FF,FF,FF,FF,
418322209,18EF1721,true,Rx,0,8,01,02,FF,FF,FF,FF,FF,FF,
217056256,0CF00400,true,Rx,0,8,21,91,91,55,20,00,07,91,
418322209,18EF1721,true,Rx,0,8,01,02,FF,FF,FF,FF,FF,FF,
419378465,18FF3521,true,Rx,0,8,00,00,00,01,10,04,00,00,
419377697,18FF3221,true,Rx,0,8,F4,FF,FF,FF,FF,FF,02,FA,
418322209,18EF1721,true,Rx,0,8,01,02,FF,FF,FF,FF,FF,FF,
419378465,18FF3521,true,Rx,0,8,00,00,00,01,10,04,00,00,
218000622,0CFE6CEE,true,Rx,0,8,38,0F,7F,C0,00,00,00,00,
419378465,18FF3521,true,Rx,0,8,00,00,00,01,10,04,00,00,
218000622,0CFE6CEE,true,Rx,0,8,38,0F,7F,C0,00,00,00,00,
418324759,18EF2117,true,Rx,0,8,01,F7,FF,FF,FF,FF,FF,FF,
419379233,18FF3821,true,Rx,0,8,FC,00,00,00,00,00,00,FF,
217056256,0CF00400,true,Rx,0,8,61,90,90,D1,21,00,07,90,
419378465,18FF3521,true,Rx,0,8,00,00,00,01,10,04,00,00,
217056256,0CF00400,true,Rx,0,8,41,90,90,17,22,00,07,90,
419378465,18FF3521,true,Rx,0,8,00,00,00,01,10,04,00,00,
419378721,18FF3621,true,Rx,0,8,00,00,00,01,04,00,04,00,
217056256,0CF00400,true,Rx,0,8,21,90,90,57,22,00,07,90,
419377431,18FF3117,true,Rx,0,8,00,00,01,01,00,66,00,05,
217056256,0CF00400,true,Rx,0,8,01,90,90,A2,22,00,07,90,
419378465,18FF3521,true,Rx,0,8,00,00,00,01,10,04,00,00,
218000622,0CFE6CEE,true,Rx,0,8,38,0F,7F,C0,00,00,00,00,
419377697,18FF3221,true,Rx,0,8,F4,FF,FF,FF,FF,FF,02,FA,
418322209,18EF1721,true,Rx,0,8,01,02,FF,FF,FF,FF,FF,FF,
419378465,18FF3521,true,Rx,0,8,00,00,00,01,10,04,00,00,
419378721,18FF3621,true,Rx,0,8,00,00,00,01,04,00,04,00,
218000622,0CFE6CEE,true,Rx,0,8,38,0F,7F,C0,00,00,00,00,
419378465,18FF3521,true,Rx,0,8,00,00,00,01,10,04,00,00,
419377697,18FF3221,true,Rx,0,8,F4,FF,FF,FF,FF,FF,02,FA,
418322209,18EF1721,true,Rx,0,8,10,21,10,02,00,05,23,60,
419378465,18FF3521,true,Rx,0,8,00,00,00,01,10,04,00,00,
218000622,0CFE6CEE,true,Rx,0,8,38,0F,7F,C0,00,00,00,00,
419378465,18FF3521,true,Rx,0,8,00,00,00,01,10,04,00,00,
418324759,18EF2117,true,Rx,0,8,01,F7,FF,FF,FF,FF,FF,FF,
217056256,0CF00400,true,Rx,0,8,21,8C,8C,10,24,00,07,8C,
419378465,18FF3521,true,Rx,0,8,00,00,00,01,10,04,00,00,
217056256,0CF00400,true,Rx,0,8,71,8B,8A,43,24,00,07,8B,
419378721,18FF3621,true,Rx,0,8,00,00,00,01,04,00,04,00,
217056256,0CF00400,true,Rx,0,8,21,89,89,64,24,00,07,89,
419378465,18FF3521,true,Rx,0,8,00,00,00,01,10,04,00,00,
419377697,18FF3221,true,Rx,0,8,F4,FF,FF,FF,FF,FF,02,FA,
217056256,0CF00400,true,Rx,0,8,61,87,86,71,24,00,07,87,
218000622,0CFE6CEE,true,Rx,0,8,38,0F,7F,C0,00,00,00,00,
419358446,18FEE6EE,true,Rx,0,8,D4,2F,0D,05,6B,27,7D,7A,
419378465,18FF3521,true,Rx,0,8,00,00,00,01,10,04,00,00,
418322209,18EF1721,true,Rx,0,8,10,0D,10,02,00,0F,23,60,
419377697,18FF3221,true,Rx,0,8,F4,FF,FF,FF,FF,FF,02,FA,
218000622,0CFE6CEE,true,Rx,0,8,38,0F,7F,C0,00,00,00,00,
419351278,18FECAEE,true,Rx,0,8,00,FF,00,00,00,00,FF,FF,
419378465,18FF3521,true,Rx,0,8,00,00,00,01,10,04,00,00,
218000622,0CFE6CEE,true,Rx,0,8,38,0F,7F,C0,00,00,00,00,
419378465,18FF3521,true,Rx,0,8,00,00,00,01,10,04,00,00,
218000622,0CFE6CEE,true,Rx,0,8,38,0F,7F,C0,00,00,00,00,
419378465,18FF3521,true,Rx,0,8,00,00,00,01,10,04,00,00,
419378721,18FF3621,true,Rx,0,8,00,00,00,01,04,00,04,00,
217056256,0CF00400,true,Rx,0,8,01,7D,7D,5A,23,00,07,7D,
419378465,18FF3521,true,Rx,0,8,00,00,00,01,10,04,00,00,
217056256,0CF00400,true,Rx,0,8,01,7D,7D,04,23,00,07,7D,
484371991,1CDEEE17,true,Rx,0,8,FF,FF,FF,FF,FF,FF,FF,FF,
419377431,18FF3117,true,Rx,0,8,00,00,01,01,00,66,00,05,
217056256,0CF00400,true,Rx,0,8,01,7D,7D,B3,22,00,07,7D,
418324759,18EF2117,true,Rx,0,8,01,F7,FF,FF,FF,FF,FF,FF,
217056256,0CF00400,true,Rx,0,8,01,7D,7D,61,22,00,07,7D,
419378465,18FF3521,true,Rx,0,8,00,00,00,01,10,04,00,00,
419377697,18FF3221,true,Rx,0,8,F4,FF,FF,FF,FF,FF,02,FA,
419378465,18FF3521,true,Rx,0,8,00,00,00,01,10,04,00,00,
418322209,18EF1721,true,Rx,0,8,01,02,FF,FF,FF,FF,FF,FF,
419378465,18FF3521,true,Rx,0,8,00,00,00,01,10,04,00,00,
419378721,18FF3621,true,Rx,0,8,00,00,00,01,04,00,04,00,
218000622,0CFE6CEE,true,Rx,0,8,38,0F,7F,C0,00,00,00,00,
419377953,18FF3321,true,Rx,0,8,68,23,9D,06,62,15,F3,15,
218000622,0CFE6CEE,true,Rx,0,8,38,0F,7F,C0,00,00,00,00,
419378465,18FF3521,true,Rx,0,8,00,00,00,01,10,04,00,00,
419378721,18FF3621,true,Rx,0,8,00,00,00,01,04,00,04,00,
217056256,0CF00400,true,Rx,0,8,10,7D,7D,D2,20,00,07,7D,
419378465,18FF3521,true,Rx,0,8,00,00,00,01,10,04,00,00,
418324759,18EF2117,true,Rx,0,8,01,F7,FF,FF,FF,FF,FF,FF,
419378465,18FF3521,true,Rx,0,8,00,00,00,01,10,04,00,00,
419378721,18FF3621,true,Rx,0,8,00,00,00,01,04,00,04,00,
418324759,18EF2117,true,Rx,0,8,01,F7,FF,FF,FF,FF,FF,FF,
419377431,18FF3117,true,Rx,0,8,00,00,01,01,00,66,00,05,
217056256,0CF00400,true,Rx,0,8,00,7D,7D,E3,1F,00,07,7D,
418322209,18EF1721,true,Rx,0,8,01,02,FF,FF,FF,FF,FF,FF,
218000622,0CFE6CEE,true,Rx,0,8,38,0F,7F,C0,00,00,00,00,
419378465,18FF3521,true,Rx,0,8,00,00,00,01,10,04,00,00,
218000622,0CFE6CEE,true,Rx,0,8,38,0F,7F,C0,00,00,00,00,
419378465,18FF3521,true,Rx,0,8,00,00,00,01,10,04,00,00,
419378721,18FF3621,true,Rx,0,8,00,00,00,01,04,00,04,00,
419377697,18FF3221,true,Rx,0,8,F4,FF,FF,FF,FF,FF,02,FA,
419378465,18FF3521,true,Rx,0,8,00,00,00,01,10,04,00,00,
418322209,18EF1721,true,Rx,0,8,01,02,FF,FF,FF,FF,FF,FF,
419378465,18FF3521,true,Rx,0,8,00,00,00,01,10,04,00,00,
419378721,18FF3621,true,Rx,0,8,00,00,00,01,04,00,04,00,
218000622,0CFE6CEE,true,Rx,0,8,38,0F,7F,C0,00,00,00,00,
419379489,18FF3921,true,Rx,0,8,00,00,00,00,00,00,FF,FF,
418324759,18EF2117,true,Rx,0,8,01,F7,FF,FF,FF,FF,FF,FF,
419378465,18FF3521,true,Rx,0,8,00,00,00,01,10,04,00,00,
419378721,18FF3621,true,Rx,0,8,00,00,00,01,04,00,04,00,
217056256,0CF00400,true,Rx,0,8,00,7D,7D,CD,1D,00,07,7D,
419378721,18FF3621,true,Rx,0,8,00,00,00,01,04,00,04,00,
418324759,18EF2117,true,Rx,0,8,01,F7,FF,FF,FF,FF,FF,FF,
418322209,18EF1721,true,Rx,0,8,01,02,FF,FF,FF,FF,FF,FF,
218000622,0CFE6CEE,true,Rx,0,8,38,0F,7F,C0,00,00,00,00,
217056256,0CF00400,true,Rx,0,8,00,7D,7D,33,1D,00,07,7D,
218000622,0CFE6CEE,true,Rx,0,8,38,0F,7F,C0,00,00,00,00,
419377697,18FF3221,true,Rx,0,8,F4,FF,FF,FF,FF,FF,02,FA,
418322209,18EF1721,true,Rx,0,8,01,02,FF,FF,FF,FF,FF,FF,
218000622,0CFE6CEE,true,Rx,0,8,38,0F,7F,C0,00,00,00,00,
419378465,18FF3521,true,Rx,0,8,00,00,00,01,10,04,00,00,
218000622,0CFE6CEE,true,Rx,0,8,38,0F,7F,C0,00,00,00,00,
419378465,18FF3521,true,Rx,0,8,00,00,00,01,10,04,00,00,
418322209,18EF1721,true,Rx,0,8,01,02,FF,FF,FF,FF,FF,FF,
419377953,18FF3321,true,Rx,0,8,77,23,9D,06,96,15,F3,15,
419378465,18FF3521,true,Rx,0,8,00,00,00,01,10,04,00,00,
218000622,0CFE6CEE,true,Rx,0,8,38,0F,7F,C0,00,00,00,00,
419378465,18FF3521,true,Rx,0,8,00,00,00,01,10,04,00,00,
419378721,18FF3621,true,Rx,0,8,00,00,00,01,04,00,04,00,
217056256,0CF00400,true,Rx,0,8,00,7D,7D,77,1B,00,07,7D,
419378465,18FF3521,true,Rx,0,8,00,00,00,01,10,04,00,00,
418324759,18EF2117,true,Rx,0,8,01,F7,FF,FF,FF,FF,FF,FF,
419377431,18FF3117,true,Rx,0,8,00,00,01,01,00,66,00,05,
418322209,18EF1721,true,Rx,0,8,01,02,FF,FF,FF,FF,FF,FF,
217056256,0CF00400,true,Rx,0,8,00,7D,7D,E0,1A,00,07,7D,
419377697,18FF3221,true,Rx,0,8,F4,FF,FF,FF,FF,FF,02,FA,
419378465,18FF3521,true,Rx,0,8,00,00,00,01,10,04,00,00,
418322209,18EF1721,true,Rx,0,8,01,02,FF,FF,FF,FF,FF,FF,
218000622,0CFE6CEE,true,Rx,0,8,38,0F,7F,C0,00,00,00,00,
419378465,18FF3521,true,Rx,0,8,00,00,00,01,10,04,00,00,
418322209,18EF1721,true,Rx,0,8,01,02,FF,FF,FF,FF,FF,FF,
419377697,18FF3221,true,Rx,0,8,F4,FF,FF,FF,FF,FF,02,FA,
418322209,18EF1721,true,Rx,0,8,01,02,FF,FF,FF,FF,FF,FF,
218000622,0CFE6CEE,true,Rx,0,8,38,0F,7F,C0,00,00,00,00,
419378465,18FF3521,true,Rx,0,8,00,00,00,01,10,04,00,00,
218000622,0CFE6CEE,true,Rx,0,8,38,0F,7F,C0,00,00,00,00,
419378465,18FF3521,true,Rx,0,8,00,00,00,01,10,04,00,00,
218000622,0CFE6CEE,true,Rx,0,8,38,0F,7F,C0,00,00,00,00,
419379233,18FF3821,true,Rx,0,8,FC,00,00,00,00,00,00,FF,
419378465,18FF3521,true,Rx,0,8,00,00,00,01,10,04,00,00,
217056256,0CF00400,true,Rx,0,8,00,7D,84,11,19,00,07,84,
419378721,18FF3621,true,Rx,0,8,00,00,00,01,04,00,04,00,
217056256,0CF00400,true,Rx,0,8,00,7D,85,E5,18,00,07,84,
419377697,18FF3221,true,Rx,0,8,F4,FF,FF,FF,FF,FF,02,FA,
418322209,18EF1721,true,Rx,0,8,01,02,FF,FF,FF,FF,FF,FF,
217056256,0CF00400,true,Rx,0,8,50,7D,85,C0,18,00,07,85,
218000622,0CFE6CEE,true,Rx,0,8,38,0F,7F,C0,00,00,00,00,
217056256,0CF00400,true,Rx,0,8,20,7D,86,A8,18,00,07,86,
419378465,18FF3521,true,Rx,0,8,00,00,00,01,10,04,00,00,
419377697,18FF3221,true,Rx,0,8,F4,FF,FF,FF,FF,FF,02,FA,
419378465,18FF3521,true,Rx,0,8,00,00,00,01,10,04,00,00,
418322209,18EF1721,true,Rx,0,8,01,02,FF,FF,FF,FF,FF,FF,
218000622,0CFE6CEE,true,Rx,0,8,38,0F,7F,C0,00,00,00,00,
419378465,18FF3521,true,Rx,0,8,00,00,00,01,10,04,00,00,
418324759,18EF2117,true,Rx,0,8,30,00,14,FF,FF,FF,FF,FF,
419377953,18FF3321,true,Rx,0,8,15,23,9D,06,73,15,F3,15,
218000622,0CFE6CEE,true,Rx,0,8,38,0F,7F,C0,00,00,00,00,
217056256,0CF00400,true,Rx,0,8,60,7D,84,CD,18,00,07,85,
419378465,18FF3521,true,Rx,0,8,00,00,00,01,10,04,00,00,
217056256,0CF00400,true,Rx,0,8,40,7D,84,D2,18,00,07,85,
419378465,18FF3521,true,Rx,0,8,00,00,00,01,10,04,00,00,
419379489,18FF3921,true,Rx,0,8,00,00,00,00,00,00,FF,FF,
217056256,0CF00400,true,Rx,0,8,20,7D,84,D2,18,00,07,84,
419377431,18FF3117,true,Rx,0,8,00,00,01,01,00,66,00,05,
418324759,18EF2117,true,Rx,0,8,01,F7,FF,FF,FF,FF,FF,FF,
419377431,18FF3117,true,Rx,0,8,00,00,01,01,00,66,00,05,
217056256,0CF00400,true,Rx,0,8,30,7D,84,BD,18,00,07,85,
419377697,18FF3221,true,Rx,0,8,F4,FF,FF,FF,FF,FF,02,FA,
218000622,0CFE6CEE,true,Rx,0,8,38,0F,7F,C0,00,00,00,00,
419351278,18FECAEE,true,Rx,0,8,00,FF,00,00,00,00,FF,FF,
218000622,0CFE6CEE,true,Rx,0,8,38,0F,7F,C0,00,00,00,00,
419378465,18FF3521,true,Rx,0,8,00,00,00,01,10,04,00,00,
419378721,18FF3621,true,Rx,0,8,00,00,00,01,04,00,04,00,
419377697,18FF3221,true,Rx,0,8,F4,FF,FF,FF,FF,FF,02,FA,
418322209,18EF1721,true,Rx,0,8,21,15,00,28,00,02,20,00,
218000622,0CFE6CEE,true,Rx,0,8,38,0F,7F,C0,00,00,00,00,
217056256,0CF00400,true,Rx,0,8,00,7D,85,8F,18,00,07,85,
419378465,18FF3521,true,Rx,0,8,00,00,00,01,10,04,00,00,
217056256,0CF00400,true,Rx,0,8,00,7D,85,86,18,00,07,85,
419379489,18FF3921,true,Rx,0,8,00,00,00,00,00,00,FF,FF,
217056256,0CF00400,true,Rx,0,8,00,7D,85,83,18,00,07,85,
419378465,18FF3521,true,Rx,0,8,00,00,00,01,10,04,00,00,
419378721,18FF3621,true,Rx,0,8,00,00,00,01,04,00,04,00,
217056256,0CF00400,true,Rx,0,8,10,7D,85,7A,18,00,07,85,
419377431,18FF3117,true,Rx,0,8,00,00,01,01,00,66,00,05,
217056256,0CF00400,true,Rx,0,8,00,7D,85,7E,18,00,07,85,
419378465,18FF3521,true,Rx,0,8,00,00,00,01,10,04,00,00,
418322209,18EF1721,true,Rx,0,8,01,02,FF,FF,FF,FF,FF,FF,
419378465,18FF3521,true,Rx,0,8,00,00,00,01,10,04,00,00,
218000622,0CFE6CEE,true,Rx,0,8,38,0F,7F,C0,00,00,00,00,
419377697,18FF3221,true,Rx,0,8,F4,FF,FF,FF,FF,FF,02,FA,
419377953,18FF3321,true,Rx,0,8,F9,22,9D,06,84,15,F3,15,
418322209,18EF1721,true,Rx,0,8,01,02,FF,FF,FF,FF,FF,FF,
419378465,18FF3521,true,Rx,0,8,00,00,00,01,10,04,00,00,
218000622,0CFE6CEE,true,Rx,0,8,38,0F,7F,C0,00,00,00,00,
419378465,18FF3521,true,Rx,0,8,00,00,00,01,10,04,00,00,
419378721,18FF3621,true,Rx,0,8,00,00,00,01,04,00,04,00,
419378209,18FF3421,true,Rx,0,8,0F,03,68,1A,FF,FF,FF,FF,
419378465,18FF3521,true,Rx,0,8,00,00,00,01,10,04,00,00,
217056256,0CF00400,true,Rx,0,8,60,82,84,69,18,00,07,85,
419378465,18FF3521,true,Rx,0,8,00,00,00,01,10,04,00,00,
419378721,18FF3621,true,Rx,0,8,00,00,00,01,04,00,04,00,
217056256,0CF00400,true,Rx,0,8,51,85,85,60,18,00,07,85,
419378721,18FF3621,true,Rx,0,8,00,00,00,01,04,00,04,00,
217056256,0CF00400,true,Rx,0,8,11,88,88,60,18,00,07,88,
419378465,18FF3521,true,Rx,0,8,00,00,00,01,10,04,00,00,
418324759,18EF2117,true,Rx,0,8,01,F7,FF,FF,FF,FF,FF,FF,
217056256,0CF00400,true,Rx,0,8,31,8B,8A,62,18,00,07,8B,
419377697,18FF3221,true,Rx,0,8,F4,FF,FF,FF,FF,FF,02,FA,
419378465,18FF3521,true,Rx,0,8,00,00,00,01,10,04,00,00,
419378721,18FF3621,true,Rx,0,8,00,00,00,01,04,00,04,00,
418322209,18EF1721,true,Rx,0,8,01,02,FF,FF,FF,FF,FF,FF,
419378465,18FF3521,true,Rx,0,8,00,00,00,01,10,04,00,00,
218000622,0CFE6CEE,true,Rx,0,8,38,0F,7F,C0,00,00,00,00,
419377953,18FF3321,true,Rx,0,8,2F,23,9D,06,84,15,F3,15,
419378209,18FF3421,true,Rx,0,8,0C,03,68,1A,FF,FF,FF,FF,
218000622,0CFE6CEE,true,Rx,0,8,38,0F,7F,C0,00,00,00,00,
419378465,18FF3521,true,Rx,0,8,00,00,00,01,10,04,00,00,
418324759,18EF2117,true,Rx,0,8,01,F7,FF,FF,FF,FF,FF,FF,
419378465,18FF3521,true,Rx,0,8,00,00,00,01,10,04,00,00,
419378721,18FF3621,true,Rx,0,8,00,00,00,01,04,00,04,00,
419379489,18FF3921,true,Rx,0,8,00,00,00,00,00,00,FF,FF,
419378465,18FF3521,true,Rx,0,8,00,00,00,01,10,04,00,00,
217056256,0CF00400,true,Rx,0,8,61,94,94,6F,1A,00,07,94,
419377431,18FF3117,true,Rx,0,8,00,00,01,01,00,66,00,05,
418324759,18EF2117,true,Rx,0,8,01,F7,FF,FF,FF,FF,FF,FF,
217056256,0CF00400,true,Rx,0,8,11,95,95,FD,1A,00,07,95,
418322209,18EF1721,true,Rx,0,8,01,02,FF,FF,FF,FF,FF,FF,
419378465,18FF3521,true,Rx,0,8,00,00,00,01,10,04,00,00,
419378721,18FF3621,true,Rx,0,8,00,00,00,01,04,00,04,00,
218000622,0CFE6CEE,true,Rx,0,8,38,0F,7F,C0,00,00,00,00,
419378465,18FF3521,true,Rx,0,8,00,00,00,01,10,04,00,00,
419377697,18FF3221,true,Rx,0,8,F4,FF,FF,FF,FF,FF,02,FA,
419378465,18FF3521,true,Rx,0,8,00,00,00,01,10,04,00,00,
419378721,18FF3621,true,Rx,0,8,00,00,00,01,04,00,04,00,
418322209,18EF1721,true,Rx,0,8,01,02,FF,FF,FF,FF,FF,FF,
419378465,18FF3521,true,Rx,0,8,00,00,00,01,10,04,00,00,
218000622,0CFE6CEE,true,Rx,0,8,38,0F,7F,C0,00,00,00,00,
419379489,18FF3921,true,Rx,0,8,00,00,00,00,00,00,FF,FF,
419378465,18FF3521,true,Rx,0,8,00,00,00,01,10,04,00,00,
217056256,0CF00400,true,Rx,0,8,51,97,96,62,1E,00,07,97,
419378465,18FF3521,true,Rx,0,8,00,00,00,01,10,04,00,00,
418324759,18EF2117,true,Rx,0,8,01,F7,FF,FF,FF,FF,FF,FF,
419378721,18FF3621,true,Rx,0,8,00,00,00,01,04,00,04,00,
419377431,18FF3117,true,Rx,0,8,00,00,01,01,00,66,00,05,
217056256,0CF00400,true,Rx,0,8,21,97,97,8E,1F,00,07,97,
418324759,18EF2117,true,Rx,0,8,01,F7,FF,FF,FF,FF,FF,FF,
217056256,0CF00400,true,Rx,0,8,11,97,97,1D,20,00,07,97,
418322209,18EF1721,true,Rx,0,8,01,02,FF,FF,FF,FF,FF,FF,
218000622,0CFE6CEE,true,Rx,0,8,38,0F,7F,C0,00,00,00,00,
419377697,18FF3221,true,Rx,0,8,F4,FF,FF,FF,FF,FF,02,FA,
418322209,18EF1721,true,Rx,0,8,01,02,FF,FF,FF,FF,FF,FF,
419378465,18FF3521,true,Rx,0,8,00,00,00,01,10,04,00,00,
218000622,0CFE6CEE,true,Rx,0,8,38,0F,7F,C0,00,00,00,00,
217056256,0CF00400,true,Rx,0,8,61,96,96,AC,21,00,07,96,
419378465,18FF3521,true,Rx,0,8,00,00,00,01,10,04,00,00,
418322209,18EF1721,true,Rx,0,8,01,02,FF,FF,FF,FF,FF,FF,
419378465,18FF3521,true,Rx,0,8,00,00,00,01,10,04,00,00,
419378721,18FF3621,true,Rx,0,8,00,00,00,01,04,00,04,00,
418324759,18EF2117,true,Rx,0,8,01,F7,FF,FF,FF,FF,FF,FF,
419378465,18FF3521,true,Rx,0,8,00,00,00,01,10,04,00,00,
217056256,0CF00400,true,Rx,0,8,11,96,96,03,23,00,07,96,
419378465,18FF3521,true,Rx,0,8,00,00,00,01,10,04,00,00,
419378721,18FF3621,true,Rx,0,8,00,00,00,01,04,00,04,00,
217056256,0CF00400,true,Rx,0,8,71,96,95,73,23,00,07,96,
419377431,18FF3117,true,Rx,0,8,00,00,01,01,00,66,00,05,
217056256,0CF00400,true,Rx,0,8,01,95,95,DB,23,00,07,95,
419377697,18FF3221,true,Rx,0,8,F4,FF,FF,FF,FF,FF,02,FA,
418322209,18EF1721,true,Rx,0,8,01,02,FF,FF,FF,FF,FF,FF,
217056256,0CF00400,true,Rx,0,8,01,94,94,40,24,00,07,94,
418322209,18EF1721,true,Rx,0,8,01,02,FF,FF,FF,FF,FF,FF,
419378465,18FF3521,true,Rx,0,8,00,00,00,01,10,04,00,00,
218000622,0CFE6CEE,true,Rx,0,8,38,0F,7F,C0,00,00,00,00,
217056256,0CF00400,true,Rx,0,8,01,90,90,F4,24,00,07,90,
419377697,18FF3221,true,Rx,0,8,F4,FF,FF,FF,FF,FF,02,FA,
418322209,18EF1721,true,Rx,0,8,01,02,FF,FF,FF,FF,FF,FF,
419348974,18FEC1EE,true,Rx,0,8,3E,59,0B,00,68,30,00,00,
218000622,0CFE6CEE,true,Rx,0,8,38,0F,7F,C0,00,00,00,00,
217056256,0CF00400,true,Rx,0,8,11,8B,8B,8E,25,00,07,8B,
419378465,18FF3521,true,Rx,0,8,00,00,00,01,10,04,00,00,
419379233,18FF3821,true,Rx,0,8,FC,00,00,00,00,00,00,FF,
419378465,18FF3521,true,Rx,0,8,00,00,00,01,10,04,00,00,
418324759,18EF2117,true,Rx,0,8,01,F7,FF,FF,FF,FF,FF,FF,
217056256,0CF00400,true,Rx,0,8,61,84,84,D1,25,00,07,84,
419378721,18FF3621,true,Rx,0,8,00,00,00,01,04,00,04,00,
217056256,0CF00400,true,Rx,0,8,01,81,81,D5,25,00,07,81,
419377431,18FF3117,true,Rx,0,8,00,00,01,01,00,66,00,05,
418324759,18EF2117,true,Rx,0,8,01,F7,FF,FF,FF,FF,FF,FF,
217056256,0CF00400,true,Rx,0,8,31,7D,7D,BF,25,00,07,7D,
218000622,0CFE6CEE,true,Rx,0,8,38,0F,7F,C0,00,00,00,00,
419378465,18FF3521,true,Rx,0,8,00,00,00,01,10,04,00,00,
419377697,18FF3221,true,Rx,0,8,F4,FF,FF,FF,FF,FF,02,FA,
418322209,18EF1721,true,Rx,0,8,10,0D,10,02,00,0F,23,60,
418322209,18EF1721,true,Rx,0,8,21,15,00,28,00,02,20,00,
218000622,0CFE6CEE,true,Rx,0,8,38,0F,7F,C0,00,00,00,00,
419378465,18FF3521,true,Rx,0,8,00,00,00,01,10,04,00,00,
218000622,0CFE6CEE,true,Rx,0,8,38,0F,7F,C0,00,00,00,00,
418324759,18EF2117,true,Rx,0,8,01,F7,FF,FF,FF,FF,FF,FF,
419378209,18FF3421,true,Rx,0,8,A7,04,68,1A,FF,FF,FF,FF,
218000622,0CFE6CEE,true,Rx,0,8,38,0F,7F,C0,00,00,00,00,
419378465,18FF3521,true,Rx,0,8,00,00,00,01,10,04,00,00,
217056256,0CF00400,true,Rx,0,8,01,7D,7D,EB,23,00,07,7D,
419378465,18FF3521,true,Rx,0,8,00,00,00,01,10,04,00,00,
419378721,18FF3621,true,Rx,0,8,00,00,00,01,04,00,04,00,
217056256,0CF00400,true,Rx,0,8,01,7D,7D,9A,23,00,07,7D,
419377431,18FF3117,true,Rx,0,8,00,00,01,01,00,66,00,05,
217056256,0CF00400,true,Rx,0,8,01,7D,7D,44,23,00,07,7D,
419378465,18FF3521,true,Rx,0,8,00,00,00,01,10,04,00,00,
218000622,0CFE6CEE,true,Rx,0,8,38,0F,7F,C0,00,00,00,00,
217056256,0CF00400,true,Rx,0,8,01,7D,7D,FA,22,00,07,7D,
418322209,18EF1721,true,Rx,0,8,01,02,FF,FF,FF,FF,FF,FF,
419378465,18FF3521,true,Rx,0,8,00,00,00,01,10,04,00,00,
419378721,18FF3621,true,Rx,0,8,00,00,00,01,04,00,04,00,
218000622,0CFE6CEE,true,Rx,0,8,38,0F,7F,C0,00,00,00,00,
419378465,18FF3521,true,Rx,0,8,00,00,00,01,10,04,00,00,
419377697,18FF3221,true,Rx,0,8,F4,FF,FF,FF,FF,FF,02,FA,
418322209,18EF1721,true,Rx,0,8,01,02,FF,FF,FF,FF,FF,FF,
419378465,18FF3521,true,Rx,0,8,00,00,00,01,10,04,00,00,
218000622,0CFE6CEE,true,Rx,0,8,38,0F,7F,C0,00,00,00,00,
419378465,18FF3521,true,Rx,0,8,00,00,00,01,10,04,00,00,
217056256,0CF00400,true,Rx,0,8,21,7D,7D,60,21,00,07,7D,
419377697,18FF3221,true,Rx,0,8,F4,FF,FF,FF,FF,FF,02,FA,
419378465,18FF3521,true,Rx,0,8,00,00,00,01,10,04,00,00,
217056256,0CF00400,true,Rx,0,8,11,7D,7D,11,21,00,07,7D,
419378721,18FF3621,true,Rx,0,8,00,00,00,01,04,00,04,00,
217056256,0CF00400,true,Rx,0,8,11,7D,7D,C3,20,00,07,7D,
419378465,18FF3521,true,Rx,0,8,00,00,00,01,10,04,00,00,
418324759,18EF2117,true,Rx,0,8,01,F7,FF,FF,FF,FF,FF,FF,
217056256,0CF00400,true,Rx,0,8,01,7D,7D,70,20,00,07,7D,
418322209,18EF1721,true,Rx,0,8,01,02,FF,FF,FF,FF,FF,FF,
419378465,18FF3521,true,Rx,0,8,00,00,00,01,10,04,00,00,
419378721,18FF3621,true,Rx,0,8,00,00,00,01,04,00,04,00,
218000622,0CFE6CEE,true,Rx,0,8,38,0F,7F,C0,00,00,00,00,
419377697,18FF3221,true,Rx,0,8,F4,FF,FF,FF,FF,FF,02,FA,
418322209,18EF1721,true,Rx,0,8,01,02,FF,FF,FF,FF,FF,FF,
419378465,18FF3521,true,Rx,0,8,00,00,00,01,10,04,00,00,
419378721,18FF3621,true,Rx,0,8,00,00,00,01,04,00,04,00,
218000622,0CFE6CEE,true,Rx,0,8,38,0F,7F,C0,00,00,00,00,
419378465,18FF3521,true,Rx,0,8,00,00,00,01,10,04,00,00,
419379233,18FF3821,true,Rx,0,8,FC,00,00,00,00,00,00,FF,
218000622,0CFE6CEE,true,Rx,0,8,38,0F,7F,C0,00,00,00,00,
419378465,18FF3521,true,Rx,0,8,00,00,00,01,10,04,00,00,
418324759,18EF2117,true,Rx,0,8,01,F7,FF,FF,FF,FF,FF,FF,
419378465,18FF3521,true,Rx,0,8,00,00,00,01,10,04,00,00,
418324759,18EF2117,true,Rx,0,8,01,F7,FF,FF,FF,FF,FF,FF,
217056256,0CF00400,true,Rx,0,8,00,7D,7D,54,1E,00,07,7D,
419378721,18FF3621,true,Rx,0,8,00,00,00,01,04,00,04,00,
217056256,0CF00400,true,Rx,0,8,00,7D,7D,06,1E,00,07,7D,
418324759,18EF2117,true,Rx,0,8,01,F7,FF,FF,FF,FF,FF,FF,
217056256,0CF00400,true,Rx,0,8,00,7D,7D,BD,1D,00,07,7D,
419378465,18FF3521,true,Rx,0,8,00,00,00,01,10,04,00,00,
419377697,18FF3221,true,Rx,0,8,F4,FF,FF,FF,FF,FF,02,FA,
419378465,18FF3521,true,Rx,0,8,00,00,00,01,10,04,00,00,
418322209,18EF1721,true,Rx,0,8,01,02,FF,FF,FF,FF,FF,FF,
419378465,18FF3521,true,Rx,0,8,00,00,00,01,10,04,00,00,
419378721,18FF3621,true,Rx,0,8,00,00,00,01,04,00,04,00,
218000622,0CFE6CEE,true,Rx,0,8,38,0F,7F,C0,00,00,00,00,
419377953,18FF3321,true,Rx,0,8,CF,22,9D,06,DB,15,F3,15,
218000622,0CFE6CEE,true,Rx,0,8,38,0F,7F,C0,00,00,00,00,
419378465,18FF3521,true,Rx,0,8,00,00,00,01,10,04,00,00,
419378721,18FF3621,true,Rx,0,8,00,00,00,01,04,00,04,00,
218000622,0CFE6CEE,true,Rx,0,8,38,0F,7F,C0,00,00,00,00,
419378465,18FF3521,true,Rx,0,8,00,00,00,01,10,04,00,00,
418324759,18EF2117,true,Rx,0,8,01,F7,FF,FF,FF,FF,FF,FF,
419378465,18FF3521,true,Rx,0,8,00,00,00,01,10,04,00,00,
419378721,18FF3621,true,Rx,0,8,00,00,00,01,04,00,04,00,
418324759,18EF2117,true,Rx,0,8,01,F7,FF,FF,FF,FF,FF,FF,
419377431,18FF3117,true,Rx,0,8,00,00,01,01,00,66,00,05,
217056256,0CF00400,true,Rx,0,8,00,7D,7D,67,1B,00,07,7D,
419377697,18FF3221,true,Rx,0,8,F4,FF,FF,FF,FF,FF,02,FA,
418322209,18EF1721,true,Rx,0,8,01,02,FF,FF,FF,FF,FF,FF,
419378465,18FF3521,true,Rx,0,8,00,00,00,01,10,04,00,00,
218000622,0CFE6CEE,true,Rx,0,8,38,0F,7F,C0,00,00,00,00,
419378465,18FF3521,true,Rx,0,8,00,00,00,01,10,04,00,00,
419378721,18FF3621,true,Rx,0,8,00,00,00,01,04,00,04,00,
419377697,18FF3221,true,Rx,0,8,F4,FF,FF,FF,FF,FF,02,FA,
419378465,18FF3521,true,Rx,0,8,00,00,00,01,10,04,00,00,
218000622,0CFE6CEE,true,Rx,0,8,38,0F,7F,C0,00,00,00,00,
419378465,18FF3521,true,Rx,0,8,00,00,00,01,10,04,00,00,
419378721,18FF3621,true,Rx,0,8,00,00,00,01,04,00,04,00,
218000622,0CFE6CEE,true,Rx,0,8,38,0F,7F,C0,00,00,00,00,
419379489,18FF3921,true,Rx,0,8,00,00,00,00,00,00,FF,FF,
418324759,18EF2117,true,Rx,0,8,01,F7,FF,FF,FF,FF,FF,FF,
419378465,18FF3521,true,Rx,0,8,00,00,00,01,10,04,00,00,
419378721,18FF3621,true,Rx,0,8,00,00,00,01,04,00,04,00,
217056256,0CF00400,true,Rx,0,8,40,7D,82,76,19,00,07,82,
419377431,18FF3117,true,Rx,0,8,00,00,01,01,00,66,00,05,
418324759,18EF2117,true,Rx,0,8,01,F7,FF,FF,FF,FF,FF,FF,
418322209,18EF1721,true,Rx,0,8,01,02,FF,FF,FF,FF,FF,FF,
218000622,0CFE6CEE,true,Rx,0,8,38,0F,7F,C0,00,00,00,00,
217056256,0CF00400,true,Rx,0,8,50,7D,84,1E,19,00,07,84,
218000622,0CFE6CEE,true,Rx,0,8,38,0F,7F,C0,00,00,00,00,
419377697,18FF3221,true,Rx,0,8,F4,FF,FF,FF,FF,FF,02,FA,
418322209,18EF1721,true,Rx,0,8,01,02,FF,FF,FF,FF,FF,FF,
218000622,0CFE6CEE,true,Rx,0,8,38,0F,7F,C0,00,00,00,00,
419348974,18FEC1EE,true,Rx,0,8,3E,59,0B,00,68,30,00,00,
418322209,18EF1721,true,Rx,0,8,01,02,FF,FF,FF,FF,FF,FF,
419378465,18FF3521,true,Rx,0,8,00,00,00,01,10,04,00,00,
419378721,18FF3621,true,Rx,0,8,00,00,00,01,04,00,04,00,
419378209,18FF3421,true,Rx,0,8,1D,03,68,1A,FF,FF,FF,FF,
419378465,18FF3521,true,Rx,0,8,00,00,00,01,10,04,00,00,
218000622,0CFE6CEE,true,Rx,0,8,38,0F,7F,C0,00,00,00,00,
419378465,18FF3521,true,Rx,0,8,00,00,00,01,10,04,00,00,
419378721,18FF3621,true,Rx,0,8,00,00,00,01,04,00,04,00,
217056256,0CF00400,true,Rx,0,8,00,7D,85,E5,18,00,07,85,
419378465,18FF3521,true,Rx,0,8,00,00,00,01,10,04,00,00,
418324759,18EF2117,true,Rx,0,8,01,F7,FF,FF,FF,FF,FF,FF,
419377431,18FF3117,true,Rx,0,8,00,00,01,01,00,66,00,05,
418322209,18EF1721,true,Rx,0,8,10,0D,10,02,00,0F,23,60,
217056256,0CF00400,true,Rx,0,8,20,7D,84,F8,18,00,07,84,
419377697,18FF3221,true,Rx,0,8,F4,FF,FF,FF,FF,FF,02,FA,
217056256,0CF00400,true,Rx,0,8,10,7D,84,F2,18,00,07,84,
418322209,18EF1721,true,Rx,0,8,10,0D,10,02,00,0F,23,60,
418324759,18EF2117,true,Rx,0,8,30,00,14,FF,FF,FF,FF,FF,
418322209,18EF1721,true,Rx,0,8,21,15,00,28,00,02,20,00,
218000622,0CFE6CEE,true,Rx,0,8,38,0F,7F,C0,00,00,00,00,
484371991,1CDEEE17,true,Rx,0,8,FF,FF,FF,FF,FF,FF,FF,FF,
418322209,18EF1721,true,Rx,0,8,10,0D,10,02,00,0F,23,60,
418324759,18EF2117,true,Rx,0,8,30,00,14,FF,FF,FF,FF,FF,
419378465,18FF3521,true,Rx,0,8,00,00,00,01,10,04,00,00,
218000622,0CFE6CEE,true,Rx,0,8,38,0F,7F,C0,00,00,00,00,
419378465,18FF3521,true,Rx,0,8,00,00,00,01,10,04,00,00,
419378721,18FF3621,true,Rx,0,8,00,00,00,01,04,00,04,00,
419379489,18FF3921,true,Rx,0,8,00,00,00,00,00,00,FF,FF,
419378465,18FF3521,true,Rx,0,8,00,00,00,01,10,04,00,00,
217056256,0CF00400,true,Rx,0,8,00,7D,85,AA,18,00,07,85,
419377431,18FF3117,true,Rx,0,8,00,00,01,01,00,66,00,05,
418324759,18EF2117,true,Rx,0,8,01,F7,FF,FF,FF,FF,FF,FF,
217056256,0CF00400,true,Rx,0,8,00,7D,85,AB,18,00,07,85,
418322209,18EF1721,true,Rx,0,8,01,02,FF,FF,FF,FF,FF,FF,
217056256,0CF00400,true,Rx,0,8,70,7D,84,A4,18,00,07,85,
218000622,0CFE6CEE,true,Rx,0,8,38,0F,7F,C0,00,00,00,00,
217056256,0CF00400,true,Rx,0,8,00,7D,85,A3,18,00,07,85,
419378465,18FF3521,true,Rx,0,8,00,00,00,01,10,04,00,00,
419377697,18FF3221,true,Rx,0,8,F4,FF,FF,FF,FF,FF,02,FA,
419378465,18FF3521,true,Rx,0,8,00,00,00,01,10,04,00,00,
418322209,18EF1721,true,Rx,0,8,01,02,FF,FF,FF,FF,FF,FF,
218000622,0CFE6CEE,true,Rx,0,8,38,0F,7F,C0,00,00,00,00,
419378465,18FF3521,true,Rx,0,8,00,00,00,01,10,04,00,00,
218000622,0CFE6CEE,true,Rx,0,8,38,0F,7F,C0,00,00,00,00,
419379233,18FF3821,true,Rx,0,8,FC,00,00,00,00,00,00,FF,
218000622,0CFE6CEE,true,Rx,0,8,38,0F,7F,C0,00,00,00,00,
217056256,0CF00400,true,Rx,0,8,00,7D,85,8C,18,00,07,85,
419378465,18FF3521,true,Rx,0,8,00,00,00,01,10,04,00,00,
217056256,0CF00400,true,Rx,0,8,70,7D,84,88,18,00,07,85,
419378465,18FF3521,true,Rx,0,8,00,00,00,01,10,04,00,00,
418324759,18EF2117,true,Rx,0,8,01,F7,FF,FF,FF,FF,FF,FF,
217056256,0CF00400,true,Rx,0,8,70,7D,84,85,18,00,07,85,
419377431,18FF3117,true,Rx,0,8,00,00,01,01,00,66,00,05,
217056256,0CF00400,true,Rx,0,8,00,7D,85,77,18,00,07,85,
218000622,0CFE6CEE,true,Rx,0,8,38,0F,7F,C0,00,00,00,00,
217056256,0CF00400,true,Rx,0,8,00,7D,85,73,18,00,07,85,
419377697,18FF3221,true,Rx,0,8,F4,FF,FF,FF,FF,FF,02,FA,
418322209,18EF1721,true,Rx,0,8,01,02,FF,FF,FF,FF,FF,FF,
419378465,18FF3521,true,Rx,0,8,00,00,00,01,10,04,00,00,
418322209,18EF1721,true,Rx,0,8,01,02,FF,FF,FF,FF,FF,FF,
218000622,0CFE6CEE,true,Rx,0,8,38,0F,7F,C0,00,00,00,00,
419378465,18FF3521,true,Rx,0,8,00,00,00,01,10,04,00,00,
418322209,18EF1721,true,Rx,0,8,01,02,FF,FF,FF,FF,FF,FF,
419378465,18FF3521,true,Rx,0,8,00,00,00,01,10,04,00,00,
218000622,0CFE6CEE,true,Rx,0,8,38,0F,7F,C0,00,00,00,00,
217056256,0CF00400,true,Rx,0,8,50,7D,85,5F,18,00,07,85,
419378465,18FF3521,true,Rx,0,8,00,00,00,01,10,04,00,00,
217056256,0CF00400,true,Rx,0,8,50,7D,85,64,18,00,07,85,
419378465,18FF3521,true,Rx,0,8,00,00,00,01,10,04,00,00,
217056256,0CF00400,true,Rx,0,8,20,7D,85,64,18,00,07,85,
419378465,18FF3521,true,Rx,0,8,00,00,00,01,10,04,00,00,
419377431,18FF3117,true,Rx,0,8,00,00,01,01,00,66,00,05,
217056256,0CF00400,true,Rx,0,8,50,7D,85,60,18,00,07,85,
419377697,18FF3221,true,Rx,0,8,F4,FF,FF,FF,FF,FF,02,FA,
418324759,18EF2117,true,Rx,0,8,01,F7,FF,FF,FF,FF,FF,FF,
217056256,0CF00400,true,Rx,0,8,20,7D,85,68,18,00,07,85,
418322209,18EF1721,true,Rx,0,8,01,02,FF,FF,FF,FF,FF,FF,
419378465,18FF3521,true,Rx,0,8,00,00,00,01,10,04,00,00,
218000622,0CFE6CEE,true,Rx,0,8,38,0F,7F,C0,00,00,00,00,
419377697,18FF3221,true,Rx,0,8,F4,FF,FF,FF,FF,FF,02,FA,
419377953,18FF3321,true,Rx,0,8,DD,22,EF,05,EC,15,F3,15,
418322209,18EF1721,true,Rx,0,8,01,02,FF,FF,FF,FF,FF,FF,
419378465,18FF3521,true,Rx,0,8,00,00,00,01,10,04,00,00,
218000622,0CFE6CEE,true,Rx,0,8,38,0F,7F,C0,00,00,00,00,
418324759,18EF2117,true,Rx,0,8,01,F7,FF,FF,FF,FF,FF,FF,
419378465,18FF3521,true,Rx,0,8,00,00,00,01,10,04,00,00,
218000622,0CFE6CEE,true,Rx,0,8,38,0F,7F,C0,00,00,00,00,
419378465,18FF3521,true,Rx,0,8,00,00,00,01,10,04,00,00,
217056256,0CF00400,true,Rx,0,8,60,7D,84,70,18,00,07,85,
419378465,18FF3521,true,Rx,0,8,00,00,00,01,10,04,00,00,
419378721,18FF3621,true,Rx,0,8,00,00,00,01,04,00,04,00,
217056256,0CF00400,true,Rx,0,8,70,7D,84,6E,18,00,07,85,
419377431,18FF3117,true,Rx,0,8,00,00,01,01,00,66,00,05,
217056256,0CF00400,true,Rx,0,8,70,7D,84,6A,18,00,07,85,
419378465,18FF3521,true,Rx,0,8,00,00,00,01,10,04,00,00,
218000622,0CFE6CEE,true,Rx,0,8,38,0F,7F,C0,00,00,00,00,
217056256,0CF00400,true,Rx,0,8,70,7D,84,68,18,00,07,85,
419377697,18FF3221,true,Rx,0,8,F4,FF,FF,FF,FF,FF,02,FA,
419378465,18FF3521,true,Rx,0,8,00,00,00,01,10,04,00,00,
419378721,18FF3621,true,Rx,0,8,00,00,00,01,04,00,04,00,
418322209,18EF1721,true,Rx,0,8,01,02,FF,FF,FF,FF,FF,FF,
419378465,18FF3521,true,Rx,0,8,00,00,00,01,10,04,00,00,
218000622,0CFE6CEE,true,Rx,0,8,38,0F,7F,C0,00,00,00,00,
419377953,18FF3321,true,Rx,0,8,EB,22,EF,05,0F,16,F3,15,
419378209,18FF3421,true,Rx,0,8,0B,03,68,1A,FF,FF,FF,FF,
218000622,0CFE6CEE,true,Rx,0,8,38,0F,7F,C0,00,00,00,00,
419378465,18FF3521,true,Rx,0,8,00,00,00,01,10,04,00,00,
217056256,0CF00400,true,Rx,0,8,10,7D,85,58,18,00,07,85,
419378465,18FF3521,true,Rx,0,8,00,00,00,01,10,04,00,00,
419378721,18FF3621,true,Rx,0,8,00,00,00,01,04,00,04,00,
217056256,0CF00400,true,Rx,0,8,10,7D,85,58,18,00,07,85,
419378721,18FF3621,true,Rx,0,8,00,00,00,01,04,00,04,00,
217056256,0CF00400,true,Rx,0,8,10,7D,85,54,18,00,07,85,
419378465,18FF3521,true,Rx,0,8,00,00,00,01,10,04,00,00,
418324759,18EF2117,true,Rx,0,8,01,F7,FF,FF,FF,FF,FF,FF,
217056256,0CF00400,true,Rx,0,8,10,7D,85,52,18,00,07,85,
418322209,18EF1721,true,Rx,0,8,01,02,FF,FF,FF,FF,FF,FF,
419348974,18FEC1EE,true,Rx,0,8,3E,59,0B,00,68,30,00,00,
419378465,18FF3521,true,Rx,0,8,00,00,00,01,10,04,00,00,
418322209,18EF1721,true,Rx,0,8,01,02,FF,FF,FF,FF,FF,FF,
419378465,18FF3521,true,Rx,0,8,00,00,00,01,10,04,00,00,
419377697,18FF3221,true,Rx,0,8,F4,FF,FF,FF,FF,FF,02,FA,
419378465,18FF3521,true,Rx,0,8,00,00,00,01,10,04,00,00,
419378721,18FF3621,true,Rx,0,8,00,00,00,01,04,00,04,00,
218000622,0CFE6CEE,true,Rx,0,8,38,0F,7F,C0,00,00,00,00,
419358446,18FEE6EE,true,Rx,0,8,E4,2F,0D,05,6B,27,7D,7A,
218000622,0CFE6CEE,true,Rx,0,8,38,0F,7F,C0,00,00,00,00,
419379489,18FF3921,true,Rx,0,8,00,00,00,00,00,00,FF,FF,
419378465,18FF3521,true,Rx,0,8,00,00,00,01,10,04,00,00,
217056256,0CF00400,true,Rx,0,8,20,7D,85,3F,18,00,07,85,
419378465,18FF3521,true,Rx,0,8,00,00,00,01,10,04,00,00,
217056256,0CF00400,true,Rx,0,8,20,7D,85,3C,18,00,07,85,
419377431,18FF3117,true,Rx,0,8,00,00,01,01,00,66,00,05,
419377697,18FF3221,true,Rx,0,8,F4,FF,FF,FF,FF,FF,02,FA,
217056256,0CF00400,true,Rx,0,8,20,7D,85,39,18,00,07,85,
418322209,18EF1721,true,Rx,0,8,24,30,35,2E,32,34,00,FF,
217056256,0CF00400,true,Rx,0,8,30,7D,85,33,18,00,07,85,
419378465,18FF3521,true,Rx,0,8,00,00,00,01,10,04,00,00,
218000622,0CFE6CEE,true,Rx,0,8,38,0F,7F,C0,00,00,00,00,
484371991,1CDEEE17,true,Rx,0,8,FF,FF,FF,FF,FF,FF,FF,FF,
418322209,18EF1721,true,Rx,0,8,10,0D,10,02,00,0F,23,60,
418322209,18EF1721,true,Rx,0,8,21,15,00,28,00,02,20,00,
419378465,18FF3521,true,Rx,0,8,00,00,00,01,10,04,00,00,
218000622,0CFE6CEE,true,Rx,0,8,38,0F,7F,C0,00,00,00,00,
419378465,18FF3521,true,Rx,0,8,00,00,00,01,10,04,00,00,
419377953,18FF3321,true,Rx,0,8,24,23,EF,05,0F,16,F3,15,
419378465,18FF3521,true,Rx,0,8,00,00,00,01,10,04,00,00,
419378721,18FF3621,true,Rx,0,8,00,00,00,01,04,00,04,00,
418324759,18EF2117,true,Rx,0,8,01,F7,FF,FF,FF,FF,FF,FF,
419378465,18FF3521,true,Rx,0,8,00,00,00,01,10,04,00,00,
217056256,0CF00400,true,Rx,0,8,10,7D,85,35,18,00,07,85,
419378465,18FF3521,true,Rx,0,8,00,00,00,01,10,04,00,00,
419378721,18FF3621,true,Rx,0,8,00,00,00,01,04,00,04,00,
217056256,0CF00400,true,Rx,0,8,10,7D,85,2C,18,00,07,85,
418324759,18EF2117,true,Rx,0,8,01,F7,FF,FF,FF,FF,FF,FF,
217056256,0CF00400,true,Rx,0,8,30,7D,85,2B,18,00,07,85,
419377697,18FF3221,true,Rx,0,8,F4,FF,FF,FF,FF,FF,02,FA,
418322209,18EF1721,true,Rx,0,8,01,02,FF,FF,FF,FF,FF,FF,
217056256,0CF00400,true,Rx,0,8,20,7D,85,2E,18,00,07,85,
218000622,0CFE6CEE,true,Rx,0,8,38,0F,7F,C0,00,00,00,00,
419378465,18FF3521,true,Rx,0,8,00,00,00,01,10,04,00,00,
418322209,18EF1721,true,Rx,0,8,01,02,FF,FF,FF,FF,FF,FF,
218000622,0CFE6CEE,true,Rx,0,8,38,0F,7F,C0,00,00,00,00,
419377697,18FF3221,true,Rx,0,8,F4,FF,FF,FF,FF,FF,02,FA,
218000622,0CFE6CEE,true,Rx,0,8,38,0F,7F,C0,00,00,00,00,
419378465,18FF3521,true,Rx,0,8,00,00,00,01,10,04,00,00,
419378721,18FF3621,true,Rx,0,8,00,00,00,01,04,00,04,00,
218000622,0CFE6CEE,true,Rx,0,8,38,0F,7F,C0,00,00,00,00,
419378465,18FF3521,true,Rx,0,8,00,00,00,01,10,04,00,00,
419379233,18FF3821,true,Rx,0,8,FC,00,00,00,00,00,00,FF,
419378465,18FF3521,true,Rx,0,8,00,00,00,01,10,04,00,00,
419378721,18FF3621,true,Rx,0,8,00,00,00,01,04,00,04,00,
418324759,18EF2117,true,Rx,0,8,01,F7,FF,FF,FF,FF,FF,FF,
419377431,18FF3117,true,Rx,0,8,00,00,01,01,00,66,00,05,
217056256,0CF00400,true,Rx,0,8,30,7D,85,1D,18,00,07,85,
418324759,18EF2117,true,Rx,0,8,01,F7,FF,FF,FF,FF,FF,FF,
218000622,0CFE6CEE,true,Rx,0,8,38,0F,7F,C0,00,00,00,00,
217056256,0CF00400,true,Rx,0,8,20,7D,85,1C,18,00,07,85,
418322209,18EF1721,true,Rx,0,8,01,02,FF,FF,FF,FF,FF,FF,
419378465,18FF3521,true,Rx,0,8,00,00,00,01,10,04,00,00,
419377697,18FF3221,true,Rx,0,8,F4,FF,FF,FF,FF,FF,02,FA,
419377953,18FF3321,true,Rx,0,8,68,23,EF,05,FE,15,F3,15,
419378465,18FF3521,true,Rx,0,8,00,00,00,01,10,04,00,00,
418322209,18EF1721,true,Rx,0,8,01,02,FF,FF,FF,FF,FF,FF,
419378465,18FF3521,true,Rx,0,8,00,00,00,01,10,04,00,00,
218000622,0CFE6CEE,true,Rx,0,8,38,0F,7F,C0,00,00,00,00,
217056256,0CF00400,true,Rx,0,8,20,7D,85,18,18,00,07,85,
419379233,18FF3821,true,Rx,0,8,FC,00,00,00,00,00,00,FF,
218000622,0CFE6CEE,true,Rx,0,8,38,0F,7F,C0,00,00,00,00,
419378465,18FF3521,true,Rx,0,8,00,00,00,01,10,04,00,00,
217056256,0CF00400,true,Rx,0,8,30,7D,85,0D,18,00,07,85,
419378465,18FF3521,true,Rx,0,8,00,00,00,01,10,04,00,00,
419378721,18FF3621,true,Rx,0,8,00,00,00,01,04,00,04,00,
217056256,0CF00400,true,Rx,0,8,30,7D,85,10,18,00,07,85,
419377431,18FF3117,true,Rx,0,8,00,00,01,01,00,66,00,05,
418322209,18EF1721,true,Rx,0,8,01,02,FF,FF,FF,FF,FF,FF,
217056256,0CF00400,true,Rx,0,8,20,7D,85,14,18,00,07,85,
418322209,18EF1721,true,Rx,0,8,01,02,FF,FF,FF,FF,FF,FF,
217056256,0CF00400,true,Rx,0,8,10,7D,85,14,18,00,07,85,
218000622,0CFE6CEE,true,Rx,0,8,38,0F,7F,C0,00,00,00,00,
418324759,18EF2117,true,Rx,0,8,01,F7,FF,FF,FF,FF,FF,FF,
419378465,18FF3521,true,Rx,0,8,00,00,00,01,10,04,00,00,
418322209,18EF1721,true,Rx,0,8,01,02,FF,FF,FF,FF,FF,FF,
419378465,18FF3521,true,Rx,0,8,00,00,00,01,10,04,00,00,
419377697,18FF3221,true,Rx,0,8,F4,FF,FF,FF,FF,FF,02,FA,
419377953,18FF3321,true,Rx,0,8,15,23,EF,05,20,16,F3,15,
419378465,18FF3521,true,Rx,0,8,00,00,00,01,10,04,00,00,
218000622,0CFE6CEE,true,Rx,0,8,38,0F,7F,C0,00,00,00,00,
419378465,18FF3521,true,Rx,0,8,00,00,00,01,10,04,00,00,
217056256,0CF00400,true,Rx,0,8,30,7D,85,FF,17,00,07,85,
419377697,18FF3221,true,Rx,0,8,F4,FF,FF,FF,FF,FF,02,FA,
419378465,18FF3521,true,Rx,0,8,00,00,00,01,10,04,00,00,
418324759,18EF2117,true,Rx,0,8,01,F7,FF,FF,FF,FF,FF,FF,
419378721,18FF3621,true,Rx,0,8,00,00,00,01,04,00,04,00,
217056256,0CF00400,true,Rx,0,8,20,7D,85,05,18,00,07,85,
419378465,18FF3521,true,Rx,0,8,00,00,00,01,10,04,00,00,
418324759,18EF2117,true,Rx,0,8,01,F7,FF,FF,FF,FF,FF,FF,
217056256,0CF00400,true,Rx,0,8,20,7D,85,03,18,00,07,85,
418322209,18EF1721,true,Rx,0,8,01,02,FF,FF,FF,FF,FF,FF,
419378465,18FF3521,true,Rx,0,8,00,00,00,01,10,04,00,00,
419378721,18FF3621,true,Rx,0,8,00,00,00,01,04,00,04,00,
418322209,18EF1721,true,Rx,0,8,01,02,FF,FF,FF,FF,FF,FF,
419377697,18FF3221,true,Rx,0,8,F4,FF,FF,FF,FF,FF,02,FA,
218000622,0CFE6CEE,true,Rx,0,8,38,0F,7F,C0,00,00,00,00,
418324759,18EF2117,true,Rx,0,8,01,F7,FF,FF,FF,FF,FF,FF,
419378465,18FF3521,true,Rx,0,8,00,00,00,01,10,04,00,00,
218000622,0CFE6CEE,true,Rx,0,8,38,0F,7F,C0,00,00,00,00,
419378465,18FF3521,true,Rx,0,8,00,00,00,01,10,04,00,00,
419379233,18FF3821,true,Rx,0,8,FC,00,00,00,00,00,00,FF,
218000622,0CFE6CEE,true,Rx,0,8,38,0F,7F,C0,00,00,00,00,
419378465,18FF3521,true,Rx,0,8,00,00,00,01,10,04,00,00,
217056256,0CF00400,true,Rx,0,8,40,7D,85,F5,17,00,07,85,
419378465,18FF3521,true,Rx,0,8,00,00,00,01,10,04,00,00,
217056256,0CF00400,true,Rx,0,8,30,7D,85,F9,17,00,07,85,
419377697,18FF3221,true,Rx,0,8,F4,FF,FF,FF,FF,FF,02,FA,
419377431,18FF3117,true,Rx,0,8,00,00,01,01,00,66,00,05,
418324759,18EF2117,true,Rx,0,8,01,F7,FF,FF,FF,FF,FF,FF,
418322209,18EF1721,true,Rx,0,8,01,02,FF,FF,FF,FF,FF,FF,
217056256,0CF00400,true,Rx,0,8,30,7D,85,F5,17,00,07,85,
419378465,18FF3521,true,Rx,0,8,00,00,00,01,10,04,00,00,
419377697,18FF3221,true,Rx,0,8,F4,FF,FF,FF,FF,FF,02,FA,
419378465,18FF3521,true,Rx,0,8,00,00,00,01,10,04,00,00,
418322209,18EF1721,true,Rx,0,8,01,02,FF,FF,FF,FF,FF,FF,
419358446,18FEE6EE,true,Rx,0,8,E8,2F,0D,05,6B,27,7D,7A,
419378465,18FF3521,true,Rx,0,8,00,00,00,01,10,04,00,00,
418322209,18EF1721,true,Rx,0,8,01,02,FF,FF,FF,FF,FF,FF,
419377953,18FF3321,true,Rx,0,8,3E,23,EF,05,20,16,F3,15,
218000622,0CFE6CEE,true,Rx,0,8,38,0F,7F,C0,00,00,00,00,
419351278,18FECAEE,true,Rx,0,8,00,FF,00,00,00,00,FF,FF,
419378465,18FF3521,true,Rx,0,8,00,00,00,01,10,04,00,00,
217056256,0CF00400,true,Rx,0,8,20,7D,85,F5,17,00,07,85,
419378465,18FF3521,true,Rx,0,8,00,00,00,01,10,04,00,00,
419379233,18FF3821,true,Rx,0,8,FC,00,00,00,00,00,00,FF,
419379489,18FF3921,true,Rx,0,8,00,00,00,00,00,00,FF,FF,
419378721,18FF3621,true,Rx,0,8,00,00,00,01,04,00,04,00,
217056256,0CF00400,true,Rx,0,8,10,7D,85,F4,17,00,07,85,
419377431,18FF3117,true,Rx,0,8,00,00,01,01,00,66,00,05,
217056256,0CF00400,true,Rx,0,8,20,7D,85,F3,17,00,07,85,
484371991,1CDEEE17,true,Rx,0,8,FF,FF,FF,FF,FF,FF,FF,FF,
418322209,18EF1721,true,Rx,0,8,10,0D,10,02,00,0F,23,60,
418322209,18EF1721,true,Rx,0,8,21,15,00,28,00,02,20,00,
218000622,0CFE6CEE,true,Rx,0,8,38,0F,7F,C0,00,00,00,00,
419378465,18FF3521,true,Rx,0,8,00,00,00,01,10,04,00,00,
419378721,18FF3621,true,Rx,0,8,00,00,00,01,04,00,04,00,
419377697,18FF3221,true,Rx,0,8,F4,FF,FF,FF,FF,FF,02,FA,
418322209,18EF1721,true,Rx,0,8,21,15,00,28,00,02,20,00,
218000622,0CFE6CEE,true,Rx,0,8,38,0F,7F,C0,00,00,00,00,
419378465,18FF3521,true,Rx,0,8,00,00,00,01,10,04,00,00,
419378721,18FF3621,true,Rx,0,8,00,00,00,01,04,00,04,00,
218000622,0CFE6CEE,true,Rx,0,8,38,0F,7F,C0,00,00,00,00,
419379489,18FF3921,true,Rx,0,8,00,00,00,00,00,00,FF,FF,
217056256,0CF00400,true,Rx,0,8,20,7D,85,EA,17,00,07,85,
419378465,18FF3521,true,Rx,0,8,00,00,00,01,10,04,00,00,
419378721,18FF3621,true,Rx,0,8,00,00,00,01,04,00,04,00,
217056256,0CF00400,true,Rx,0,8,20,7D,85,E4,17,00,07,85,
419377431,18FF3117,true,Rx,0,8,00,00,01,01,00,66,00,05,
217056256,0CF00400,true,Rx,0,8,20,7D,85,E8,17,00,07,85,
418322209,18EF1721,true,Rx,0,8,01,02,FF,FF,FF,FF,FF,FF,
218000622,0CFE6CEE,true,Rx,0,8,38,0F,7F,C0,00,00,00,00,
217056256,0CF00400,true,Rx,0,8,20,7D,85,E7,17,00,07,85,
218000622,0CFE6CEE,true,Rx,0,8,38,0F,7F,C0,00,00,00,00,
419377697,18FF3221,true,Rx,0,8,F4,FF,FF,FF,FF,FF,02,FA,
419377953,18FF3321,true,Rx,0,8,2F,23,EF,05,20,16,F3,15,
418322209,18EF1721,true,Rx,0,8,01,02,FF,FF,FF,FF,FF,FF,
419378465,18FF3521,true,Rx,0,8,00,00,00,01,10,04,00,00,
418322209,18EF1721,true,Rx,0,8,01,02,FF,FF,FF,FF,FF,FF,
419378465,18FF3521,true,Rx,0,8,00,00,00,01,10,04,00,00,
419378721,18FF3621,true,Rx,0,8,00,00,00,01,04,00,04,00,
419377953,18FF3321,true,Rx,0,8,2F,23,EF,05,20,16,F3,15,
419378465,18FF3521,true,Rx,0,8,00,00,00,01,10,04,00,00,
218000622,0CFE6CEE,true,Rx,0,8,38,0F,7F,C0,00,00,00,00,
419378465,18FF3521,true,Rx,0,8,00,00,00,01,10,04,00,00,
419378721,18FF3621,true,Rx,0,8,00,00,00,01,04,00,04,00,
217056256,0CF00400,true,Rx,0,8,20,7D,85,DE,17,00,07,85,
419378465,18FF3521,true,Rx,0,8,00,00,00,01,10,04,00,00,
418324759,18EF2117,true,Rx,0,8,01,F7,FF,FF,FF,FF,FF,FF,
419377431,18FF3117,true,Rx,0,8,00,00,01,01,00,66,00,05,
418322209,18EF1721,true,Rx,0,8,01,02,FF,FF,FF,FF,FF,FF,
217056256,0CF00400,true,Rx,0,8,20,7D,85,E0,17,00,07,85,
419377697,18FF3221,true,Rx,0,8,F4,FF,FF,FF,FF,FF,02,FA,
217056256,0CF00400,true,Rx,0,8,20,7D,85,DF,17,00,07,85,
418322209,18EF1721,true,Rx,0,8,01,02,FF,FF,FF,FF,FF,FF,
218000622,0CFE6CEE,true,Rx,0,8,38,0F,7F,C0,00,00,00,00,
419378465,18FF3521,true,Rx,0,8,00,00,00,01,10,04,00,00,
218000622,0CFE6CEE,true,Rx,0,8,38,0F,7F,C0,00,00,00,00,
419377697,18FF3221,true,Rx,0,8,F4,FF,FF,FF,FF,FF,02,FA,
418322209,18EF1721,true,Rx,0,8,01,02,FF,FF,FF,FF,FF,FF,
218000622,0CFE6CEE,true,Rx,0,8,38,0F,7F,C0,00,00,00,00,
419378465,18FF3521,true,Rx,0,8,00,00,00,01,10,04,00,00,
218000622,0CFE6CEE,true,Rx,0,8,38,0F,7F,C0,00,00,00,00,
419378465,18FF3521,true,Rx,0,8,00,00,00,01,10,04,00,00,
419378721,18FF3621,true,Rx,0,8,00,00,00,01,04,00,04,00,
218000622,0CFE6CEE,true,Rx,0,8,38,0F,7F,C0,00,00,00,00,
419378465,18FF3521,true,Rx,0,8,00,00,00,01,10,04,00,00,
217056256,0CF00400,true,Rx,0,8,20,7D,85,D9,17,00,07,85,
419378721,18FF3621,true,Rx,0,8,00,00,00,01,04,00,04,00,
419377431,18FF3117,true,Rx,0,8,00,00,01,01,00,66,00,05,
418324759,18EF2117,true,Rx,0,8,01,F7,FF,FF,FF,FF,FF,FF,
418322209,18EF1721,true,Rx,0,8,01,02,FF,FF,FF,FF,FF,FF,
217056256,0CF00400,true,Rx,0,8,20,7D,85,D6,17,00,07,85,
418322209,18EF1721,true,Rx,0,8,01,02,FF,FF,FF,FF,FF,FF,
218000622,0CFE6CEE,true,Rx,0,8,38,0F,7F,C0,00,00,00,00,
419378465,18FF3521,true,Rx,0,8,00,00,00,01,10,04,00,00,
419377697,18FF3221,true,Rx,0,8,F4,FF,FF,FF,FF,FF,02,FA,
419378465,18FF3521,true,Rx,0,8,00,00,00,01,10,04,00,00,
418322209,18EF1721,true,Rx,0,8,01,02,FF,FF,FF,FF,FF,FF,
218000622,0CFE6CEE,true,Rx,0,8,38,0F,7F,C0,00,00,00,00,
419378465,18FF3521,true,Rx,0,8,00,00,00,01,10,04,00,00,
218000622,0CFE6CEE,true,Rx,0,8,38,0F,7F,C0,00,00,00,00,
419378209,18FF3421,true,Rx,0,8,FA,02,68,1A,FF,FF,FF,FF,
218000622,0CFE6CEE,true,Rx,0,8,38,0F,7F,C0,00,00,00,00,
217056256,0CF00400,true,Rx,0,8,20,7D,85,CF,17,00,07,85,
419378465,18FF3521,true,Rx,0,8,00,00,00,01,10,04,00,00,
217056256,0CF00400,true,Rx,0,8,20,7D,85,D2,17,00,07,85,
419378465,18FF3521,true,Rx,0,8,00,00,00,01,10,04,00,00,
217056256,0CF00400,true,Rx,0,8,20,7D,85,D1,17,00,07,85,
419378465,18FF3521,true,Rx,0,8,00,00,00,01,10,04,00,00,
419377431,18FF3117,true,Rx,0,8,00,00,01,01,00,66,00,05,
217056256,0CF00400,true,Rx,0,8,20,7D,85,CD,17,00,07,85,
218000622,0CFE6CEE,true,Rx,0,8,38,0F,7F,C0,00,00,00,00,
217056256,0CF00400,true,Rx,0,8,30,7D,85,C4,17,00,07,85,
419377697,18FF3221,true,Rx,0,8,F4,FF,FF,FF,FF,FF,02,FA,
418322209,18EF1721,true,Rx,0,8,01,02,FF,FF,FF,FF,FF,FF,
419378465,18FF3521,true,Rx,0,8,00,00,00,01,10,04,00,00,
218000622,0CFE6CEE,true,Rx,0,8,38,0F,7F,C0,00,00,00,00,
217056256,0CF00400,true,Rx,0,8,20,7D,85,CE,17,00,07,85,
419378465,18FF3521,true,Rx,0,8,00,00,00,01,10,04,00,00,
419377697,18FF3221,true,Rx,0,8,F4,FF,FF,FF,FF,FF,02,FA,
419378465,18FF3521,true,Rx,0,8,00,00,00,01,10,04,00,00,
218000622,0CFE6CEE,true,Rx,0,8,38,0F,7F,C0,00,00,00,00,
217056256,0CF00400,true,Rx,0,8,20,7D,85,CC,17,00,07,85,
419378465,18FF3521,true,Rx,0,8,00,00,00,01,10,04,00,00,
218000622,0CFE6CEE,true,Rx,0,8,38,0F,7F,C0,00,00,00,00,
419378465,18FF3521,true,Rx,0,8,00,00,00,01,10,04,00,00,
418324759,18EF2117,true,Rx,0,8,01,F7,FF,FF,FF,FF,FF,FF,
217056256,0CF00400,true,Rx,0,8,20,7D,85,CB,17,00,07,85,
419378721,18FF3621,true,Rx,0,8,00,00,00,01,04,00,04,00,
418324759,18EF2117,true,Rx,0,8,01,F7,FF,FF,FF,FF,FF,FF,
419377431,18FF3117,true,Rx,0,8,00,00,01,01,00,66,00,05,
217056256,0CF00400,true,Rx,0,8,40,7D,85,BC,17,00,07,85,
419378465,18FF3521,true,Rx,0,8,00,00,00,01,10,04,00,00,
418322209,18EF1721,true,Rx,0,8,01,02,FF,FF,FF,FF,FF,FF,
217056256,0CF00400,true,Rx,0,8,30,7D,85,C2,17,00,07,85,
418322209,18EF1721,true,Rx,0,8,01,02,FF,FF,FF,FF,FF,FF,
419377697,18FF3221,true,Rx,0,8,F4,FF,FF,FF,FF,FF,02,FA,
419377953,18FF3321,true,Rx,0,8,5A,23,EF,05,32,16,F3,15,
418322209,18EF1721,true,Rx,0,8,01,02,FF,FF,FF,FF,FF,FF,
419351278,18FECAEE,true,Rx,0,8,00,FF,00,00,00,00,FF,FF,
218000622,0CFE6CEE,true,Rx,0,8,38,0F,7F,C0,00,00,00,00,
217056256,0CF00400,true,Rx,0,8,20,7D,85,C5,17,00,07,85,
419378465,18FF3521,true,Rx,0,8,00,00,00,01,10,04,00,00,
419378209,18FF3421,true,Rx,0,8,F8,02,68,1A,FF,FF,FF,FF,
419378465,18FF3521,true,Rx,0,8,00,00,00,01,10,04,00,00,
217056256,0CF00400,true,Rx,0,8,10,7D,85,C9,17,00,07,85,
419378465,18FF3521,true,Rx,0,8,00,00,00,01,10,04,00,00,
419378721,18FF3621,true,Rx,0,8,00,00,00,01,04,00,04,00,
418324759,18EF2117,true,Rx,0,8,01,F7,FF,FF,FF,FF,FF,FF,
419378721,18FF3621,true,Rx,0,8,00,00,00,01,04,00,04,00,
217056256,0CF00400,true,Rx,0,8,30,7D,85,BF,17,00,07,85,
418322209,18EF1721,true,Rx,0,8,21,01,00,28,00,06,31,30,
418322209,18EF1721,true,Rx,0,8,22,3A,34,37,00,23,60,02,
217056256,0CF00400,true,Rx,0,8,20,7D,85,C2,17,00,07,85,
419377697,18FF3221,true,Rx,0,8,F4,FF,FF,FF,FF,FF,02,FA,
217056256,0CF00400,true,Rx,0,8,20,7D,85,C4,17,00,07,85,
419378465,18FF3521,true,Rx,0,8,00,00,00,01,10,04,00,00,
418322209,18EF1721,true,Rx,0,8,10,0D,10,02,00,0F,23,60,
418322209,18EF1721,true,Rx,0,8,21,15,00,28,00,02,20,00,
218000622,0CFE6CEE,true,Rx,0,8,38,0F,7F,C0,00,00,00,00,
419377697,18FF3221,true,Rx,0,8,F4,FF,FF,FF,FF,FF,02,FA,
419377953,18FF3321,true,Rx,0,8,CF,22,EF,05,43,16,F3,15,
418324759,18EF2117,true,Rx,0,8,30,00,14,FF,FF,FF,FF,FF,
419378465,18FF3521,true,Rx,0,8,00,00,00,01,10,04,00,00,
218000622,0CFE6CEE,true,Rx,0,8,38,0F,7F,C0,00,00,00,00,
419378465,18FF3521,true,Rx,0,8,00,00,00,01,10,04,00,00,
419378721,18FF3621,true,Rx,0,8,00,00,00,01,04,00,04,00,
419379489,18FF3921,true,Rx,0,8,00,00,00,00,00,00,FF,FF,
419378465,18FF3521,true,Rx,0,8,00,00,00,01,10,04,00,00,
217056256,0CF00400,true,Rx,0,8,30,7D,85,B5,17,00,07,85,
419378465,18FF3521,true,Rx,0,8,00,00,00,01,10,04,00,00,
419377431,18FF3117,true,Rx,0,8,00,00,01,01,00,66,00,05,
217056256,0CF00400,true,Rx,0,8,30,7D,85,B8,17,00,07,85,
418322209,18EF1721,true,Rx,0,8,01,02,FF,FF,FF,FF,FF,FF,
217056256,0CF00400,true,Rx,0,8,20,7D,85,BA,17,00,07,85,
419378465,18FF3521,true,Rx,0,8,00,00,00,01,10,04,00,00,
418322209,18EF1721,true,Rx,0,8,01,02,FF,FF,FF,FF,FF,FF,
419378465,18FF3521,true,Rx,0,8,00,00,00,01,10,04,00,00,
419377697,18FF3221,true,Rx,0,8,F4,FF,FF,FF,FF,FF,02,FA,
419378465,18FF3521,true,Rx,0,8,00,00,00,01,10,04,00,00,
419378721,18FF3621,true,Rx,0,8,00,00,00,01,04,00,04,00,
418322209,18EF1721,true,Rx,0,8,01,02,FF,FF,FF,FF,FF,FF,
419378465,18FF3521,true,Rx,0,8,00,00,00,01,10,04,00,00,
218000622,0CFE6CEE,true,Rx,0,8,38,0F,7F,C0,00,00,00,00,
419379233,18FF3821,true,Rx,0,8,FC,00,00,00,00,00,00,FF,
419379489,18FF3921,true,Rx,0,8,00,00,00,00,00,00,FF,FF,
218000622,0CFE6CEE,true,Rx,0,8,38,0F,7F,C0,00,00,00,00,
419378465,18FF3521,true,Rx,0,8,00,00,00,01,10,04,00,00,
217056256,0CF00400,true,Rx,0,8,40,7D,85,AC,17,00,07,85,
419378721,18FF3621,true,Rx,0,8,00,00,00,01,04,00,04,00,
419377431,18FF3117,true,Rx,0,8,00,00,01,01,00,66,00,05,
217056256,0CF00400,true,Rx,0,8,30,7D,85,B1,17,00,07,85,
418322209,18EF1721,true,Rx,0,8,01,02,FF,FF,FF,FF,FF,FF,
217056256,0CF00400,true,Rx,0,8,20,7D,85,B5,17,00,07,85,
218000622,0CFE6CEE,true,Rx,0,8,38,0F,7F,C0,00,00,00,00,
217056256,0CF00400,true,Rx,0,8,20,7D,85,B3,17,00,07,85,
419377697,18FF3221,true,Rx,0,8,F4,FF,FF,FF,FF,FF,02,FA,
418322209,18EF1721,true,Rx,0,8,01,02,FF,FF,FF,FF,FF,FF,
419378465,18FF3521,true,Rx,0,8,00,00,00,01,10,04,00,00,
419378721,18FF3621,true,Rx,0,8,00,00,00,01,04,00,04,00,
418322209,18EF1721,true,Rx,0,8,01,02,FF,FF,FF,FF,FF,FF,
419378465,18FF3521,true,Rx,0,8,00,00,00,01,10,04,00,00,
419377953,18FF3321,true,Rx,0,8,B5,22,EF,05,43,16,F3,15,
419378465,18FF3521,true,Rx,0,8,00,00,00,01,10,04,00,00,
419378721,18FF3621,true,Rx,0,8,00,00,00,01,04,00,04,00,
218000622,0CFE6CEE,true,Rx,0,8,38,0F,7F,C0,00,00,00,00,
419378465,18FF3521,true,Rx,0,8,00,00,00,01,10,04,00,00,
217056256,0CF00400,true,Rx,0,8,30,7D,85,AF,17,00,07,85,
419378465,18FF3521,true,Rx,0,8,00,00,00,01,10,04,00,00,
419378721,18FF3621,true,Rx,0,8,00,00,00,01,04,00,04,00,
217056256,0CF00400,true,Rx,0,8,20,7D,85,B1,17,00,07,85,
